(19.848000) vcan0 00000005#443C1B0000000000 R
(19.849000) vcan0 00000006#A83C1B0000000000 R
(19.850000) vcan0 00000001#0C3D1B0000000000 R
(19.851000) vcan0 00000002#703D1B0000000000 R
(19.852000) vcan0 00000003#D43D1B0000000000 R
(19.853000) vcan0 00000004#383E1B0000000000 R
(19.854000) vcan0 00000005#9C3E1B0000000000 R
(19.855000) vcan0 00000006#003F1B0000000000 R
(19.856000) vcan0 00000001#643F1B0000000000 R
(19.857000) vcan0 00000002#C83F1B0000000000 R
(19.858000) vcan0 00000003#2C401B0000000000 R
(19.859000) vcan0 00000004#90401B0000000000 R
(19.860000) vcan0 00000005#F4401B0000000000 R
(19.861000) vcan0 00000006#58411B0000000000 R
(19.862000) vcan0 00000001#BC411B0000000000 R
(19.863000) vcan0 00000002#20421B0000000000 R
(19.864000) vcan0 00000003#84421B0000000000 R
(19.865000) vcan0 00000004#E8421B0000000000 R
(19.866000) vcan0 00000005#4C431B0000000000 R
(19.867000) vcan0 00000006#B0431B0000000000 R
(19.868000) vcan0 00000001#14441B0000000000 R
(19.869000) vcan0 00000002#78441B0000000000 R
(19.870000) vcan0 00000003#DC441B0000000000 R
(19.871000) vcan0 00000004#40451B0000000000 R
(19.872000) vcan0 00000005#A4451B0000000000 R
(19.873000) vcan0 00000006#08461B0000000000 R
(19.874000) vcan0 00000001#6C461B0000000000 R
(19.875000) vcan0 00000002#D0461B0000000000 R
(19.876000) vcan0 00000003#34471B0000000000 R
(19.877000) vcan0 00000004#98471B0000000000 R
(19.878000) vcan0 00000005#FC471B0000000000 R
(19.879000) vcan0 00000006#60481B0000000000 R
(19.880000) vcan0 00000001#C4481B0000000000 R
(19.881000) vcan0 00000002#28491B0000000000 R
(19.882000) vcan0 00000003#8C491B0000000000 R
(19.883000) vcan0 00000004#F0491B0000000000 R
(19.884000) vcan0 00000005#544A1B0000000000 R
(19.885000) vcan0 00000006#B84A1B0000000000 R
(19.886000) vcan0 00000001#1C4B1B0000000000 R
(19.887000) vcan0 00000002#804B1B0000000000 R
(19.888000) vcan0 00000003#E44B1B0000000000 R
(19.889000) vcan0 00000004#484C1B0000000000 R
(19.890000) vcan0 00000005#AC4C1B0000000000 R
(19.891000) vcan0 00000006#104D1B0000000000 R
(19.892000) vcan0 00000001#744D1B0000000000 R
(19.893000) vcan0 00000002#D84D1B0000000000 R
(19.894000) vcan0 00000003#3C4E1B0000000000 R
(19.895000) vcan0 00000004#A04E1B0000000000 R
(19.896000) vcan0 00000005#044F1B0000000000 R
(19.897000) vcan0 00000006#684F1B0000000000 R
(19.898000) vcan0 00000001#CC4F1B0000000000 R
(19.899000) vcan0 00000002#30501B0000000000 R
(19.900000) vcan0 00000003#94501B0000000000 R
(19.901000) vcan0 00000004#F8501B0000000000 R
(19.902000) vcan0 00000005#5C511B0000000000 R
(19.903000) vcan0 00000006#C0511B0000000000 R
(19.904000) vcan0 00000001#24521B0000000000 R
(19.905000) vcan0 00000002#88521B0000000000 R
(19.906000) vcan0 00000003#EC521B0000000000 R
(19.907000) vcan0 00000004#50531B0000000000 R
(19.908000) vcan0 00000005#B4531B0000000000 R
(19.909000) vcan0 00000006#18541B0000000000 R
(19.910000) vcan0 00000001#7C541B0000000000 R
(19.911000) vcan0 00000002#E0541B0000000000 R
(19.912000) vcan0 00000003#44551B0000000000 R
(19.913000) vcan0 00000004#A8551B0000000000 R
(19.914000) vcan0 00000005#0C561B0000000000 R
(19.915000) vcan0 00000006#70561B0000000000 R
(19.916000) vcan0 00000001#D4561B0000000000 R
(19.917000) vcan0 00000002#38571B0000000000 R
(19.918000) vcan0 00000003#9C571B0000000000 R
(19.919000) vcan0 00000004#00581B0000000000 R
(19.920000) vcan0 00000005#64581B0000000000 R
(19.921000) vcan0 00000006#C8581B0000000000 R
(19.922000) vcan0 00000001#2C591B0000000000 R
(19.923000) vcan0 00000002#90591B0000000000 R
(19.924000) vcan0 00000003#F4591B0000000000 R
(19.925000) vcan0 00000004#585A1B0000000000 R
(19.926000) vcan0 00000005#BC5A1B0000000000 R
(19.927000) vcan0 00000006#205B1B0000000000 R
(19.928000) vcan0 00000001#845B1B0000000000 R
(19.929000) vcan0 00000002#E85B1B0000000000 R
(19.930000) vcan0 00000003#4C5C1B0000000000 R
(19.931000) vcan0 00000004#B05C1B0000000000 R
(19.932000) vcan0 00000005#145D1B0000000000 R
(19.933000) vcan0 00000006#785D1B0000000000 R
(19.934000) vcan0 00000001#DC5D1B0000000000 R
(19.935000) vcan0 00000002#405E1B0000000000 R
(19.936000) vcan0 00000003#A45E1B0000000000 R
(19.937000) vcan0 00000004#085F1B0000000000 R
(19.938000) vcan0 00000005#6C5F1B0000000000 R
(19.939000) vcan0 00000006#D05F1B0000000000 R
(19.940000) vcan0 00000001#34601B0000000000 R
(19.941000) vcan0 00000002#98601B0000000000 R
(19.942000) vcan0 00000003#FC601B0000000000 R
(19.943000) vcan0 00000004#60611B0000000000 R
(19.944000) vcan0 00000005#C4611B0000000000 R
(19.945000) vcan0 00000006#28621B0000000000 R
(19.946000) vcan0 00000001#8C621B0000000000 R
(19.947000) vcan0 00000002#F0621B0000000000 R
(19.948000) vcan0 00000003#54631B0000000000 R
(19.949000) vcan0 00000004#B8631B0000000000 R
(19.950000) vcan0 00000005#1C641B0000000000 R
(19.951000) vcan0 00000006#80641B0000000000 R
(19.952000) vcan0 00000001#E4641B0000000000 R
(19.953000) vcan0 00000002#48651B0000000000 R
(19.954000) vcan0 00000003#AC651B0000000000 R
(19.955000) vcan0 00000004#10661B0000000000 R
(19.956000) vcan0 00000005#74661B0000000000 R
(19.957000) vcan0 00000006#D8661B0000000000 R
(19.958000) vcan0 00000001#3C671B0000000000 R
(19.959000) vcan0 00000002#A0671B0000000000 R
(19.960000) vcan0 00000003#04681B0000000000 R
(19.961000) vcan0 00000004#68681B0000000000 R
(19.962000) vcan0 00000005#CC681B0000000000 R
(19.963000) vcan0 00000006#30691B0000000000 R
(19.964000) vcan0 00000001#94691B0000000000 R
(19.965000) vcan0 00000002#F8691B0000000000 R
(19.966000) vcan0 00000003#5C6A1B0000000000 R
(19.967000) vcan0 00000004#C06A1B0000000000 R
(19.968000) vcan0 00000005#246B1B0000000000 R
(19.969000) vcan0 00000006#886B1B0000000000 R
(19.970000) vcan0 00000001#EC6B1B0000000000 R
(19.971000) vcan0 00000002#506C1B0000000000 R
(19.972000) vcan0 00000003#B46C1B0000000000 R
(19.973000) vcan0 00000004#186D1B0000000000 R
(19.974000) vcan0 00000005#7C6D1B0000000000 R
(19.975000) vcan0 00000006#E06D1B0000000000 R
(19.976000) vcan0 00000001#446E1B0000000000 R
(19.977000) vcan0 00000002#A86E1B0000000000 R
(19.978000) vcan0 00000003#0C6F1B0000000000 R
(19.979000) vcan0 00000004#706F1B0000000000 R
(19.980000) vcan0 00000005#D46F1B0000000000 R
(19.981000) vcan0 00000006#38701B0000000000 R
(19.982000) vcan0 00000001#9C701B0000000000 R
(19.983000) vcan0 00000002#00711B0000000000 R
(19.984000) vcan0 00000003#64711B0000000000 R
(19.985000) vcan0 00000004#C8711B0000000000 R
(19.986000) vcan0 00000005#2C721B0000000000 R
(19.987000) vcan0 00000006#90721B0000000000 R
(19.988000) vcan0 00000001#F4721B0000000000 R
(19.989000) vcan0 00000002#58731B0000000000 R
(19.990000) vcan0 00000003#BC731B0000000000 R
(19.991000) vcan0 00000004#20741B0000000000 R
(19.992000) vcan0 00000005#84741B0000000000 R
(19.993000) vcan0 00000006#E8741B0000000000 R
(19.994000) vcan0 00000001#4C751B0000000000 R
(19.995000) vcan0 00000002#B0751B0000000000 R
(19.996000) vcan0 00000003#14761B0000000000 R
(19.997000) vcan0 00000004#78761B0000000000 R
(19.998000) vcan0 00000005#DC761B0000000000 R
(19.999000) vcan0 00000006#40771B0000000000 R
(20.000000) vcan0 00000001#A4771B0000000000 R
(20.001000) vcan0 00000002#08781B0000000000 R
(20.002000) vcan0 00000003#6C781B0000000000 R
(20.003000) vcan0 00000004#D0781B0000000000 R
(20.004000) vcan0 00000005#34791B0000000000 R
(20.005000) vcan0 00000006#98791B0000000000 R
(20.006000) vcan0 00000001#FC791B0000000000 R
(20.007000) vcan0 00000002#607A1B0000000000 R
(20.008000) vcan0 00000003#C47A1B0000000000 R
(20.009000) vcan0 00000004#287B1B0000000000 R
(20.010000) vcan0 00000005#8C7B1B0000000000 R
(20.011000) vcan0 00000006#F07B1B0000000000 R
(20.012000) vcan0 00000001#547C1B0000000000 R
(20.013000) vcan0 00000002#B87C1B0000000000 R
(20.014000) vcan0 00000003#1C7D1B0000000000 R
(20.015000) vcan0 00000004#807D1B0000000000 R
(20.016000) vcan0 00000005#E47D1B0000000000 R
(20.017000) vcan0 00000006#487E1B0000000000 R
(20.018000) vcan0 00000001#AC7E1B0000000000 R
(20.019000) vcan0 00000002#107F1B0000000000 R
(20.020000) vcan0 00000003#747F1B0000000000 R
(20.021000) vcan0 00000004#D87F1B0000000000 R
(20.022000) vcan0 00000005#3C801B0000000000 R
(20.023000) vcan0 00000006#A0801B0000000000 R
(20.024000) vcan0 00000001#04811B0000000000 R
(20.025000) vcan0 00000002#68811B0000000000 R
(20.026000) vcan0 00000003#CC811B0000000000 R
(20.027000) vcan0 00000004#30821B0000000000 R
(20.028000) vcan0 00000005#94821B0000000000 R
(20.029000) vcan0 00000006#F8821B0000000000 R
(20.030000) vcan0 00000001#5C831B0000000000 R
(20.031000) vcan0 00000002#C0831B0000000000 R
(20.032000) vcan0 00000003#24841B0000000000 R
(20.033000) vcan0 00000004#88841B0000000000 R
(20.034000) vcan0 00000005#EC841B0000000000 R
(20.035000) vcan0 00000006#50851B0000000000 R
(20.036000) vcan0 00000001#B4851B0000000000 R
(20.037000) vcan0 00000002#18861B0000000000 R
(20.038000) vcan0 00000003#7C861B0000000000 R
(20.039000) vcan0 00000004#E0861B0000000000 R
(20.040000) vcan0 00000005#44871B0000000000 R
(20.041000) vcan0 00000006#A8871B0000000000 R
(20.042000) vcan0 00000001#0C881B0000000000 R
(20.043000) vcan0 00000002#70881B0000000000 R
(20.044000) vcan0 00000003#D4881B0000000000 R
(20.045000) vcan0 00000004#38891B0000000000 R
(20.046000) vcan0 00000005#9C891B0000000000 R
(20.047000) vcan0 00000006#008A1B0000000000 R
(20.048000) vcan0 00000001#648A1B0000000000 R
(20.049000) vcan0 00000002#C88A1B0000000000 R
(20.050000) vcan0 00000003#2C8B1B0000000000 R
(20.051000) vcan0 00000004#908B1B0000000000 R
(20.052000) vcan0 00000005#F48B1B0000000000 R
(20.053000) vcan0 00000006#588C1B0000000000 R
(20.054000) vcan0 00000001#BC8C1B0000000000 R
(20.055000) vcan0 00000002#208D1B0000000000 R
(20.056000) vcan0 00000003#848D1B0000000000 R
(20.057000) vcan0 00000004#E88D1B0000000000 R
(20.058000) vcan0 00000005#4C8E1B0000000000 R
(20.059000) vcan0 00000006#B08E1B0000000000 R
(20.060000) vcan0 00000001#148F1B0000000000 R
(20.061000) vcan0 00000002#788F1B0000000000 R
(20.062000) vcan0 00000003#DC8F1B0000000000 R
(20.063000) vcan0 00000004#40901B0000000000 R
(20.064000) vcan0 00000005#A4901B0000000000 R
(20.065000) vcan0 00000006#08911B0000000000 R
(20.066000) vcan0 00000001#6C911B0000000000 R
(20.067000) vcan0 00000002#D0911B0000000000 R
(20.068000) vcan0 00000003#34921B0000000000 R
(20.069000) vcan0 00000004#98921B0000000000 R
(20.070000) vcan0 00000005#FC921B0000000000 R
(20.071000) vcan0 00000006#60931B0000000000 R
(20.072000) vcan0 00000001#C4931B0000000000 R
(20.073000) vcan0 00000002#28941B0000000000 R
(20.074000) vcan0 00000003#8C941B0000000000 R
(20.075000) vcan0 00000004#F0941B0000000000 R
(20.076000) vcan0 00000005#54951B0000000000 R
(20.077000) vcan0 00000006#B8951B0000000000 R
(20.078000) vcan0 00000001#1C961B0000000000 R
(20.079000) vcan0 00000002#80961B0000000000 R
(20.080000) vcan0 00000003#E4961B0000000000 R
(20.081000) vcan0 00000004#48971B0000000000 R
(20.082000) vcan0 00000005#AC971B0000000000 R
(20.083000) vcan0 00000006#10981B0000000000 R
(20.084000) vcan0 00000001#74981B0000000000 R
(20.085000) vcan0 00000002#D8981B0000000000 R
(20.086000) vcan0 00000003#3C991B0000000000 R
(20.087000) vcan0 00000004#A0991B0000000000 R
(20.088000) vcan0 00000005#049A1B0000000000 R
(20.089000) vcan0 00000006#689A1B0000000000 R
(20.090000) vcan0 00000001#CC9A1B0000000000 R
(20.091000) vcan0 00000002#309B1B0000000000 R
(20.092000) vcan0 00000003#949B1B0000000000 R
(20.093000) vcan0 00000004#F89B1B0000000000 R
(20.094000) vcan0 00000005#5C9C1B0000000000 R
(20.095000) vcan0 00000006#C09C1B0000000000 R
(20.096000) vcan0 00000001#249D1B0000000000 R
(20.097000) vcan0 00000002#889D1B0000000000 R
(20.098000) vcan0 00000003#EC9D1B0000000000 R
(20.099000) vcan0 00000004#509E1B0000000000 R
(20.100000) vcan0 00000005#B49E1B0000000000 R
(20.101000) vcan0 00000006#189F1B0000000000 R
