(45.838000) vcan0 00000003#9CE4420000000000 R
(45.839000) vcan0 00000004#00E5420000000000 R
(45.840000) vcan0 00000005#64E5420000000000 R
(45.841000) vcan0 00000006#C8E5420000000000 R
(45.842000) vcan0 00000001#2CE6420000000000 R
(45.843000) vcan0 00000002#90E6420000000000 R
(45.844000) vcan0 00000003#F4E6420000000000 R
(45.845000) vcan0 00000004#58E7420000000000 R
(45.846000) vcan0 00000005#BCE7420000000000 R
(45.847000) vcan0 00000006#20E8420000000000 R
(45.848000) vcan0 00000001#84E8420000000000 R
(45.849000) vcan0 00000002#E8E8420000000000 R
(45.850000) vcan0 00000003#4CE9420000000000 R
(45.851000) vcan0 00000004#B0E9420000000000 R
(45.852000) vcan0 00000005#14EA420000000000 R
(45.853000) vcan0 00000006#78EA420000000000 R
(45.854000) vcan0 00000001#DCEA420000000000 R
(45.855000) vcan0 00000002#40EB420000000000 R
(45.856000) vcan0 00000003#A4EB420000000000 R
(45.857000) vcan0 00000004#08EC420000000000 R
(45.858000) vcan0 00000005#6CEC420000000000 R
(45.859000) vcan0 00000006#D0EC420000000000 R
(45.860000) vcan0 00000001#34ED420000000000 R
(45.861000) vcan0 00000002#98ED420000000000 R
(45.862000) vcan0 00000003#FCED420000000000 R
(45.863000) vcan0 00000004#60EE420000000000 R
(45.864000) vcan0 00000005#C4EE420000000000 R
(45.865000) vcan0 00000006#28EF420000000000 R
(45.866000) vcan0 00000001#8CEF420000000000 R
(45.867000) vcan0 00000002#F0EF420000000000 R
(45.868000) vcan0 00000003#54F0420000000000 R
(45.869000) vcan0 00000004#B8F0420000000000 R
(45.870000) vcan0 00000005#1CF1420000000000 R
(45.871000) vcan0 00000006#80F1420000000000 R
(45.872000) vcan0 00000001#E4F1420000000000 R
(45.873000) vcan0 00000002#48F2420000000000 R
(45.874000) vcan0 00000003#ACF2420000000000 R
(45.875000) vcan0 00000004#10F3420000000000 R
(45.876000) vcan0 00000005#74F3420000000000 R
(45.877000) vcan0 00000006#D8F3420000000000 R
(45.878000) vcan0 00000001#3CF4420000000000 R
(45.879000) vcan0 00000002#A0F4420000000000 R
(45.880000) vcan0 00000003#04F5420000000000 R
(45.881000) vcan0 00000004#68F5420000000000 R
(45.882000) vcan0 00000005#CCF5420000000000 R
(45.883000) vcan0 00000006#30F6420000000000 R
(45.884000) vcan0 00000001#94F6420000000000 R
(45.885000) vcan0 00000002#F8F6420000000000 R
(45.886000) vcan0 00000003#5CF7420000000000 R
(45.887000) vcan0 00000004#C0F7420000000000 R
(45.888000) vcan0 00000005#24F8420000000000 R
(45.889000) vcan0 00000006#88F8420000000000 R
(45.890000) vcan0 00000001#ECF8420000000000 R
(45.891000) vcan0 00000002#50F9420000000000 R
(45.892000) vcan0 00000003#B4F9420000000000 R
(45.893000) vcan0 00000004#18FA420000000000 R
(45.894000) vcan0 00000005#7CFA420000000000 R
(45.895000) vcan0 00000006#E0FA420000000000 R
(45.896000) vcan0 00000001#44FB420000000000 R
(45.897000) vcan0 00000002#A8FB420000000000 R
(45.898000) vcan0 00000003#0CFC420000000000 R
(45.899000) vcan0 00000004#70FC420000000000 R
(45.900000) vcan0 00000005#D4FC420000000000 R
(45.901000) vcan0 00000006#38FD420000000000 R
(45.902000) vcan0 00000001#9CFD420000000000 R
(45.903000) vcan0 00000002#00FE420000000000 R
(45.904000) vcan0 00000003#64FE420000000000 R
(45.905000) vcan0 00000004#C8FE420000000000 R
(45.906000) vcan0 00000005#2CFF420000000000 R
(45.907000) vcan0 00000006#90FF420000000000 R
(45.908000) vcan0 00000001#F4FF420000000000 R
(45.909000) vcan0 00000002#5800430000000000 R
(45.910000) vcan0 00000003#BC00430000000000 R
(45.911000) vcan0 00000004#2001430000000000 R
(45.912000) vcan0 00000005#8401430000000000 R
(45.913000) vcan0 00000006#E801430000000000 R
(45.914000) vcan0 00000001#4C02430000000000 R
(45.915000) vcan0 00000002#B002430000000000 R
(45.916000) vcan0 00000003#1403430000000000 R
(45.917000) vcan0 00000004#7803430000000000 R
(45.918000) vcan0 00000005#DC03430000000000 R
(45.919000) vcan0 00000006#4004430000000000 R
(45.920000) vcan0 00000001#A404430000000000 R
(45.921000) vcan0 00000002#0805430000000000 R
(45.922000) vcan0 00000003#6C05430000000000 R
(45.923000) vcan0 00000004#D005430000000000 R
(45.924000) vcan0 00000005#3406430000000000 R
(45.925000) vcan0 00000006#9806430000000000 R
(45.926000) vcan0 00000001#FC06430000000000 R
(45.927000) vcan0 00000002#6007430000000000 R
(45.928000) vcan0 00000003#C407430000000000 R
(45.929000) vcan0 00000004#2808430000000000 R
(45.930000) vcan0 00000005#8C08430000000000 R
(45.931000) vcan0 00000006#F008430000000000 R
(45.932000) vcan0 00000001#5409430000000000 R
(45.933000) vcan0 00000002#B809430000000000 R
(45.934000) vcan0 00000003#1C0A430000000000 R
(45.935000) vcan0 00000004#800A430000000000 R
(45.936000) vcan0 00000005#E40A430000000000 R
(45.937000) vcan0 00000006#480B430000000000 R
(45.938000) vcan0 00000001#AC0B430000000000 R
(45.939000) vcan0 00000002#100C430000000000 R
(45.940000) vcan0 00000003#740C430000000000 R
(45.941000) vcan0 00000004#D80C430000000000 R
(45.942000) vcan0 00000005#3C0D430000000000 R
(45.943000) vcan0 00000006#A00D430000000000 R
(45.944000) vcan0 00000001#040E430000000000 R
(45.945000) vcan0 00000002#680E430000000000 R
(45.946000) vcan0 00000003#CC0E430000000000 R
(45.947000) vcan0 00000004#300F430000000000 R
(45.948000) vcan0 00000005#940F430000000000 R
(45.949000) vcan0 00000006#F80F430000000000 R
(45.950000) vcan0 00000001#5C10430000000000 R
(45.951000) vcan0 00000002#C010430000000000 R
(45.952000) vcan0 00000003#2411430000000000 R
(45.953000) vcan0 00000004#8811430000000000 R
(45.954000) vcan0 00000005#EC11430000000000 R
(45.955000) vcan0 00000006#5012430000000000 R
(45.956000) vcan0 00000001#B412430000000000 R
(45.957000) vcan0 00000002#1813430000000000 R
(45.958000) vcan0 00000003#7C13430000000000 R
(45.959000) vcan0 00000004#E013430000000000 R
(45.960000) vcan0 00000005#4414430000000000 R
(45.961000) vcan0 00000006#A814430000000000 R
(45.962000) vcan0 00000001#0C15430000000000 R
(45.963000) vcan0 00000002#7015430000000000 R
(45.964000) vcan0 00000003#D415430000000000 R
(45.965000) vcan0 00000004#3816430000000000 R
(45.966000) vcan0 00000005#9C16430000000000 R
(45.967000) vcan0 00000006#0017430000000000 R
(45.968000) vcan0 00000001#6417430000000000 R
(45.969000) vcan0 00000002#C817430000000000 R
(45.970000) vcan0 00000003#2C18430000000000 R
(45.971000) vcan0 00000004#9018430000000000 R
(45.972000) vcan0 00000005#F418430000000000 R
(45.973000) vcan0 00000006#5819430000000000 R
(45.974000) vcan0 00000001#BC19430000000000 R
(45.975000) vcan0 00000002#201A430000000000 R
(45.976000) vcan0 00000003#841A430000000000 R
(45.977000) vcan0 00000004#E81A430000000000 R
(45.978000) vcan0 00000005#4C1B430000000000 R
(45.979000) vcan0 00000006#B01B430000000000 R
(45.980000) vcan0 00000001#141C430000000000 R
(45.981000) vcan0 00000002#781C430000000000 R
(45.982000) vcan0 00000003#DC1C430000000000 R
(45.983000) vcan0 00000004#401D430000000000 R
(45.984000) vcan0 00000005#A41D430000000000 R
(45.985000) vcan0 00000006#081E430000000000 R
(45.986000) vcan0 00000001#6C1E430000000000 R
(45.987000) vcan0 00000002#D01E430000000000 R
(45.988000) vcan0 00000003#341F430000000000 R
(45.989000) vcan0 00000004#981F430000000000 R
(45.990000) vcan0 00000005#FC1F430000000000 R
(45.991000) vcan0 00000006#6020430000000000 R
(45.992000) vcan0 00000001#C420430000000000 R
(45.993000) vcan0 00000002#2821430000000000 R
(45.994000) vcan0 00000003#8C21430000000000 R
(45.995000) vcan0 00000004#F021430000000000 R
(45.996000) vcan0 00000005#5422430000000000 R
(45.997000) vcan0 00000006#B822430000000000 R
(45.998000) vcan0 00000001#1C23430000000000 R
(45.999000) vcan0 00000002#8023430000000000 R
(46.000000) vcan0 00000003#E423430000000000 R
(46.001000) vcan0 00000004#4824430000000000 R
(46.002000) vcan0 00000005#AC24430000000000 R
(46.003000) vcan0 00000006#1025430000000000 R
(46.004000) vcan0 00000001#7425430000000000 R
(46.005000) vcan0 00000002#D825430000000000 R
(46.006000) vcan0 00000003#3C26430000000000 R
(46.007000) vcan0 00000004#A026430000000000 R
(46.008000) vcan0 00000005#0427430000000000 R
(46.009000) vcan0 00000006#6827430000000000 R
(46.010000) vcan0 00000001#CC27430000000000 R
(46.011000) vcan0 00000002#3028430000000000 R
(46.012000) vcan0 00000003#9428430000000000 R
(46.013000) vcan0 00000004#F828430000000000 R
(46.014000) vcan0 00000005#5C29430000000000 R
(46.015000) vcan0 00000006#C029430000000000 R
(46.016000) vcan0 00000001#242A430000000000 R
(46.017000) vcan0 00000002#882A430000000000 R
(46.018000) vcan0 00000003#EC2A430000000000 R
(46.019000) vcan0 00000004#502B430000000000 R
(46.020000) vcan0 00000005#B42B430000000000 R
(46.021000) vcan0 00000006#182C430000000000 R
(46.022000) vcan0 00000001#7C2C430000000000 R
(46.023000) vcan0 00000002#E02C430000000000 R
(46.024000) vcan0 00000003#442D430000000000 R
(46.025000) vcan0 00000004#A82D430000000000 R
(46.026000) vcan0 00000005#0C2E430000000000 R
(46.027000) vcan0 00000006#702E430000000000 R
(46.028000) vcan0 00000001#D42E430000000000 R
(46.029000) vcan0 00000002#382F430000000000 R
(46.030000) vcan0 00000003#9C2F430000000000 R
(46.031000) vcan0 00000004#0030430000000000 R
(46.032000) vcan0 00000005#6430430000000000 R
(46.033000) vcan0 00000006#C830430000000000 R
(46.034000) vcan0 00000001#2C31430000000000 R
(46.035000) vcan0 00000002#9031430000000000 R
(46.036000) vcan0 00000003#F431430000000000 R
(46.037000) vcan0 00000004#5832430000000000 R
(46.038000) vcan0 00000005#BC32430000000000 R
(46.039000) vcan0 00000006#2033430000000000 R
(46.040000) vcan0 00000001#8433430000000000 R
(46.041000) vcan0 00000002#E833430000000000 R
(46.042000) vcan0 00000003#4C34430000000000 R
(46.043000) vcan0 00000004#B034430000000000 R
(46.044000) vcan0 00000005#1435430000000000 R
(46.045000) vcan0 00000006#7835430000000000 R
(46.046000) vcan0 00000001#DC35430000000000 R
(46.047000) vcan0 00000002#4036430000000000 R
(46.048000) vcan0 00000003#A436430000000000 R
(46.049000) vcan0 00000004#0837430000000000 R
(46.050000) vcan0 00000005#6C37430000000000 R
(46.051000) vcan0 00000006#D037430000000000 R
(46.052000) vcan0 00000001#3438430000000000 R
(46.053000) vcan0 00000002#9838430000000000 R
(46.054000) vcan0 00000003#FC38430000000000 R
(46.055000) vcan0 00000004#6039430000000000 R
(46.056000) vcan0 00000005#C439430000000000 R
(46.057000) vcan0 00000006#283A430000000000 R
(46.058000) vcan0 00000001#8C3A430000000000 R
(46.059000) vcan0 00000002#F03A430000000000 R
(46.060000) vcan0 00000003#543B430000000000 R
(46.061000) vcan0 00000004#B83B430000000000 R
(46.062000) vcan0 00000005#1C3C430000000000 R
(46.063000) vcan0 00000006#803C430000000000 R
(46.064000) vcan0 00000001#E43C430000000000 R
(46.065000) vcan0 00000002#483D430000000000 R
(46.066000) vcan0 00000003#AC3D430000000000 R
(46.067000) vcan0 00000004#103E430000000000 R
(46.068000) vcan0 00000005#743E430000000000 R
(46.069000) vcan0 00000006#D83E430000000000 R
(46.070000) vcan0 00000001#3C3F430000000000 R
(46.071000) vcan0 00000002#A03F430000000000 R
(46.072000) vcan0 00000003#0440430000000000 R
(46.073000) vcan0 00000004#6840430000000000 R
(46.074000) vcan0 00000005#CC40430000000000 R
(46.075000) vcan0 00000006#3041430000000000 R
(46.076000) vcan0 00000001#9441430000000000 R
(46.077000) vcan0 00000002#F841430000000000 R
(46.078000) vcan0 00000003#5C42430000000000 R
(46.079000) vcan0 00000004#C042430000000000 R
(46.080000) vcan0 00000005#2443430000000000 R
(46.081000) vcan0 00000006#8843430000000000 R
(46.082000) vcan0 00000001#EC43430000000000 R
(46.083000) vcan0 00000002#5044430000000000 R
(46.084000) vcan0 00000003#B444430000000000 R
(46.085000) vcan0 00000004#1845430000000000 R
(46.086000) vcan0 00000005#7C45430000000000 R
(46.087000) vcan0 00000006#E045430000000000 R
(46.088000) vcan0 00000001#4446430000000000 R
(46.089000) vcan0 00000002#A846430000000000 R
(46.090000) vcan0 00000003#0C47430000000000 R
(46.091000) vcan0 00000004#7047430000000000 R
(46.092000) vcan0 00000005#D447430000000000 R
(46.093000) vcan0 00000006#3848430000000000 R
(46.094000) vcan0 00000001#9C48430000000000 R
(46.095000) vcan0 00000002#0049430000000000 R
(46.096000) vcan0 00000003#6449430000000000 R
(46.097000) vcan0 00000004#C849430000000000 R
(46.098000) vcan0 00000005#2C4A430000000000 R
(46.099000) vcan0 00000006#904A430000000000 R
(46.100000) vcan0 00000001#F44A430000000000 R
(46.101000) vcan0 00000002#584B430000000000 R
(46.102000) vcan0 00000003#BC4B430000000000 R
(46.103000) vcan0 00000004#204C430000000000 R
(46.104000) vcan0 00000005#844C430000000000 R
(46.105000) vcan0 00000006#E84C430000000000 R
(46.106000) vcan0 00000001#4C4D430000000000 R
(46.107000) vcan0 00000002#B04D430000000000 R
(46.108000) vcan0 00000003#144E430000000000 R
(46.109000) vcan0 00000004#784E430000000000 R
(46.110000) vcan0 00000005#DC4E430000000000 R
(46.111000) vcan0 00000006#404F430000000000 R
(46.112000) vcan0 00000001#A44F430000000000 R
(46.113000) vcan0 00000002#0850430000000000 R
(46.114000) vcan0 00000003#6C50430000000000 R
(46.115000) vcan0 00000004#D050430000000000 R
(46.116000) vcan0 00000005#3451430000000000 R
(46.117000) vcan0 00000006#9851430000000000 R
(46.118000) vcan0 00000001#FC51430000000000 R
(46.119000) vcan0 00000002#6052430000000000 R
(46.120000) vcan0 00000003#C452430000000000 R
(46.121000) vcan0 00000004#2853430000000000 R
(46.122000) vcan0 00000005#8C53430000000000 R
(46.123000) vcan0 00000006#F053430000000000 R
(46.124000) vcan0 00000001#5454430000000000 R
(46.125000) vcan0 00000002#B854430000000000 R
(46.126000) vcan0 00000003#1C55430000000000 R
(46.127000) vcan0 00000004#8055430000000000 R
(46.128000) vcan0 00000005#E455430000000000 R
(46.129000) vcan0 00000006#4856430000000000 R
(46.130000) vcan0 00000001#AC56430000000000 R
(46.131000) vcan0 00000002#1057430000000000 R
(46.132000) vcan0 00000003#7457430000000000 R
(46.133000) vcan0 00000004#D857430000000000 R
(46.134000) vcan0 00000005#3C58430000000000 R
(46.135000) vcan0 00000006#A058430000000000 R
(46.136000) vcan0 00000001#0459430000000000 R
(46.137000) vcan0 00000002#6859430000000000 R
(46.138000) vcan0 00000003#CC59430000000000 R
(46.139000) vcan0 00000004#305A430000000000 R
(46.140000) vcan0 00000005#945A430000000000 R
(46.141000) vcan0 00000006#F85A430000000000 R
(46.142000) vcan0 00000001#5C5B430000000000 R
(46.143000) vcan0 00000002#C05B430000000000 R
(46.144000) vcan0 00000003#245C430000000000 R
(46.145000) vcan0 00000004#885C430000000000 R
(46.146000) vcan0 00000005#EC5C430000000000 R
(46.147000) vcan0 00000006#505D430000000000 R
(46.148000) vcan0 00000001#B45D430000000000 R
(46.149000) vcan0 00000002#185E430000000000 R
(46.150000) vcan0 00000003#7C5E430000000000 R
(46.151000) vcan0 00000004#E05E430000000000 R
(46.152000) vcan0 00000005#445F430000000000 R
(46.153000) vcan0 00000006#A85F430000000000 R
(46.154000) vcan0 00000001#0C60430000000000 R
(46.155000) vcan0 00000002#7060430000000000 R
(46.156000) vcan0 00000003#D460430000000000 R
(46.157000) vcan0 00000004#3861430000000000 R
(46.158000) vcan0 00000005#9C61430000000000 R
(46.159000) vcan0 00000006#0062430000000000 R
(46.160000) vcan0 00000001#6462430000000000 R
(46.161000) vcan0 00000002#C862430000000000 R
(46.162000) vcan0 00000003#2C63430000000000 R
(46.163000) vcan0 00000004#9063430000000000 R
(46.164000) vcan0 00000005#F463430000000000 R
(46.165000) vcan0 00000006#5864430000000000 R
(46.166000) vcan0 00000001#BC64430000000000 R
(46.167000) vcan0 00000002#2065430000000000 R
(46.168000) vcan0 00000003#8465430000000000 R
(46.169000) vcan0 00000004#E865430000000000 R
(46.170000) vcan0 00000005#4C66430000000000 R
(46.171000) vcan0 00000006#B066430000000000 R
(46.172000) vcan0 00000001#1467430000000000 R
(46.173000) vcan0 00000002#7867430000000000 R
(46.174000) vcan0 00000003#DC67430000000000 R
(46.175000) vcan0 00000004#4068430000000000 R
(46.176000) vcan0 00000005#A468430000000000 R
(46.177000) vcan0 00000006#0869430000000000 R
(46.178000) vcan0 00000001#6C69430000000000 R
(46.179000) vcan0 00000002#D069430000000000 R
(46.180000) vcan0 00000003#346A430000000000 R
(46.181000) vcan0 00000004#986A430000000000 R
(46.182000) vcan0 00000005#FC6A430000000000 R
(46.183000) vcan0 00000006#606B430000000000 R
(46.184000) vcan0 00000001#C46B430000000000 R
(46.185000) vcan0 00000002#286C430000000000 R
(46.186000) vcan0 00000003#8C6C430000000000 R
(46.187000) vcan0 00000004#F06C430000000000 R
(46.188000) vcan0 00000005#546D430000000000 R
(46.189000) vcan0 00000006#B86D430000000000 R
(46.190000) vcan0 00000001#1C6E430000000000 R
(46.191000) vcan0 00000002#806E430000000000 R
(46.192000) vcan0 00000003#E46E430000000000 R
(46.193000) vcan0 00000004#486F430000000000 R
(46.194000) vcan0 00000005#AC6F430000000000 R
(46.195000) vcan0 00000006#1070430000000000 R
(46.196000) vcan0 00000001#7470430000000000 R
(46.197000) vcan0 00000002#D870430000000000 R
(46.198000) vcan0 00000003#3C71430000000000 R
(46.199000) vcan0 00000004#A071430000000000 R
(46.200000) vcan0 00000005#0472430000000000 R
(46.201000) vcan0 00000006#6872430000000000 R
(46.202000) vcan0 00000001#CC72430000000000 R
(46.203000) vcan0 00000002#3073430000000000 R
(46.204000) vcan0 00000003#9473430000000000 R
(46.205000) vcan0 00000004#F873430000000000 R
(46.206000) vcan0 00000005#5C74430000000000 R
(46.207000) vcan0 00000006#C074430000000000 R
(46.208000) vcan0 00000001#2475430000000000 R
(46.209000) vcan0 00000002#8875430000000000 R
(46.210000) vcan0 00000003#EC75430000000000 R
(46.211000) vcan0 00000004#5076430000000000 R
(46.212000) vcan0 00000005#B476430000000000 R
(46.213000) vcan0 00000006#1877430000000000 R
(46.214000) vcan0 00000001#7C77430000000000 R
(46.215000) vcan0 00000002#E077430000000000 R
(46.216000) vcan0 00000003#4478430000000000 R
(46.217000) vcan0 00000004#A878430000000000 R
(46.218000) vcan0 00000005#0C79430000000000 R
(46.219000) vcan0 00000006#7079430000000000 R
(46.220000) vcan0 00000001#D479430000000000 R
(46.221000) vcan0 00000002#387A430000000000 R
(46.222000) vcan0 00000003#9C7A430000000000 R
(46.223000) vcan0 00000004#007B430000000000 R
(46.224000) vcan0 00000005#647B430000000000 R
(46.225000) vcan0 00000006#C87B430000000000 R
(46.226000) vcan0 00000001#2C7C430000000000 R
(46.227000) vcan0 00000002#907C430000000000 R
(46.228000) vcan0 00000003#F47C430000000000 R
(46.229000) vcan0 00000004#587D430000000000 R
(46.230000) vcan0 00000005#BC7D430000000000 R
(46.231000) vcan0 00000006#207E430000000000 R
(46.232000) vcan0 00000001#847E430000000000 R
(46.233000) vcan0 00000002#E87E430000000000 R
(46.234000) vcan0 00000003#4C7F430000000000 R
(46.235000) vcan0 00000004#B07F430000000000 R
(46.236000) vcan0 00000005#1480430000000000 R
(46.237000) vcan0 00000006#7880430000000000 R
(46.238000) vcan0 00000001#DC80430000000000 R
(46.239000) vcan0 00000002#4081430000000000 R
(46.240000) vcan0 00000003#A481430000000000 R
(46.241000) vcan0 00000004#0882430000000000 R
(46.242000) vcan0 00000005#6C82430000000000 R
(46.243000) vcan0 00000006#D082430000000000 R
(46.244000) vcan0 00000001#3483430000000000 R
(46.245000) vcan0 00000002#9883430000000000 R
(46.246000) vcan0 00000003#FC83430000000000 R
(46.247000) vcan0 00000004#6084430000000000 R
(46.248000) vcan0 00000005#C484430000000000 R
(46.249000) vcan0 00000006#2885430000000000 R
(46.250000) vcan0 00000001#8C85430000000000 R
(46.251000) vcan0 00000002#F085430000000000 R
(46.252000) vcan0 00000003#5486430000000000 R
(46.253000) vcan0 00000004#B886430000000000 R
(46.254000) vcan0 00000005#1C87430000000000 R
(46.255000) vcan0 00000006#8087430000000000 R
(46.256000) vcan0 00000001#E487430000000000 R
(46.257000) vcan0 00000002#4888430000000000 R
(46.258000) vcan0 00000003#AC88430000000000 R
(46.259000) vcan0 00000004#1089430000000000 R
(46.260000) vcan0 00000005#7489430000000000 R
(46.261000) vcan0 00000006#D889430000000000 R
(46.262000) vcan0 00000001#3C8A430000000000 R
(46.263000) vcan0 00000002#A08A430000000000 R
(46.264000) vcan0 00000003#048B430000000000 R
(46.265000) vcan0 00000004#688B430000000000 R
(46.266000) vcan0 00000005#CC8B430000000000 R
(46.267000) vcan0 00000006#308C430000000000 R
(46.268000) vcan0 00000001#948C430000000000 R
(46.269000) vcan0 00000002#F88C430000000000 R
(46.270000) vcan0 00000003#5C8D430000000000 R
(46.271000) vcan0 00000004#C08D430000000000 R
(46.272000) vcan0 00000005#248E430000000000 R
(46.273000) vcan0 00000006#888E430000000000 R
(46.274000) vcan0 00000001#EC8E430000000000 R
(46.275000) vcan0 00000002#508F430000000000 R
(46.276000) vcan0 00000003#B48F430000000000 R
(46.277000) vcan0 00000004#1890430000000000 R
(46.278000) vcan0 00000005#7C90430000000000 R
(46.279000) vcan0 00000006#E090430000000000 R
(46.280000) vcan0 00000001#4491430000000000 R
(46.281000) vcan0 00000002#A891430000000000 R
(46.282000) vcan0 00000003#0C92430000000000 R
(46.283000) vcan0 00000004#7092430000000000 R
(46.284000) vcan0 00000005#D492430000000000 R
(46.285000) vcan0 00000006#3893430000000000 R
(46.286000) vcan0 00000001#9C93430000000000 R
(46.287000) vcan0 00000002#0094430000000000 R
(46.288000) vcan0 00000003#6494430000000000 R
(46.289000) vcan0 00000004#C894430000000000 R
(46.290000) vcan0 00000005#2C95430000000000 R
(46.291000) vcan0 00000006#9095430000000000 R
(46.292000) vcan0 00000001#F495430000000000 R
(46.293000) vcan0 00000002#5896430000000000 R
(46.294000) vcan0 00000003#BC96430000000000 R
(46.295000) vcan0 00000004#2097430000000000 R
(46.296000) vcan0 00000005#8497430000000000 R
(46.297000) vcan0 00000006#E897430000000000 R
(46.298000) vcan0 00000001#4C98430000000000 R
(46.299000) vcan0 00000002#B098430000000000 R
(46.300000) vcan0 00000003#1499430000000000 R
(46.301000) vcan0 00000004#7899430000000000 R
(46.302000) vcan0 00000005#DC99430000000000 R
(46.303000) vcan0 00000006#409A430000000000 R
(46.304000) vcan0 00000001#A49A430000000000 R
(46.305000) vcan0 00000002#089B430000000000 R
(46.306000) vcan0 00000003#6C9B430000000000 R
(46.307000) vcan0 00000004#D09B430000000000 R
(46.308000) vcan0 00000005#349C430000000000 R
(46.309000) vcan0 00000006#989C430000000000 R
(46.310000) vcan0 00000001#FC9C430000000000 R
(46.311000) vcan0 00000002#609D430000000000 R
(46.312000) vcan0 00000003#C49D430000000000 R
(46.313000) vcan0 00000004#289E430000000000 R
(46.314000) vcan0 00000005#8C9E430000000000 R
(46.315000) vcan0 00000006#F09E430000000000 R
(46.316000) vcan0 00000001#549F430000000000 R
(46.317000) vcan0 00000002#B89F430000000000 R
(46.318000) vcan0 00000003#1CA0430000000000 R
(46.319000) vcan0 00000004#80A0430000000000 R
(46.320000) vcan0 00000005#E4A0430000000000 R
(46.321000) vcan0 00000006#48A1430000000000 R
(46.322000) vcan0 00000001#ACA1430000000000 R
(46.323000) vcan0 00000002#10A2430000000000 R
(46.324000) vcan0 00000003#74A2430000000000 R
(46.325000) vcan0 00000004#D8A2430000000000 R
(46.326000) vcan0 00000005#3CA3430000000000 R
(46.327000) vcan0 00000006#A0A3430000000000 R
(46.328000) vcan0 00000001#04A4430000000000 R
(46.329000) vcan0 00000002#68A4430000000000 R
(46.330000) vcan0 00000003#CCA4430000000000 R
(46.331000) vcan0 00000004#30A5430000000000 R
(46.332000) vcan0 00000005#94A5430000000000 R
(46.333000) vcan0 00000006#F8A5430000000000 R
(46.334000) vcan0 00000001#5CA6430000000000 R
(46.335000) vcan0 00000002#C0A6430000000000 R
(46.336000) vcan0 00000003#24A7430000000000 R
(46.337000) vcan0 00000004#88A7430000000000 R
(46.338000) vcan0 00000005#ECA7430000000000 R
(46.339000) vcan0 00000006#50A8430000000000 R
(46.340000) vcan0 00000001#B4A8430000000000 R
(46.341000) vcan0 00000002#18A9430000000000 R
(46.342000) vcan0 00000003#7CA9430000000000 R
(46.343000) vcan0 00000004#E0A9430000000000 R
(46.344000) vcan0 00000005#44AA430000000000 R
(46.345000) vcan0 00000006#A8AA430000000000 R
(46.346000) vcan0 00000001#0CAB430000000000 R
(46.347000) vcan0 00000002#70AB430000000000 R
(46.348000) vcan0 00000003#D4AB430000000000 R
(46.349000) vcan0 00000004#38AC430000000000 R
(46.350000) vcan0 00000005#9CAC430000000000 R
(46.351000) vcan0 00000006#00AD430000000000 R
(46.352000) vcan0 00000001#64AD430000000000 R
(46.353000) vcan0 00000002#C8AD430000000000 R
(46.354000) vcan0 00000003#2CAE430000000000 R
(46.355000) vcan0 00000004#90AE430000000000 R
(46.356000) vcan0 00000005#F4AE430000000000 R
(46.357000) vcan0 00000006#58AF430000000000 R
(46.358000) vcan0 00000001#BCAF430000000000 R
(46.359000) vcan0 00000002#20B0430000000000 R
(46.360000) vcan0 00000003#84B0430000000000 R
(46.361000) vcan0 00000004#E8B0430000000000 R
(46.362000) vcan0 00000005#4CB1430000000000 R
(46.363000) vcan0 00000006#B0B1430000000000 R
(46.364000) vcan0 00000001#14B2430000000000 R
(46.365000) vcan0 00000002#78B2430000000000 R
(46.366000) vcan0 00000003#DCB2430000000000 R
(46.367000) vcan0 00000004#40B3430000000000 R
(46.368000) vcan0 00000005#A4B3430000000000 R
(46.369000) vcan0 00000006#08B4430000000000 R
(46.370000) vcan0 00000001#6CB4430000000000 R
(46.371000) vcan0 00000002#D0B4430000000000 R
(46.372000) vcan0 00000003#34B5430000000000 R
(46.373000) vcan0 00000004#98B5430000000000 R
(46.374000) vcan0 00000005#FCB5430000000000 R
(46.375000) vcan0 00000006#60B6430000000000 R
(46.376000) vcan0 00000001#C4B6430000000000 R
(46.377000) vcan0 00000002#28B7430000000000 R
(46.378000) vcan0 00000003#8CB7430000000000 R
(46.379000) vcan0 00000004#F0B7430000000000 R
(46.380000) vcan0 00000005#54B8430000000000 R
(46.381000) vcan0 00000006#B8B8430000000000 R
(46.382000) vcan0 00000001#1CB9430000000000 R
(46.383000) vcan0 00000002#80B9430000000000 R
(46.384000) vcan0 00000003#E4B9430000000000 R
(46.385000) vcan0 00000004#48BA430000000000 R
(46.386000) vcan0 00000005#ACBA430000000000 R
(46.387000) vcan0 00000006#10BB430000000000 R
(46.388000) vcan0 00000001#74BB430000000000 R
(46.389000) vcan0 00000002#D8BB430000000000 R
(46.390000) vcan0 00000003#3CBC430000000000 R
(46.391000) vcan0 00000004#A0BC430000000000 R
(46.392000) vcan0 00000005#04BD430000000000 R
(46.393000) vcan0 00000006#68BD430000000000 R
(46.394000) vcan0 00000001#CCBD430000000000 R
(46.395000) vcan0 00000002#30BE430000000000 R
(46.396000) vcan0 00000003#94BE430000000000 R
(46.397000) vcan0 00000004#F8BE430000000000 R
(46.398000) vcan0 00000005#5CBF430000000000 R
(46.399000) vcan0 00000006#C0BF430000000000 R
(46.400000) vcan0 00000001#24C0430000000000 R
(46.401000) vcan0 00000002#88C0430000000000 R
(46.402000) vcan0 00000003#ECC0430000000000 R
(46.403000) vcan0 00000004#50C1430000000000 R
(46.404000) vcan0 00000005#B4C1430000000000 R
(46.405000) vcan0 00000006#18C2430000000000 R
(46.406000) vcan0 00000001#7CC2430000000000 R
(46.407000) vcan0 00000002#E0C2430000000000 R
(46.408000) vcan0 00000003#44C3430000000000 R
(46.409000) vcan0 00000004#A8C3430000000000 R
(46.410000) vcan0 00000005#0CC4430000000000 R
(46.411000) vcan0 00000006#70C4430000000000 R
(46.412000) vcan0 00000001#D4C4430000000000 R
(46.413000) vcan0 00000002#38C5430000000000 R
(46.414000) vcan0 00000003#9CC5430000000000 R
(46.415000) vcan0 00000004#00C6430000000000 R
(46.416000) vcan0 00000005#64C6430000000000 R
(46.417000) vcan0 00000006#C8C6430000000000 R
(46.418000) vcan0 00000001#2CC7430000000000 R
(46.419000) vcan0 00000002#90C7430000000000 R
(46.420000) vcan0 00000003#F4C7430000000000 R
(46.421000) vcan0 00000004#58C8430000000000 R
(46.422000) vcan0 00000005#BCC8430000000000 R
(46.423000) vcan0 00000006#20C9430000000000 R
(46.424000) vcan0 00000001#84C9430000000000 R
(46.425000) vcan0 00000002#E8C9430000000000 R
(46.426000) vcan0 00000003#4CCA430000000000 R
(46.427000) vcan0 00000004#B0CA430000000000 R
(46.428000) vcan0 00000005#14CB430000000000 R
(46.429000) vcan0 00000006#78CB430000000000 R
(46.430000) vcan0 00000001#DCCB430000000000 R
(46.431000) vcan0 00000002#40CC430000000000 R
(46.432000) vcan0 00000003#A4CC430000000000 R
(46.433000) vcan0 00000004#08CD430000000000 R
(46.434000) vcan0 00000005#6CCD430000000000 R
(46.435000) vcan0 00000006#D0CD430000000000 R
(46.436000) vcan0 00000001#34CE430000000000 R
(46.437000) vcan0 00000002#98CE430000000000 R
(46.438000) vcan0 00000003#FCCE430000000000 R
(46.439000) vcan0 00000004#60CF430000000000 R
(46.440000) vcan0 00000005#C4CF430000000000 R
(46.441000) vcan0 00000006#28D0430000000000 R
(46.442000) vcan0 00000001#8CD0430000000000 R
(46.443000) vcan0 00000002#F0D0430000000000 R
(46.444000) vcan0 00000003#54D1430000000000 R
(46.445000) vcan0 00000004#B8D1430000000000 R
(46.446000) vcan0 00000005#1CD2430000000000 R
(46.447000) vcan0 00000006#80D2430000000000 R
(46.448000) vcan0 00000001#E4D2430000000000 R
(46.449000) vcan0 00000002#48D3430000000000 R
(46.450000) vcan0 00000003#ACD3430000000000 R
(46.451000) vcan0 00000004#10D4430000000000 R
(46.452000) vcan0 00000005#74D4430000000000 R
(46.453000) vcan0 00000006#D8D4430000000000 R
(46.454000) vcan0 00000001#3CD5430000000000 R
(46.455000) vcan0 00000002#A0D5430000000000 R
(46.456000) vcan0 00000003#04D6430000000000 R
(46.457000) vcan0 00000004#68D6430000000000 R
(46.458000) vcan0 00000005#CCD6430000000000 R
(46.459000) vcan0 00000006#30D7430000000000 R
(46.460000) vcan0 00000001#94D7430000000000 R
(46.461000) vcan0 00000002#F8D7430000000000 R
(46.462000) vcan0 00000003#5CD8430000000000 R
(46.463000) vcan0 00000004#C0D8430000000000 R
(46.464000) vcan0 00000005#24D9430000000000 R
(46.465000) vcan0 00000006#88D9430000000000 R
(46.466000) vcan0 00000001#ECD9430000000000 R
(46.467000) vcan0 00000002#50DA430000000000 R
(46.468000) vcan0 00000003#B4DA430000000000 R
(46.469000) vcan0 00000004#18DB430000000000 R
(46.470000) vcan0 00000005#7CDB430000000000 R
(46.471000) vcan0 00000006#E0DB430000000000 R
(46.472000) vcan0 00000001#44DC430000000000 R
(46.473000) vcan0 00000002#A8DC430000000000 R
(46.474000) vcan0 00000003#0CDD430000000000 R
(46.475000) vcan0 00000004#70DD430000000000 R
(46.476000) vcan0 00000005#D4DD430000000000 R
(46.477000) vcan0 00000006#38DE430000000000 R
(46.478000) vcan0 00000001#9CDE430000000000 R
(46.479000) vcan0 00000002#00DF430000000000 R
(46.480000) vcan0 00000003#64DF430000000000 R
(46.481000) vcan0 00000004#C8DF430000000000 R
(46.482000) vcan0 00000005#2CE0430000000000 R
(46.483000) vcan0 00000006#90E0430000000000 R
(46.484000) vcan0 00000001#F4E0430000000000 R
(46.485000) vcan0 00000002#58E1430000000000 R
(46.486000) vcan0 00000003#BCE1430000000000 R
(46.487000) vcan0 00000004#20E2430000000000 R
(46.488000) vcan0 00000005#84E2430000000000 R
(46.489000) vcan0 00000006#E8E2430000000000 R
(46.490000) vcan0 00000001#4CE3430000000000 R
(46.491000) vcan0 00000002#B0E3430000000000 R
(46.492000) vcan0 00000003#14E4430000000000 R
(46.493000) vcan0 00000004#78E4430000000000 R
(46.494000) vcan0 00000005#DCE4430000000000 R
(46.495000) vcan0 00000006#40E5430000000000 R
(46.496000) vcan0 00000001#A4E5430000000000 R
(46.497000) vcan0 00000002#08E6430000000000 R
(46.498000) vcan0 00000003#6CE6430000000000 R
(46.499000) vcan0 00000004#D0E6430000000000 R
(46.500000) vcan0 00000005#34E7430000000000 R
(46.501000) vcan0 00000006#98E7430000000000 R
(46.502000) vcan0 00000001#FCE7430000000000 R
(46.503000) vcan0 00000002#60E8430000000000 R
(46.504000) vcan0 00000003#C4E8430000000000 R
(46.505000) vcan0 00000004#28E9430000000000 R
(46.506000) vcan0 00000005#8CE9430000000000 R
(46.507000) vcan0 00000006#F0E9430000000000 R
(46.508000) vcan0 00000001#54EA430000000000 R
(46.509000) vcan0 00000002#B8EA430000000000 R
(46.510000) vcan0 00000003#1CEB430000000000 R
(46.511000) vcan0 00000004#80EB430000000000 R
(46.512000) vcan0 00000005#E4EB430000000000 R
(46.513000) vcan0 00000006#48EC430000000000 R
(46.514000) vcan0 00000001#ACEC430000000000 R
(46.515000) vcan0 00000002#10ED430000000000 R
(46.516000) vcan0 00000003#74ED430000000000 R
(46.517000) vcan0 00000004#D8ED430000000000 R
(46.518000) vcan0 00000005#3CEE430000000000 R
(46.519000) vcan0 00000006#A0EE430000000000 R
(46.520000) vcan0 00000001#04EF430000000000 R
(46.521000) vcan0 00000002#68EF430000000000 R
(46.522000) vcan0 00000003#CCEF430000000000 R
(46.523000) vcan0 00000004#30F0430000000000 R
(46.524000) vcan0 00000005#94F0430000000000 R
(46.525000) vcan0 00000006#F8F0430000000000 R
(46.526000) vcan0 00000001#5CF1430000000000 R
(46.527000) vcan0 00000002#C0F1430000000000 R
(46.528000) vcan0 00000003#24F2430000000000 R
(46.529000) vcan0 00000004#88F2430000000000 R
(46.530000) vcan0 00000005#ECF2430000000000 R
(46.531000) vcan0 00000006#50F3430000000000 R
(46.532000) vcan0 00000001#B4F3430000000000 R
(46.533000) vcan0 00000002#18F4430000000000 R
(46.534000) vcan0 00000003#7CF4430000000000 R
(46.535000) vcan0 00000004#E0F4430000000000 R
(46.536000) vcan0 00000005#44F5430000000000 R
(46.537000) vcan0 00000006#A8F5430000000000 R
(46.538000) vcan0 00000001#0CF6430000000000 R
(46.539000) vcan0 00000002#70F6430000000000 R
(46.540000) vcan0 00000003#D4F6430000000000 R
(46.541000) vcan0 00000004#38F7430000000000 R
(46.542000) vcan0 00000005#9CF7430000000000 R
(46.543000) vcan0 00000006#00F8430000000000 R
(46.544000) vcan0 00000001#64F8430000000000 R
(46.545000) vcan0 00000002#C8F8430000000000 R
(46.546000) vcan0 00000003#2CF9430000000000 R
(46.547000) vcan0 00000004#90F9430000000000 R
(46.548000) vcan0 00000005#F4F9430000000000 R
(46.549000) vcan0 00000006#58FA430000000000 R
(46.550000) vcan0 00000001#BCFA430000000000 R
(46.551000) vcan0 00000002#20FB430000000000 R
(46.552000) vcan0 00000003#84FB430000000000 R
(46.553000) vcan0 00000004#E8FB430000000000 R
(46.554000) vcan0 00000005#4CFC430000000000 R
(46.555000) vcan0 00000006#B0FC430000000000 R
(46.556000) vcan0 00000001#14FD430000000000 R
(46.557000) vcan0 00000002#78FD430000000000 R
(46.558000) vcan0 00000003#DCFD430000000000 R
(46.559000) vcan0 00000004#40FE430000000000 R
(46.560000) vcan0 00000005#A4FE430000000000 R
(46.561000) vcan0 00000006#08FF430000000000 R
(46.562000) vcan0 00000001#6CFF430000000000 R
(46.563000) vcan0 00000002#D0FF430000000000 R
(46.564000) vcan0 00000003#3400440000000000 R
(46.565000) vcan0 00000004#9800440000000000 R
(46.566000) vcan0 00000005#FC00440000000000 R
(46.567000) vcan0 00000006#6001440000000000 R
(46.568000) vcan0 00000001#C401440000000000 R
(46.569000) vcan0 00000002#2802440000000000 R
(46.570000) vcan0 00000003#8C02440000000000 R
(46.571000) vcan0 00000004#F002440000000000 R
(46.572000) vcan0 00000005#5403440000000000 R
(46.573000) vcan0 00000006#B803440000000000 R
(46.574000) vcan0 00000001#1C04440000000000 R
(46.575000) vcan0 00000002#8004440000000000 R
(46.576000) vcan0 00000003#E404440000000000 R
(46.577000) vcan0 00000004#4805440000000000 R
(46.578000) vcan0 00000005#AC05440000000000 R
(46.579000) vcan0 00000006#1006440000000000 R
(46.580000) vcan0 00000001#7406440000000000 R
(46.581000) vcan0 00000002#D806440000000000 R
(46.582000) vcan0 00000003#3C07440000000000 R
(46.583000) vcan0 00000004#A007440000000000 R
(46.584000) vcan0 00000005#0408440000000000 R
(46.585000) vcan0 00000006#6808440000000000 R
(46.586000) vcan0 00000001#CC08440000000000 R
(46.587000) vcan0 00000002#3009440000000000 R
(46.588000) vcan0 00000003#9409440000000000 R
(46.589000) vcan0 00000004#F809440000000000 R
(46.590000) vcan0 00000005#5C0A440000000000 R
(46.591000) vcan0 00000006#C00A440000000000 R
(46.592000) vcan0 00000001#240B440000000000 R
(46.593000) vcan0 00000002#880B440000000000 R
(46.594000) vcan0 00000003#EC0B440000000000 R
(46.595000) vcan0 00000004#500C440000000000 R
(46.596000) vcan0 00000005#B40C440000000000 R
(46.597000) vcan0 00000006#180D440000000000 R
(46.598000) vcan0 00000001#7C0D440000000000 R
(46.599000) vcan0 00000002#E00D440000000000 R
(46.600000) vcan0 00000003#440E440000000000 R
(46.601000) vcan0 00000004#A80E440000000000 R
(46.602000) vcan0 00000005#0C0F440000000000 R
(46.603000) vcan0 00000006#700F440000000000 R
(46.604000) vcan0 00000001#D40F440000000000 R
(46.605000) vcan0 00000002#3810440000000000 R
(46.606000) vcan0 00000003#9C10440000000000 R
(46.607000) vcan0 00000004#0011440000000000 R
(46.608000) vcan0 00000005#6411440000000000 R
(46.609000) vcan0 00000006#C811440000000000 R
(46.610000) vcan0 00000001#2C12440000000000 R
(46.611000) vcan0 00000002#9012440000000000 R
(46.612000) vcan0 00000003#F412440000000000 R
(46.613000) vcan0 00000004#5813440000000000 R
(46.614000) vcan0 00000005#BC13440000000000 R
(46.615000) vcan0 00000006#2014440000000000 R
(46.616000) vcan0 00000001#8414440000000000 R
(46.617000) vcan0 00000002#E814440000000000 R
(46.618000) vcan0 00000003#4C15440000000000 R
(46.619000) vcan0 00000004#B015440000000000 R
(46.620000) vcan0 00000005#1416440000000000 R
(46.621000) vcan0 00000006#7816440000000000 R
(46.622000) vcan0 00000001#DC16440000000000 R
(46.623000) vcan0 00000002#4017440000000000 R
(46.624000) vcan0 00000003#A417440000000000 R
(46.625000) vcan0 00000004#0818440000000000 R
(46.626000) vcan0 00000005#6C18440000000000 R
(46.627000) vcan0 00000006#D018440000000000 R
(46.628000) vcan0 00000001#3419440000000000 R
(46.629000) vcan0 00000002#9819440000000000 R
(46.630000) vcan0 00000003#FC19440000000000 R
(46.631000) vcan0 00000004#601A440000000000 R
(46.632000) vcan0 00000005#C41A440000000000 R
(46.633000) vcan0 00000006#281B440000000000 R
(46.634000) vcan0 00000001#8C1B440000000000 R
(46.635000) vcan0 00000002#F01B440000000000 R
(46.636000) vcan0 00000003#541C440000000000 R
(46.637000) vcan0 00000004#B81C440000000000 R
(46.638000) vcan0 00000005#1C1D440000000000 R
(46.639000) vcan0 00000006#801D440000000000 R
(46.640000) vcan0 00000001#E41D440000000000 R
(46.641000) vcan0 00000002#481E440000000000 R
(46.642000) vcan0 00000003#AC1E440000000000 R
(46.643000) vcan0 00000004#101F440000000000 R
(46.644000) vcan0 00000005#741F440000000000 R
(46.645000) vcan0 00000006#D81F440000000000 R
(46.646000) vcan0 00000001#3C20440000000000 R
(46.647000) vcan0 00000002#A020440000000000 R
(46.648000) vcan0 00000003#0421440000000000 R
(46.649000) vcan0 00000004#6821440000000000 R
(46.650000) vcan0 00000005#CC21440000000000 R
(46.651000) vcan0 00000006#3022440000000000 R
(46.652000) vcan0 00000001#9422440000000000 R
(46.653000) vcan0 00000002#F822440000000000 R
(46.654000) vcan0 00000003#5C23440000000000 R
(46.655000) vcan0 00000004#C023440000000000 R
(46.656000) vcan0 00000005#2424440000000000 R
(46.657000) vcan0 00000006#8824440000000000 R
(46.658000) vcan0 00000001#EC24440000000000 R
(46.659000) vcan0 00000002#5025440000000000 R
(46.660000) vcan0 00000003#B425440000000000 R
(46.661000) vcan0 00000004#1826440000000000 R
(46.662000) vcan0 00000005#7C26440000000000 R
(46.663000) vcan0 00000006#E026440000000000 R
(46.664000) vcan0 00000001#4427440000000000 R
(46.665000) vcan0 00000002#A827440000000000 R
(46.666000) vcan0 00000003#0C28440000000000 R
(46.667000) vcan0 00000004#7028440000000000 R
(46.668000) vcan0 00000005#D428440000000000 R
(46.669000) vcan0 00000006#3829440000000000 R
(46.670000) vcan0 00000001#9C29440000000000 R
(46.671000) vcan0 00000002#002A440000000000 R
(46.672000) vcan0 00000003#642A440000000000 R
(46.673000) vcan0 00000004#C82A440000000000 R
(46.674000) vcan0 00000005#2C2B440000000000 R
(46.675000) vcan0 00000006#902B440000000000 R
(46.676000) vcan0 00000001#F42B440000000000 R
(46.677000) vcan0 00000002#582C440000000000 R
(46.678000) vcan0 00000003#BC2C440000000000 R
(46.679000) vcan0 00000004#202D440000000000 R
(46.680000) vcan0 00000005#842D440000000000 R
(46.681000) vcan0 00000006#E82D440000000000 R
(46.682000) vcan0 00000001#4C2E440000000000 R
(46.683000) vcan0 00000002#B02E440000000000 R
(46.684000) vcan0 00000003#142F440000000000 R
(46.685000) vcan0 00000004#782F440000000000 R
(46.686000) vcan0 00000005#DC2F440000000000 R
(46.687000) vcan0 00000006#4030440000000000 R
(46.688000) vcan0 00000001#A430440000000000 R
(46.689000) vcan0 00000002#0831440000000000 R
(46.690000) vcan0 00000003#6C31440000000000 R
(46.691000) vcan0 00000004#D031440000000000 R
(46.692000) vcan0 00000005#3432440000000000 R
(46.693000) vcan0 00000006#9832440000000000 R
