(51.190000) vcan0 00000003#3C0F4B0000000000 R
(51.191000) vcan0 00000004#A00F4B0000000000 R
(51.192000) vcan0 00000005#04104B0000000000 R
(51.193000) vcan0 00000006#68104B0000000000 R
(51.194000) vcan0 00000001#CC104B0000000000 R
(51.195000) vcan0 00000002#30114B0000000000 R
(51.196000) vcan0 00000003#94114B0000000000 R
(51.197000) vcan0 00000004#F8114B0000000000 R
(51.198000) vcan0 00000005#5C124B0000000000 R
(51.199000) vcan0 00000006#C0124B0000000000 R
(51.200000) vcan0 00000001#24134B0000000000 R
(51.201000) vcan0 00000002#88134B0000000000 R
(51.202000) vcan0 00000003#EC134B0000000000 R
(51.203000) vcan0 00000004#50144B0000000000 R
(51.204000) vcan0 00000005#B4144B0000000000 R
(51.205000) vcan0 00000006#18154B0000000000 R
(51.206000) vcan0 00000001#7C154B0000000000 R
(51.207000) vcan0 00000002#E0154B0000000000 R
(51.208000) vcan0 00000003#44164B0000000000 R
(51.209000) vcan0 00000004#A8164B0000000000 R
(51.210000) vcan0 00000005#0C174B0000000000 R
(51.211000) vcan0 00000006#70174B0000000000 R
(51.212000) vcan0 00000001#D4174B0000000000 R
(51.213000) vcan0 00000002#38184B0000000000 R
(51.214000) vcan0 00000003#9C184B0000000000 R
(51.215000) vcan0 00000004#00194B0000000000 R
(51.216000) vcan0 00000005#64194B0000000000 R
(51.217000) vcan0 00000006#C8194B0000000000 R
(51.218000) vcan0 00000001#2C1A4B0000000000 R
(51.219000) vcan0 00000002#901A4B0000000000 R
(51.220000) vcan0 00000003#F41A4B0000000000 R
(51.221000) vcan0 00000004#581B4B0000000000 R
(51.222000) vcan0 00000005#BC1B4B0000000000 R
(51.223000) vcan0 00000006#201C4B0000000000 R
(51.224000) vcan0 00000001#841C4B0000000000 R
(51.225000) vcan0 00000002#E81C4B0000000000 R
(51.226000) vcan0 00000003#4C1D4B0000000000 R
(51.227000) vcan0 00000004#B01D4B0000000000 R
(51.228000) vcan0 00000005#141E4B0000000000 R
(51.229000) vcan0 00000006#781E4B0000000000 R
(51.230000) vcan0 00000001#DC1E4B0000000000 R
(51.231000) vcan0 00000002#401F4B0000000000 R
(51.232000) vcan0 00000003#A41F4B0000000000 R
(51.233000) vcan0 00000004#08204B0000000000 R
(51.234000) vcan0 00000005#6C204B0000000000 R
(51.235000) vcan0 00000006#D0204B0000000000 R
(51.236000) vcan0 00000001#34214B0000000000 R
(51.237000) vcan0 00000002#98214B0000000000 R
(51.238000) vcan0 00000003#FC214B0000000000 R
(51.239000) vcan0 00000004#60224B0000000000 R
(51.240000) vcan0 00000005#C4224B0000000000 R
(51.241000) vcan0 00000006#28234B0000000000 R
(51.242000) vcan0 00000001#8C234B0000000000 R
(51.243000) vcan0 00000002#F0234B0000000000 R
(51.244000) vcan0 00000003#54244B0000000000 R
(51.245000) vcan0 00000004#B8244B0000000000 R
(51.246000) vcan0 00000005#1C254B0000000000 R
(51.247000) vcan0 00000006#80254B0000000000 R
(51.248000) vcan0 00000001#E4254B0000000000 R
(51.249000) vcan0 00000002#48264B0000000000 R
(51.250000) vcan0 00000003#AC264B0000000000 R
(51.251000) vcan0 00000004#10274B0000000000 R
(51.252000) vcan0 00000005#74274B0000000000 R
(51.253000) vcan0 00000006#D8274B0000000000 R
(51.254000) vcan0 00000001#3C284B0000000000 R
(51.255000) vcan0 00000002#A0284B0000000000 R
(51.256000) vcan0 00000003#04294B0000000000 R
(51.257000) vcan0 00000004#68294B0000000000 R
(51.258000) vcan0 00000005#CC294B0000000000 R
(51.259000) vcan0 00000006#302A4B0000000000 R
(51.260000) vcan0 00000001#942A4B0000000000 R
(51.261000) vcan0 00000002#F82A4B0000000000 R
(51.262000) vcan0 00000003#5C2B4B0000000000 R
(51.263000) vcan0 00000004#C02B4B0000000000 R
(51.264000) vcan0 00000005#242C4B0000000000 R
(51.265000) vcan0 00000006#882C4B0000000000 R
(51.266000) vcan0 00000001#EC2C4B0000000000 R
(51.267000) vcan0 00000002#502D4B0000000000 R
(51.268000) vcan0 00000003#B42D4B0000000000 R
(51.269000) vcan0 00000004#182E4B0000000000 R
(51.270000) vcan0 00000005#7C2E4B0000000000 R
(51.271000) vcan0 00000006#E02E4B0000000000 R
(51.272000) vcan0 00000001#442F4B0000000000 R
(51.273000) vcan0 00000002#A82F4B0000000000 R
(51.274000) vcan0 00000003#0C304B0000000000 R
(51.275000) vcan0 00000004#70304B0000000000 R
(51.276000) vcan0 00000005#D4304B0000000000 R
(51.277000) vcan0 00000006#38314B0000000000 R
(51.278000) vcan0 00000001#9C314B0000000000 R
(51.279000) vcan0 00000002#00324B0000000000 R
(51.280000) vcan0 00000003#64324B0000000000 R
(51.281000) vcan0 00000004#C8324B0000000000 R
(51.282000) vcan0 00000005#2C334B0000000000 R
(51.283000) vcan0 00000006#90334B0000000000 R
(51.284000) vcan0 00000001#F4334B0000000000 R
(51.285000) vcan0 00000002#58344B0000000000 R
(51.286000) vcan0 00000003#BC344B0000000000 R
(51.287000) vcan0 00000004#20354B0000000000 R
(51.288000) vcan0 00000005#84354B0000000000 R
(51.289000) vcan0 00000006#E8354B0000000000 R
(51.290000) vcan0 00000001#4C364B0000000000 R
(51.291000) vcan0 00000002#B0364B0000000000 R
(51.292000) vcan0 00000003#14374B0000000000 R
(51.293000) vcan0 00000004#78374B0000000000 R
(51.294000) vcan0 00000005#DC374B0000000000 R
(51.295000) vcan0 00000006#40384B0000000000 R
(51.296000) vcan0 00000001#A4384B0000000000 R
(51.297000) vcan0 00000002#08394B0000000000 R
(51.298000) vcan0 00000003#6C394B0000000000 R
(51.299000) vcan0 00000004#D0394B0000000000 R
(51.300000) vcan0 00000005#343A4B0000000000 R
(51.301000) vcan0 00000006#983A4B0000000000 R
(51.302000) vcan0 00000001#FC3A4B0000000000 R
(51.303000) vcan0 00000002#603B4B0000000000 R
(51.304000) vcan0 00000003#C43B4B0000000000 R
(51.305000) vcan0 00000004#283C4B0000000000 R
(51.306000) vcan0 00000005#8C3C4B0000000000 R
(51.307000) vcan0 00000006#F03C4B0000000000 R
(51.308000) vcan0 00000001#543D4B0000000000 R
(51.309000) vcan0 00000002#B83D4B0000000000 R
(51.310000) vcan0 00000003#1C3E4B0000000000 R
(51.311000) vcan0 00000004#803E4B0000000000 R
(51.312000) vcan0 00000005#E43E4B0000000000 R
(51.313000) vcan0 00000006#483F4B0000000000 R
(51.314000) vcan0 00000001#AC3F4B0000000000 R
(51.315000) vcan0 00000002#10404B0000000000 R
(51.316000) vcan0 00000003#74404B0000000000 R
(51.317000) vcan0 00000004#D8404B0000000000 R
(51.318000) vcan0 00000005#3C414B0000000000 R
(51.319000) vcan0 00000006#A0414B0000000000 R
(51.320000) vcan0 00000001#04424B0000000000 R
(51.321000) vcan0 00000002#68424B0000000000 R
(51.322000) vcan0 00000003#CC424B0000000000 R
(51.323000) vcan0 00000004#30434B0000000000 R
(51.324000) vcan0 00000005#94434B0000000000 R
(51.325000) vcan0 00000006#F8434B0000000000 R
(51.326000) vcan0 00000001#5C444B0000000000 R
(51.327000) vcan0 00000002#C0444B0000000000 R
(51.328000) vcan0 00000003#24454B0000000000 R
(51.329000) vcan0 00000004#88454B0000000000 R
(51.330000) vcan0 00000005#EC454B0000000000 R
(51.331000) vcan0 00000006#50464B0000000000 R
(51.332000) vcan0 00000001#B4464B0000000000 R
(51.333000) vcan0 00000002#18474B0000000000 R
(51.334000) vcan0 00000003#7C474B0000000000 R
(51.335000) vcan0 00000004#E0474B0000000000 R
(51.336000) vcan0 00000005#44484B0000000000 R
(51.337000) vcan0 00000006#A8484B0000000000 R
(51.338000) vcan0 00000001#0C494B0000000000 R
(51.339000) vcan0 00000002#70494B0000000000 R
(51.340000) vcan0 00000003#D4494B0000000000 R
(51.341000) vcan0 00000004#384A4B0000000000 R
(51.342000) vcan0 00000005#9C4A4B0000000000 R
(51.343000) vcan0 00000006#004B4B0000000000 R
(51.344000) vcan0 00000001#644B4B0000000000 R
(51.345000) vcan0 00000002#C84B4B0000000000 R
(51.346000) vcan0 00000003#2C4C4B0000000000 R
(51.347000) vcan0 00000004#904C4B0000000000 R
(51.348000) vcan0 00000005#F44C4B0000000000 R
(51.349000) vcan0 00000006#584D4B0000000000 R
(51.350000) vcan0 00000001#BC4D4B0000000000 R
(51.351000) vcan0 00000002#204E4B0000000000 R
(51.352000) vcan0 00000003#844E4B0000000000 R
(51.353000) vcan0 00000004#E84E4B0000000000 R
(51.354000) vcan0 00000005#4C4F4B0000000000 R
(51.355000) vcan0 00000006#B04F4B0000000000 R
(51.356000) vcan0 00000001#14504B0000000000 R
(51.357000) vcan0 00000002#78504B0000000000 R
(51.358000) vcan0 00000003#DC504B0000000000 R
(51.359000) vcan0 00000004#40514B0000000000 R
(51.360000) vcan0 00000005#A4514B0000000000 R
(51.361000) vcan0 00000006#08524B0000000000 R
(51.362000) vcan0 00000001#6C524B0000000000 R
(51.363000) vcan0 00000002#D0524B0000000000 R
(51.364000) vcan0 00000003#34534B0000000000 R
(51.365000) vcan0 00000004#98534B0000000000 R
(51.366000) vcan0 00000005#FC534B0000000000 R
(51.367000) vcan0 00000006#60544B0000000000 R
