(14.822000) vcan0 00000001#FC90130000000000 R
(14.823000) vcan0 00000002#6091130000000000 R
(14.824000) vcan0 00000003#C491130000000000 R
(14.825000) vcan0 00000004#2892130000000000 R
(14.826000) vcan0 00000005#8C92130000000000 R
(14.827000) vcan0 00000006#F092130000000000 R
(14.828000) vcan0 00000001#5493130000000000 R
(14.829000) vcan0 00000002#B893130000000000 R
(14.830000) vcan0 00000003#1C94130000000000 R
(14.831000) vcan0 00000004#8094130000000000 R
(14.832000) vcan0 00000005#E494130000000000 R
(14.833000) vcan0 00000006#4895130000000000 R
(14.834000) vcan0 00000001#AC95130000000000 R
(14.835000) vcan0 00000002#1096130000000000 R
(14.836000) vcan0 00000003#7496130000000000 R
(14.837000) vcan0 00000004#D896130000000000 R
(14.838000) vcan0 00000005#3C97130000000000 R
(14.839000) vcan0 00000006#A097130000000000 R
(14.840000) vcan0 00000001#0498130000000000 R
(14.841000) vcan0 00000002#6898130000000000 R
(14.842000) vcan0 00000003#CC98130000000000 R
(14.843000) vcan0 00000004#3099130000000000 R
(14.844000) vcan0 00000005#9499130000000000 R
(14.845000) vcan0 00000006#F899130000000000 R
(14.846000) vcan0 00000001#5C9A130000000000 R
(14.847000) vcan0 00000002#C09A130000000000 R
(14.848000) vcan0 00000003#249B130000000000 R
(14.849000) vcan0 00000004#889B130000000000 R
(14.850000) vcan0 00000005#EC9B130000000000 R
(14.851000) vcan0 00000006#509C130000000000 R
(14.852000) vcan0 00000001#B49C130000000000 R
(14.853000) vcan0 00000002#189D130000000000 R
(14.854000) vcan0 00000003#7C9D130000000000 R
(14.855000) vcan0 00000004#E09D130000000000 R
(14.856000) vcan0 00000005#449E130000000000 R
(14.857000) vcan0 00000006#A89E130000000000 R
(14.858000) vcan0 00000001#0C9F130000000000 R
(14.859000) vcan0 00000002#709F130000000000 R
(14.860000) vcan0 00000003#D49F130000000000 R
(14.861000) vcan0 00000004#38A0130000000000 R
(14.862000) vcan0 00000005#9CA0130000000000 R
(14.863000) vcan0 00000006#00A1130000000000 R
(14.864000) vcan0 00000001#64A1130000000000 R
(14.865000) vcan0 00000002#C8A1130000000000 R
(14.866000) vcan0 00000003#2CA2130000000000 R
(14.867000) vcan0 00000004#90A2130000000000 R
(14.868000) vcan0 00000005#F4A2130000000000 R
(14.869000) vcan0 00000006#58A3130000000000 R
(14.870000) vcan0 00000001#BCA3130000000000 R
(14.871000) vcan0 00000002#20A4130000000000 R
(14.872000) vcan0 00000003#84A4130000000000 R
(14.873000) vcan0 00000004#E8A4130000000000 R
(14.874000) vcan0 00000005#4CA5130000000000 R
(14.875000) vcan0 00000006#B0A5130000000000 R
(14.876000) vcan0 00000001#14A6130000000000 R
(14.877000) vcan0 00000002#78A6130000000000 R
(14.878000) vcan0 00000003#DCA6130000000000 R
(14.879000) vcan0 00000004#40A7130000000000 R
(14.880000) vcan0 00000005#A4A7130000000000 R
(14.881000) vcan0 00000006#08A8130000000000 R
(14.882000) vcan0 00000001#6CA8130000000000 R
(14.883000) vcan0 00000002#D0A8130000000000 R
(14.884000) vcan0 00000003#34A9130000000000 R
(14.885000) vcan0 00000004#98A9130000000000 R
(14.886000) vcan0 00000005#FCA9130000000000 R
(14.887000) vcan0 00000006#60AA130000000000 R
(14.888000) vcan0 00000001#C4AA130000000000 R
(14.889000) vcan0 00000002#28AB130000000000 R
(14.890000) vcan0 00000003#8CAB130000000000 R
(14.891000) vcan0 00000004#F0AB130000000000 R
(14.892000) vcan0 00000005#54AC130000000000 R
(14.893000) vcan0 00000006#B8AC130000000000 R
(14.894000) vcan0 00000001#1CAD130000000000 R
(14.895000) vcan0 00000002#80AD130000000000 R
(14.896000) vcan0 00000003#E4AD130000000000 R
(14.897000) vcan0 00000004#48AE130000000000 R
(14.898000) vcan0 00000005#ACAE130000000000 R
(14.899000) vcan0 00000006#10AF130000000000 R
(14.900000) vcan0 00000001#74AF130000000000 R
(14.901000) vcan0 00000002#D8AF130000000000 R
(14.902000) vcan0 00000003#3CB0130000000000 R
(14.903000) vcan0 00000004#A0B0130000000000 R
(14.904000) vcan0 00000005#04B1130000000000 R
(14.905000) vcan0 00000006#68B1130000000000 R
(14.906000) vcan0 00000001#CCB1130000000000 R
(14.907000) vcan0 00000002#30B2130000000000 R
(14.908000) vcan0 00000003#94B2130000000000 R
(14.909000) vcan0 00000004#F8B2130000000000 R
(14.910000) vcan0 00000005#5CB3130000000000 R
(14.911000) vcan0 00000006#C0B3130000000000 R
(14.912000) vcan0 00000001#24B4130000000000 R
(14.913000) vcan0 00000002#88B4130000000000 R
(14.914000) vcan0 00000003#ECB4130000000000 R
(14.915000) vcan0 00000004#50B5130000000000 R
(14.916000) vcan0 00000005#B4B5130000000000 R
(14.917000) vcan0 00000006#18B6130000000000 R
(14.918000) vcan0 00000001#7CB6130000000000 R
(14.919000) vcan0 00000002#E0B6130000000000 R
(14.920000) vcan0 00000003#44B7130000000000 R
(14.921000) vcan0 00000004#A8B7130000000000 R
(14.922000) vcan0 00000005#0CB8130000000000 R
(14.923000) vcan0 00000006#70B8130000000000 R
(14.924000) vcan0 00000001#D4B8130000000000 R
(14.925000) vcan0 00000002#38B9130000000000 R
(14.926000) vcan0 00000003#9CB9130000000000 R
(14.927000) vcan0 00000004#00BA130000000000 R
(14.928000) vcan0 00000005#64BA130000000000 R
(14.929000) vcan0 00000006#C8BA130000000000 R
(14.930000) vcan0 00000001#2CBB130000000000 R
(14.931000) vcan0 00000002#90BB130000000000 R
(14.932000) vcan0 00000003#F4BB130000000000 R
(14.933000) vcan0 00000004#58BC130000000000 R
(14.934000) vcan0 00000005#BCBC130000000000 R
(14.935000) vcan0 00000006#20BD130000000000 R
(14.936000) vcan0 00000001#84BD130000000000 R
(14.937000) vcan0 00000002#E8BD130000000000 R
(14.938000) vcan0 00000003#4CBE130000000000 R
(14.939000) vcan0 00000004#B0BE130000000000 R
(14.940000) vcan0 00000005#14BF130000000000 R
(14.941000) vcan0 00000006#78BF130000000000 R
(14.942000) vcan0 00000001#DCBF130000000000 R
(14.943000) vcan0 00000002#40C0130000000000 R
(14.944000) vcan0 00000003#A4C0130000000000 R
(14.945000) vcan0 00000004#08C1130000000000 R
(14.946000) vcan0 00000005#6CC1130000000000 R
(14.947000) vcan0 00000006#D0C1130000000000 R
(14.948000) vcan0 00000001#34C2130000000000 R
(14.949000) vcan0 00000002#98C2130000000000 R
(14.950000) vcan0 00000003#FCC2130000000000 R
(14.951000) vcan0 00000004#60C3130000000000 R
(14.952000) vcan0 00000005#C4C3130000000000 R
(14.953000) vcan0 00000006#28C4130000000000 R
(14.954000) vcan0 00000001#8CC4130000000000 R
(14.955000) vcan0 00000002#F0C4130000000000 R
(14.956000) vcan0 00000003#54C5130000000000 R
(14.957000) vcan0 00000004#B8C5130000000000 R
(14.958000) vcan0 00000005#1CC6130000000000 R
(14.959000) vcan0 00000006#80C6130000000000 R
(14.960000) vcan0 00000001#E4C6130000000000 R
(14.961000) vcan0 00000002#48C7130000000000 R
(14.962000) vcan0 00000003#ACC7130000000000 R
(14.963000) vcan0 00000004#10C8130000000000 R
(14.964000) vcan0 00000005#74C8130000000000 R
(14.965000) vcan0 00000006#D8C8130000000000 R
(14.966000) vcan0 00000001#3CC9130000000000 R
(14.967000) vcan0 00000002#A0C9130000000000 R
(14.968000) vcan0 00000003#04CA130000000000 R
(14.969000) vcan0 00000004#68CA130000000000 R
(14.970000) vcan0 00000005#CCCA130000000000 R
(14.971000) vcan0 00000006#30CB130000000000 R
(14.972000) vcan0 00000001#94CB130000000000 R
(14.973000) vcan0 00000002#F8CB130000000000 R
(14.974000) vcan0 00000003#5CCC130000000000 R
(14.975000) vcan0 00000004#C0CC130000000000 R
(14.976000) vcan0 00000005#24CD130000000000 R
(14.977000) vcan0 00000006#88CD130000000000 R
(14.978000) vcan0 00000001#ECCD130000000000 R
(14.979000) vcan0 00000002#50CE130000000000 R
(14.980000) vcan0 00000003#B4CE130000000000 R
(14.981000) vcan0 00000004#18CF130000000000 R
(14.982000) vcan0 00000005#7CCF130000000000 R
(14.983000) vcan0 00000006#E0CF130000000000 R
(14.984000) vcan0 00000001#44D0130000000000 R
(14.985000) vcan0 00000002#A8D0130000000000 R
(14.986000) vcan0 00000003#0CD1130000000000 R
(14.987000) vcan0 00000004#70D1130000000000 R
(14.988000) vcan0 00000005#D4D1130000000000 R
(14.989000) vcan0 00000006#38D2130000000000 R
(14.990000) vcan0 00000001#9CD2130000000000 R
(14.991000) vcan0 00000002#00D3130000000000 R
(14.992000) vcan0 00000003#64D3130000000000 R
(14.993000) vcan0 00000004#C8D3130000000000 R
(14.994000) vcan0 00000005#2CD4130000000000 R
(14.995000) vcan0 00000006#90D4130000000000 R
(14.996000) vcan0 00000001#F4D4130000000000 R
(14.997000) vcan0 00000002#58D5130000000000 R
(14.998000) vcan0 00000003#BCD5130000000000 R
(14.999000) vcan0 00000004#20D6130000000000 R
(15.000000) vcan0 00000005#84D6130000000000 R
(15.001000) vcan0 00000006#E8D6130000000000 R
(15.002000) vcan0 00000001#4CD7130000000000 R
(15.003000) vcan0 00000002#B0D7130000000000 R
(15.004000) vcan0 00000003#14D8130000000000 R
(15.005000) vcan0 00000004#78D8130000000000 R
(15.006000) vcan0 00000005#DCD8130000000000 R
(15.007000) vcan0 00000006#40D9130000000000 R
(15.008000) vcan0 00000001#A4D9130000000000 R
