(50.209000) vcan0 00000006#0890490000000000 R
(50.210000) vcan0 00000001#6C90490000000000 R
(50.211000) vcan0 00000002#D090490000000000 R
(50.212000) vcan0 00000003#3491490000000000 R
(50.213000) vcan0 00000004#9891490000000000 R
(50.214000) vcan0 00000005#FC91490000000000 R
(50.215000) vcan0 00000006#6092490000000000 R
(50.216000) vcan0 00000001#C492490000000000 R
(50.217000) vcan0 00000002#2893490000000000 R
(50.218000) vcan0 00000003#8C93490000000000 R
(50.219000) vcan0 00000004#F093490000000000 R
(50.220000) vcan0 00000005#5494490000000000 R
(50.221000) vcan0 00000006#B894490000000000 R
(50.222000) vcan0 00000001#1C95490000000000 R
(50.223000) vcan0 00000002#8095490000000000 R
(50.224000) vcan0 00000003#E495490000000000 R
(50.225000) vcan0 00000004#4896490000000000 R
(50.226000) vcan0 00000005#AC96490000000000 R
(50.227000) vcan0 00000006#1097490000000000 R
(50.228000) vcan0 00000001#7497490000000000 R
(50.229000) vcan0 00000002#D897490000000000 R
(50.230000) vcan0 00000003#3C98490000000000 R
(50.231000) vcan0 00000004#A098490000000000 R
(50.232000) vcan0 00000005#0499490000000000 R
(50.233000) vcan0 00000006#6899490000000000 R
(50.234000) vcan0 00000001#CC99490000000000 R
(50.235000) vcan0 00000002#309A490000000000 R
(50.236000) vcan0 00000003#949A490000000000 R
(50.237000) vcan0 00000004#F89A490000000000 R
(50.238000) vcan0 00000005#5C9B490000000000 R
(50.239000) vcan0 00000006#C09B490000000000 R
(50.240000) vcan0 00000001#249C490000000000 R
(50.241000) vcan0 00000002#889C490000000000 R
(50.242000) vcan0 00000003#EC9C490000000000 R
(50.243000) vcan0 00000004#509D490000000000 R
(50.244000) vcan0 00000005#B49D490000000000 R
(50.245000) vcan0 00000006#189E490000000000 R
(50.246000) vcan0 00000001#7C9E490000000000 R
(50.247000) vcan0 00000002#E09E490000000000 R
(50.248000) vcan0 00000003#449F490000000000 R
(50.249000) vcan0 00000004#A89F490000000000 R
(50.250000) vcan0 00000005#0CA0490000000000 R
(50.251000) vcan0 00000006#70A0490000000000 R
(50.252000) vcan0 00000001#D4A0490000000000 R
(50.253000) vcan0 00000002#38A1490000000000 R
(50.254000) vcan0 00000003#9CA1490000000000 R
(50.255000) vcan0 00000004#00A2490000000000 R
(50.256000) vcan0 00000005#64A2490000000000 R
(50.257000) vcan0 00000006#C8A2490000000000 R
(50.258000) vcan0 00000001#2CA3490000000000 R
(50.259000) vcan0 00000002#90A3490000000000 R
(50.260000) vcan0 00000003#F4A3490000000000 R
(50.261000) vcan0 00000004#58A4490000000000 R
(50.262000) vcan0 00000005#BCA4490000000000 R
(50.263000) vcan0 00000006#20A5490000000000 R
(50.264000) vcan0 00000001#84A5490000000000 R
(50.265000) vcan0 00000002#E8A5490000000000 R
(50.266000) vcan0 00000003#4CA6490000000000 R
(50.267000) vcan0 00000004#B0A6490000000000 R
(50.268000) vcan0 00000005#14A7490000000000 R
(50.269000) vcan0 00000006#78A7490000000000 R
(50.270000) vcan0 00000001#DCA7490000000000 R
(50.271000) vcan0 00000002#40A8490000000000 R
(50.272000) vcan0 00000003#A4A8490000000000 R
(50.273000) vcan0 00000004#08A9490000000000 R
(50.274000) vcan0 00000005#6CA9490000000000 R
(50.275000) vcan0 00000006#D0A9490000000000 R
(50.276000) vcan0 00000001#34AA490000000000 R
(50.277000) vcan0 00000002#98AA490000000000 R
(50.278000) vcan0 00000003#FCAA490000000000 R
(50.279000) vcan0 00000004#60AB490000000000 R
(50.280000) vcan0 00000005#C4AB490000000000 R
(50.281000) vcan0 00000006#28AC490000000000 R
(50.282000) vcan0 00000001#8CAC490000000000 R
(50.283000) vcan0 00000002#F0AC490000000000 R
(50.284000) vcan0 00000003#54AD490000000000 R
(50.285000) vcan0 00000004#B8AD490000000000 R
(50.286000) vcan0 00000005#1CAE490000000000 R
(50.287000) vcan0 00000006#80AE490000000000 R
(50.288000) vcan0 00000001#E4AE490000000000 R
(50.289000) vcan0 00000002#48AF490000000000 R
(50.290000) vcan0 00000003#ACAF490000000000 R
(50.291000) vcan0 00000004#10B0490000000000 R
(50.292000) vcan0 00000005#74B0490000000000 R
(50.293000) vcan0 00000006#D8B0490000000000 R
(50.294000) vcan0 00000001#3CB1490000000000 R
(50.295000) vcan0 00000002#A0B1490000000000 R
(50.296000) vcan0 00000003#04B2490000000000 R
(50.297000) vcan0 00000004#68B2490000000000 R
(50.298000) vcan0 00000005#CCB2490000000000 R
(50.299000) vcan0 00000006#30B3490000000000 R
(50.300000) vcan0 00000001#94B3490000000000 R
(50.301000) vcan0 00000002#F8B3490000000000 R
(50.302000) vcan0 00000003#5CB4490000000000 R
(50.303000) vcan0 00000004#C0B4490000000000 R
(50.304000) vcan0 00000005#24B5490000000000 R
(50.305000) vcan0 00000006#88B5490000000000 R
(50.306000) vcan0 00000001#ECB5490000000000 R
(50.307000) vcan0 00000002#50B6490000000000 R
(50.308000) vcan0 00000003#B4B6490000000000 R
(50.309000) vcan0 00000004#18B7490000000000 R
(50.310000) vcan0 00000005#7CB7490000000000 R
(50.311000) vcan0 00000006#E0B7490000000000 R
(50.312000) vcan0 00000001#44B8490000000000 R
(50.313000) vcan0 00000002#A8B8490000000000 R
(50.314000) vcan0 00000003#0CB9490000000000 R
(50.315000) vcan0 00000004#70B9490000000000 R
(50.316000) vcan0 00000005#D4B9490000000000 R
(50.317000) vcan0 00000006#38BA490000000000 R
(50.318000) vcan0 00000001#9CBA490000000000 R
(50.319000) vcan0 00000002#00BB490000000000 R
(50.320000) vcan0 00000003#64BB490000000000 R
(50.321000) vcan0 00000004#C8BB490000000000 R
(50.322000) vcan0 00000005#2CBC490000000000 R
(50.323000) vcan0 00000006#90BC490000000000 R
(50.324000) vcan0 00000001#F4BC490000000000 R
(50.325000) vcan0 00000002#58BD490000000000 R
(50.326000) vcan0 00000003#BCBD490000000000 R
(50.327000) vcan0 00000004#20BE490000000000 R
(50.328000) vcan0 00000005#84BE490000000000 R
(50.329000) vcan0 00000006#E8BE490000000000 R
(50.330000) vcan0 00000001#4CBF490000000000 R
(50.331000) vcan0 00000002#B0BF490000000000 R
(50.332000) vcan0 00000003#14C0490000000000 R
(50.333000) vcan0 00000004#78C0490000000000 R
(50.334000) vcan0 00000005#DCC0490000000000 R
(50.335000) vcan0 00000006#40C1490000000000 R
(50.336000) vcan0 00000001#A4C1490000000000 R
(50.337000) vcan0 00000002#08C2490000000000 R
(50.338000) vcan0 00000003#6CC2490000000000 R
(50.339000) vcan0 00000004#D0C2490000000000 R
(50.340000) vcan0 00000005#34C3490000000000 R
(50.341000) vcan0 00000006#98C3490000000000 R
(50.342000) vcan0 00000001#FCC3490000000000 R
(50.343000) vcan0 00000002#60C4490000000000 R
(50.344000) vcan0 00000003#C4C4490000000000 R
(50.345000) vcan0 00000004#28C5490000000000 R
(50.346000) vcan0 00000005#8CC5490000000000 R
(50.347000) vcan0 00000006#F0C5490000000000 R
(50.348000) vcan0 00000001#54C6490000000000 R
(50.349000) vcan0 00000002#B8C6490000000000 R
(50.350000) vcan0 00000003#1CC7490000000000 R
(50.351000) vcan0 00000004#80C7490000000000 R
(50.352000) vcan0 00000005#E4C7490000000000 R
(50.353000) vcan0 00000006#48C8490000000000 R
(50.354000) vcan0 00000001#ACC8490000000000 R
(50.355000) vcan0 00000002#10C9490000000000 R
(50.356000) vcan0 00000003#74C9490000000000 R
(50.357000) vcan0 00000004#D8C9490000000000 R
(50.358000) vcan0 00000005#3CCA490000000000 R
(50.359000) vcan0 00000006#A0CA490000000000 R
(50.360000) vcan0 00000001#04CB490000000000 R
(50.361000) vcan0 00000002#68CB490000000000 R
(50.362000) vcan0 00000003#CCCB490000000000 R
(50.363000) vcan0 00000004#30CC490000000000 R
(50.364000) vcan0 00000005#94CC490000000000 R
(50.365000) vcan0 00000006#F8CC490000000000 R
(50.366000) vcan0 00000001#5CCD490000000000 R
(50.367000) vcan0 00000002#C0CD490000000000 R
(50.368000) vcan0 00000003#24CE490000000000 R
(50.369000) vcan0 00000004#88CE490000000000 R
(50.370000) vcan0 00000005#ECCE490000000000 R
(50.371000) vcan0 00000006#50CF490000000000 R
(50.372000) vcan0 00000001#B4CF490000000000 R
(50.373000) vcan0 00000002#18D0490000000000 R
(50.374000) vcan0 00000003#7CD0490000000000 R
(50.375000) vcan0 00000004#E0D0490000000000 R
(50.376000) vcan0 00000005#44D1490000000000 R
(50.377000) vcan0 00000006#A8D1490000000000 R
(50.378000) vcan0 00000001#0CD2490000000000 R
(50.379000) vcan0 00000002#70D2490000000000 R
(50.380000) vcan0 00000003#D4D2490000000000 R
(50.381000) vcan0 00000004#38D3490000000000 R
(50.382000) vcan0 00000005#9CD3490000000000 R
(50.383000) vcan0 00000006#00D4490000000000 R
(50.384000) vcan0 00000001#64D4490000000000 R
(50.385000) vcan0 00000002#C8D4490000000000 R
(50.386000) vcan0 00000003#2CD5490000000000 R
(50.387000) vcan0 00000004#90D5490000000000 R
(50.388000) vcan0 00000005#F4D5490000000000 R
(50.389000) vcan0 00000006#58D6490000000000 R
(50.390000) vcan0 00000001#BCD6490000000000 R
(50.391000) vcan0 00000002#20D7490000000000 R
(50.392000) vcan0 00000003#84D7490000000000 R
(50.393000) vcan0 00000004#E8D7490000000000 R
(50.394000) vcan0 00000005#4CD8490000000000 R
(50.395000) vcan0 00000006#B0D8490000000000 R
(50.396000) vcan0 00000001#14D9490000000000 R
(50.397000) vcan0 00000002#78D9490000000000 R
(50.398000) vcan0 00000003#DCD9490000000000 R
(50.399000) vcan0 00000004#40DA490000000000 R
(50.400000) vcan0 00000005#A4DA490000000000 R
(50.401000) vcan0 00000006#08DB490000000000 R
(50.402000) vcan0 00000001#6CDB490000000000 R
(50.403000) vcan0 00000002#D0DB490000000000 R
(50.404000) vcan0 00000003#34DC490000000000 R
(50.405000) vcan0 00000004#98DC490000000000 R
(50.406000) vcan0 00000005#FCDC490000000000 R
(50.407000) vcan0 00000006#60DD490000000000 R
(50.408000) vcan0 00000001#C4DD490000000000 R
(50.409000) vcan0 00000002#28DE490000000000 R
(50.410000) vcan0 00000003#8CDE490000000000 R
(50.411000) vcan0 00000004#F0DE490000000000 R
(50.412000) vcan0 00000005#54DF490000000000 R
(50.413000) vcan0 00000006#B8DF490000000000 R
(50.414000) vcan0 00000001#1CE0490000000000 R
(50.415000) vcan0 00000002#80E0490000000000 R
(50.416000) vcan0 00000003#E4E0490000000000 R
(50.417000) vcan0 00000004#48E1490000000000 R
(50.418000) vcan0 00000005#ACE1490000000000 R
(50.419000) vcan0 00000006#10E2490000000000 R
(50.420000) vcan0 00000001#74E2490000000000 R
(50.421000) vcan0 00000002#D8E2490000000000 R
(50.422000) vcan0 00000003#3CE3490000000000 R
(50.423000) vcan0 00000004#A0E3490000000000 R
(50.424000) vcan0 00000005#04E4490000000000 R
(50.425000) vcan0 00000006#68E4490000000000 R
(50.426000) vcan0 00000001#CCE4490000000000 R
(50.427000) vcan0 00000002#30E5490000000000 R
(50.428000) vcan0 00000003#94E5490000000000 R
(50.429000) vcan0 00000004#F8E5490000000000 R
(50.430000) vcan0 00000005#5CE6490000000000 R
(50.431000) vcan0 00000006#C0E6490000000000 R
(50.432000) vcan0 00000001#24E7490000000000 R
(50.433000) vcan0 00000002#88E7490000000000 R
(50.434000) vcan0 00000003#ECE7490000000000 R
(50.435000) vcan0 00000004#50E8490000000000 R
(50.436000) vcan0 00000005#B4E8490000000000 R
(50.437000) vcan0 00000006#18E9490000000000 R
(50.438000) vcan0 00000001#7CE9490000000000 R
(50.439000) vcan0 00000002#E0E9490000000000 R
(50.440000) vcan0 00000003#44EA490000000000 R
(50.441000) vcan0 00000004#A8EA490000000000 R
(50.442000) vcan0 00000005#0CEB490000000000 R
(50.443000) vcan0 00000006#70EB490000000000 R
(50.444000) vcan0 00000001#D4EB490000000000 R
(50.445000) vcan0 00000002#38EC490000000000 R
(50.446000) vcan0 00000003#9CEC490000000000 R
(50.447000) vcan0 00000004#00ED490000000000 R
(50.448000) vcan0 00000005#64ED490000000000 R
(50.449000) vcan0 00000006#C8ED490000000000 R
(50.450000) vcan0 00000001#2CEE490000000000 R
(50.451000) vcan0 00000002#90EE490000000000 R
(50.452000) vcan0 00000003#F4EE490000000000 R
(50.453000) vcan0 00000004#58EF490000000000 R
(50.454000) vcan0 00000005#BCEF490000000000 R
(50.455000) vcan0 00000006#20F0490000000000 R
(50.456000) vcan0 00000001#84F0490000000000 R
(50.457000) vcan0 00000002#E8F0490000000000 R
(50.458000) vcan0 00000003#4CF1490000000000 R
(50.459000) vcan0 00000004#B0F1490000000000 R
(50.460000) vcan0 00000005#14F2490000000000 R
(50.461000) vcan0 00000006#78F2490000000000 R
(50.462000) vcan0 00000001#DCF2490000000000 R
(50.463000) vcan0 00000002#40F3490000000000 R
(50.464000) vcan0 00000003#A4F3490000000000 R
(50.465000) vcan0 00000004#08F4490000000000 R
(50.466000) vcan0 00000005#6CF4490000000000 R
(50.467000) vcan0 00000006#D0F4490000000000 R
(50.468000) vcan0 00000001#34F5490000000000 R
(50.469000) vcan0 00000002#98F5490000000000 R
(50.470000) vcan0 00000003#FCF5490000000000 R
(50.471000) vcan0 00000004#60F6490000000000 R
(50.472000) vcan0 00000005#C4F6490000000000 R
(50.473000) vcan0 00000006#28F7490000000000 R
(50.474000) vcan0 00000001#8CF7490000000000 R
(50.475000) vcan0 00000002#F0F7490000000000 R
(50.476000) vcan0 00000003#54F8490000000000 R
(50.477000) vcan0 00000004#B8F8490000000000 R
(50.478000) vcan0 00000005#1CF9490000000000 R
(50.479000) vcan0 00000006#80F9490000000000 R
(50.480000) vcan0 00000001#E4F9490000000000 R
(50.481000) vcan0 00000002#48FA490000000000 R
(50.482000) vcan0 00000003#ACFA490000000000 R
(50.483000) vcan0 00000004#10FB490000000000 R
(50.484000) vcan0 00000005#74FB490000000000 R
(50.485000) vcan0 00000006#D8FB490000000000 R
(50.486000) vcan0 00000001#3CFC490000000000 R
(50.487000) vcan0 00000002#A0FC490000000000 R
(50.488000) vcan0 00000003#04FD490000000000 R
(50.489000) vcan0 00000004#68FD490000000000 R
(50.490000) vcan0 00000005#CCFD490000000000 R
(50.491000) vcan0 00000006#30FE490000000000 R
(50.492000) vcan0 00000001#94FE490000000000 R
(50.493000) vcan0 00000002#F8FE490000000000 R
(50.494000) vcan0 00000003#5CFF490000000000 R
(50.495000) vcan0 00000004#C0FF490000000000 R
(50.496000) vcan0 00000005#24004A0000000000 R
(50.497000) vcan0 00000006#88004A0000000000 R
(50.498000) vcan0 00000001#EC004A0000000000 R
