(38.358000) vcan0 00000005#BC7A370000000000 R
(38.359000) vcan0 00000006#207B370000000000 R
(38.360000) vcan0 00000001#847B370000000000 R
(38.361000) vcan0 00000002#E87B370000000000 R
(38.362000) vcan0 00000003#4C7C370000000000 R
(38.363000) vcan0 00000004#B07C370000000000 R
(38.364000) vcan0 00000005#147D370000000000 R
(38.365000) vcan0 00000006#787D370000000000 R
(38.366000) vcan0 00000001#DC7D370000000000 R
(38.367000) vcan0 00000002#407E370000000000 R
(38.368000) vcan0 00000003#A47E370000000000 R
(38.369000) vcan0 00000004#087F370000000000 R
(38.370000) vcan0 00000005#6C7F370000000000 R
(38.371000) vcan0 00000006#D07F370000000000 R
(38.372000) vcan0 00000001#3480370000000000 R
(38.373000) vcan0 00000002#9880370000000000 R
(38.374000) vcan0 00000003#FC80370000000000 R
(38.375000) vcan0 00000004#6081370000000000 R
(38.376000) vcan0 00000005#C481370000000000 R
(38.377000) vcan0 00000006#2882370000000000 R
(38.378000) vcan0 00000001#8C82370000000000 R
(38.379000) vcan0 00000002#F082370000000000 R
(38.380000) vcan0 00000003#5483370000000000 R
(38.381000) vcan0 00000004#B883370000000000 R
(38.382000) vcan0 00000005#1C84370000000000 R
(38.383000) vcan0 00000006#8084370000000000 R
(38.384000) vcan0 00000001#E484370000000000 R
(38.385000) vcan0 00000002#4885370000000000 R
(38.386000) vcan0 00000003#AC85370000000000 R
(38.387000) vcan0 00000004#1086370000000000 R
(38.388000) vcan0 00000005#7486370000000000 R
(38.389000) vcan0 00000006#D886370000000000 R
(38.390000) vcan0 00000001#3C87370000000000 R
(38.391000) vcan0 00000002#A087370000000000 R
(38.392000) vcan0 00000003#0488370000000000 R
(38.393000) vcan0 00000004#6888370000000000 R
(38.394000) vcan0 00000005#CC88370000000000 R
(38.395000) vcan0 00000006#3089370000000000 R
(38.396000) vcan0 00000001#9489370000000000 R
(38.397000) vcan0 00000002#F889370000000000 R
(38.398000) vcan0 00000003#5C8A370000000000 R
(38.399000) vcan0 00000004#C08A370000000000 R
(38.400000) vcan0 00000005#248B370000000000 R
(38.401000) vcan0 00000006#888B370000000000 R
(38.402000) vcan0 00000001#EC8B370000000000 R
(38.403000) vcan0 00000002#508C370000000000 R
(38.404000) vcan0 00000003#B48C370000000000 R
(38.405000) vcan0 00000004#188D370000000000 R
(38.406000) vcan0 00000005#7C8D370000000000 R
(38.407000) vcan0 00000006#E08D370000000000 R
(38.408000) vcan0 00000001#448E370000000000 R
(38.409000) vcan0 00000002#A88E370000000000 R
(38.410000) vcan0 00000003#0C8F370000000000 R
(38.411000) vcan0 00000004#708F370000000000 R
(38.412000) vcan0 00000005#D48F370000000000 R
(38.413000) vcan0 00000006#3890370000000000 R
(38.414000) vcan0 00000001#9C90370000000000 R
(38.415000) vcan0 00000002#0091370000000000 R
(38.416000) vcan0 00000003#6491370000000000 R
(38.417000) vcan0 00000004#C891370000000000 R
(38.418000) vcan0 00000005#2C92370000000000 R
(38.419000) vcan0 00000006#9092370000000000 R
(38.420000) vcan0 00000001#F492370000000000 R
(38.421000) vcan0 00000002#5893370000000000 R
(38.422000) vcan0 00000003#BC93370000000000 R
(38.423000) vcan0 00000004#2094370000000000 R
(38.424000) vcan0 00000005#8494370000000000 R
(38.425000) vcan0 00000006#E894370000000000 R
(38.426000) vcan0 00000001#4C95370000000000 R
(38.427000) vcan0 00000002#B095370000000000 R
(38.428000) vcan0 00000003#1496370000000000 R
(38.429000) vcan0 00000004#7896370000000000 R
(38.430000) vcan0 00000005#DC96370000000000 R
(38.431000) vcan0 00000006#4097370000000000 R
(38.432000) vcan0 00000001#A497370000000000 R
(38.433000) vcan0 00000002#0898370000000000 R
(38.434000) vcan0 00000003#6C98370000000000 R
(38.435000) vcan0 00000004#D098370000000000 R
(38.436000) vcan0 00000005#3499370000000000 R
(38.437000) vcan0 00000006#9899370000000000 R
(38.438000) vcan0 00000001#FC99370000000000 R
(38.439000) vcan0 00000002#609A370000000000 R
(38.440000) vcan0 00000003#C49A370000000000 R
(38.441000) vcan0 00000004#289B370000000000 R
(38.442000) vcan0 00000005#8C9B370000000000 R
(38.443000) vcan0 00000006#F09B370000000000 R
(38.444000) vcan0 00000001#549C370000000000 R
(38.445000) vcan0 00000002#B89C370000000000 R
(38.446000) vcan0 00000003#1C9D370000000000 R
(38.447000) vcan0 00000004#809D370000000000 R
(38.448000) vcan0 00000005#E49D370000000000 R
(38.449000) vcan0 00000006#489E370000000000 R
(38.450000) vcan0 00000001#AC9E370000000000 R
(38.451000) vcan0 00000002#109F370000000000 R
(38.452000) vcan0 00000003#749F370000000000 R
(38.453000) vcan0 00000004#D89F370000000000 R
(38.454000) vcan0 00000005#3CA0370000000000 R
(38.455000) vcan0 00000006#A0A0370000000000 R
(38.456000) vcan0 00000001#04A1370000000000 R
(38.457000) vcan0 00000002#68A1370000000000 R
(38.458000) vcan0 00000003#CCA1370000000000 R
(38.459000) vcan0 00000004#30A2370000000000 R
(38.460000) vcan0 00000005#94A2370000000000 R
(38.461000) vcan0 00000006#F8A2370000000000 R
(38.462000) vcan0 00000001#5CA3370000000000 R
(38.463000) vcan0 00000002#C0A3370000000000 R
(38.464000) vcan0 00000003#24A4370000000000 R
(38.465000) vcan0 00000004#88A4370000000000 R
(38.466000) vcan0 00000005#ECA4370000000000 R
(38.467000) vcan0 00000006#50A5370000000000 R
(38.468000) vcan0 00000001#B4A5370000000000 R
(38.469000) vcan0 00000002#18A6370000000000 R
(38.470000) vcan0 00000003#7CA6370000000000 R
(38.471000) vcan0 00000004#E0A6370000000000 R
(38.472000) vcan0 00000005#44A7370000000000 R
(38.473000) vcan0 00000006#A8A7370000000000 R
(38.474000) vcan0 00000001#0CA8370000000000 R
(38.475000) vcan0 00000002#70A8370000000000 R
(38.476000) vcan0 00000003#D4A8370000000000 R
(38.477000) vcan0 00000004#38A9370000000000 R
(38.478000) vcan0 00000005#9CA9370000000000 R
(38.479000) vcan0 00000006#00AA370000000000 R
(38.480000) vcan0 00000001#64AA370000000000 R
(38.481000) vcan0 00000002#C8AA370000000000 R
(38.482000) vcan0 00000003#2CAB370000000000 R
(38.483000) vcan0 00000004#90AB370000000000 R
(38.484000) vcan0 00000005#F4AB370000000000 R
(38.485000) vcan0 00000006#58AC370000000000 R
(38.486000) vcan0 00000001#BCAC370000000000 R
(38.487000) vcan0 00000002#20AD370000000000 R
(38.488000) vcan0 00000003#84AD370000000000 R
(38.489000) vcan0 00000004#E8AD370000000000 R
(38.490000) vcan0 00000005#4CAE370000000000 R
(38.491000) vcan0 00000006#B0AE370000000000 R
(38.492000) vcan0 00000001#14AF370000000000 R
(38.493000) vcan0 00000002#78AF370000000000 R
(38.494000) vcan0 00000003#DCAF370000000000 R
(38.495000) vcan0 00000004#40B0370000000000 R
(38.496000) vcan0 00000005#A4B0370000000000 R
(38.497000) vcan0 00000006#08B1370000000000 R
(38.498000) vcan0 00000001#6CB1370000000000 R
(38.499000) vcan0 00000002#D0B1370000000000 R
(38.500000) vcan0 00000003#34B2370000000000 R
(38.501000) vcan0 00000004#98B2370000000000 R
(38.502000) vcan0 00000005#FCB2370000000000 R
(38.503000) vcan0 00000006#60B3370000000000 R
(38.504000) vcan0 00000001#C4B3370000000000 R
(38.505000) vcan0 00000002#28B4370000000000 R
(38.506000) vcan0 00000003#8CB4370000000000 R
(38.507000) vcan0 00000004#F0B4370000000000 R
(38.508000) vcan0 00000005#54B5370000000000 R
(38.509000) vcan0 00000006#B8B5370000000000 R
(38.510000) vcan0 00000001#1CB6370000000000 R
(38.511000) vcan0 00000002#80B6370000000000 R
(38.512000) vcan0 00000003#E4B6370000000000 R
(38.513000) vcan0 00000004#48B7370000000000 R
(38.514000) vcan0 00000005#ACB7370000000000 R
(38.515000) vcan0 00000006#10B8370000000000 R
(38.516000) vcan0 00000001#74B8370000000000 R
(38.517000) vcan0 00000002#D8B8370000000000 R
(38.518000) vcan0 00000003#3CB9370000000000 R
(38.519000) vcan0 00000004#A0B9370000000000 R
(38.520000) vcan0 00000005#04BA370000000000 R
(38.521000) vcan0 00000006#68BA370000000000 R
(38.522000) vcan0 00000001#CCBA370000000000 R
(38.523000) vcan0 00000002#30BB370000000000 R
(38.524000) vcan0 00000003#94BB370000000000 R
(38.525000) vcan0 00000004#F8BB370000000000 R
(38.526000) vcan0 00000005#5CBC370000000000 R
(38.527000) vcan0 00000006#C0BC370000000000 R
(38.528000) vcan0 00000001#24BD370000000000 R
(38.529000) vcan0 00000002#88BD370000000000 R
(38.530000) vcan0 00000003#ECBD370000000000 R
(38.531000) vcan0 00000004#50BE370000000000 R
(38.532000) vcan0 00000005#B4BE370000000000 R
(38.533000) vcan0 00000006#18BF370000000000 R
(38.534000) vcan0 00000001#7CBF370000000000 R
(38.535000) vcan0 00000002#E0BF370000000000 R
(38.536000) vcan0 00000003#44C0370000000000 R
(38.537000) vcan0 00000004#A8C0370000000000 R
(38.538000) vcan0 00000005#0CC1370000000000 R
(38.539000) vcan0 00000006#70C1370000000000 R
(38.540000) vcan0 00000001#D4C1370000000000 R
(38.541000) vcan0 00000002#38C2370000000000 R
(38.542000) vcan0 00000003#9CC2370000000000 R
(38.543000) vcan0 00000004#00C3370000000000 R
(38.544000) vcan0 00000005#64C3370000000000 R
(38.545000) vcan0 00000006#C8C3370000000000 R
(38.546000) vcan0 00000001#2CC4370000000000 R
(38.547000) vcan0 00000002#90C4370000000000 R
(38.548000) vcan0 00000003#F4C4370000000000 R
(38.549000) vcan0 00000004#58C5370000000000 R
(38.550000) vcan0 00000005#BCC5370000000000 R
(38.551000) vcan0 00000006#20C6370000000000 R
(38.552000) vcan0 00000001#84C6370000000000 R
(38.553000) vcan0 00000002#E8C6370000000000 R
(38.554000) vcan0 00000003#4CC7370000000000 R
(38.555000) vcan0 00000004#B0C7370000000000 R
(38.556000) vcan0 00000005#14C8370000000000 R
(38.557000) vcan0 00000006#78C8370000000000 R
(38.558000) vcan0 00000001#DCC8370000000000 R
(38.559000) vcan0 00000002#40C9370000000000 R
(38.560000) vcan0 00000003#A4C9370000000000 R
(38.561000) vcan0 00000004#08CA370000000000 R
(38.562000) vcan0 00000005#6CCA370000000000 R
(38.563000) vcan0 00000006#D0CA370000000000 R
(38.564000) vcan0 00000001#34CB370000000000 R
(38.565000) vcan0 00000002#98CB370000000000 R
(38.566000) vcan0 00000003#FCCB370000000000 R
(38.567000) vcan0 00000004#60CC370000000000 R
(38.568000) vcan0 00000005#C4CC370000000000 R
(38.569000) vcan0 00000006#28CD370000000000 R
(38.570000) vcan0 00000001#8CCD370000000000 R
(38.571000) vcan0 00000002#F0CD370000000000 R
(38.572000) vcan0 00000003#54CE370000000000 R
(38.573000) vcan0 00000004#B8CE370000000000 R
(38.574000) vcan0 00000005#1CCF370000000000 R
(38.575000) vcan0 00000006#80CF370000000000 R
(38.576000) vcan0 00000001#E4CF370000000000 R
(38.577000) vcan0 00000002#48D0370000000000 R
(38.578000) vcan0 00000003#ACD0370000000000 R
(38.579000) vcan0 00000004#10D1370000000000 R
(38.580000) vcan0 00000005#74D1370000000000 R
(38.581000) vcan0 00000006#D8D1370000000000 R
(38.582000) vcan0 00000001#3CD2370000000000 R
(38.583000) vcan0 00000002#A0D2370000000000 R
(38.584000) vcan0 00000003#04D3370000000000 R
(38.585000) vcan0 00000004#68D3370000000000 R
(38.586000) vcan0 00000005#CCD3370000000000 R
(38.587000) vcan0 00000006#30D4370000000000 R
(38.588000) vcan0 00000001#94D4370000000000 R
(38.589000) vcan0 00000002#F8D4370000000000 R
(38.590000) vcan0 00000003#5CD5370000000000 R
(38.591000) vcan0 00000004#C0D5370000000000 R
(38.592000) vcan0 00000005#24D6370000000000 R
(38.593000) vcan0 00000006#88D6370000000000 R
(38.594000) vcan0 00000001#ECD6370000000000 R
(38.595000) vcan0 00000002#50D7370000000000 R
(38.596000) vcan0 00000003#B4D7370000000000 R
(38.597000) vcan0 00000004#18D8370000000000 R
(38.598000) vcan0 00000005#7CD8370000000000 R
(38.599000) vcan0 00000006#E0D8370000000000 R
(38.600000) vcan0 00000001#44D9370000000000 R
(38.601000) vcan0 00000002#A8D9370000000000 R
(38.602000) vcan0 00000003#0CDA370000000000 R
(38.603000) vcan0 00000004#70DA370000000000 R
(38.604000) vcan0 00000005#D4DA370000000000 R
(38.605000) vcan0 00000006#38DB370000000000 R
(38.606000) vcan0 00000001#9CDB370000000000 R
(38.607000) vcan0 00000002#00DC370000000000 R
(38.608000) vcan0 00000003#64DC370000000000 R
(38.609000) vcan0 00000004#C8DC370000000000 R
(38.610000) vcan0 00000005#2CDD370000000000 R
(38.611000) vcan0 00000006#90DD370000000000 R
(38.612000) vcan0 00000001#F4DD370000000000 R
(38.613000) vcan0 00000002#58DE370000000000 R
(38.614000) vcan0 00000003#BCDE370000000000 R
(38.615000) vcan0 00000004#20DF370000000000 R
(38.616000) vcan0 00000005#84DF370000000000 R
(38.617000) vcan0 00000006#E8DF370000000000 R
(38.618000) vcan0 00000001#4CE0370000000000 R
(38.619000) vcan0 00000002#B0E0370000000000 R
(38.620000) vcan0 00000003#14E1370000000000 R
(38.621000) vcan0 00000004#78E1370000000000 R
(38.622000) vcan0 00000005#DCE1370000000000 R
(38.623000) vcan0 00000006#40E2370000000000 R
(38.624000) vcan0 00000001#A4E2370000000000 R
(38.625000) vcan0 00000002#08E3370000000000 R
(38.626000) vcan0 00000003#6CE3370000000000 R
(38.627000) vcan0 00000004#D0E3370000000000 R
(38.628000) vcan0 00000005#34E4370000000000 R
(38.629000) vcan0 00000006#98E4370000000000 R
(38.630000) vcan0 00000001#FCE4370000000000 R
(38.631000) vcan0 00000002#60E5370000000000 R
(38.632000) vcan0 00000003#C4E5370000000000 R
(38.633000) vcan0 00000004#28E6370000000000 R
(38.634000) vcan0 00000005#8CE6370000000000 R
(38.635000) vcan0 00000006#F0E6370000000000 R
(38.636000) vcan0 00000001#54E7370000000000 R
(38.637000) vcan0 00000002#B8E7370000000000 R
(38.638000) vcan0 00000003#1CE8370000000000 R
(38.639000) vcan0 00000004#80E8370000000000 R
(38.640000) vcan0 00000005#E4E8370000000000 R
(38.641000) vcan0 00000006#48E9370000000000 R
(38.642000) vcan0 00000001#ACE9370000000000 R
(38.643000) vcan0 00000002#10EA370000000000 R
(38.644000) vcan0 00000003#74EA370000000000 R
(38.645000) vcan0 00000004#D8EA370000000000 R
(38.646000) vcan0 00000005#3CEB370000000000 R
(38.647000) vcan0 00000006#A0EB370000000000 R
(38.648000) vcan0 00000001#04EC370000000000 R
(38.649000) vcan0 00000002#68EC370000000000 R
(38.650000) vcan0 00000003#CCEC370000000000 R
(38.651000) vcan0 00000004#30ED370000000000 R
(38.652000) vcan0 00000005#94ED370000000000 R
(38.653000) vcan0 00000006#F8ED370000000000 R
(38.654000) vcan0 00000001#5CEE370000000000 R
(38.655000) vcan0 00000002#C0EE370000000000 R
(38.656000) vcan0 00000003#24EF370000000000 R
(38.657000) vcan0 00000004#88EF370000000000 R
(38.658000) vcan0 00000005#ECEF370000000000 R
(38.659000) vcan0 00000006#50F0370000000000 R
(38.660000) vcan0 00000001#B4F0370000000000 R
(38.661000) vcan0 00000002#18F1370000000000 R
(38.662000) vcan0 00000003#7CF1370000000000 R
(38.663000) vcan0 00000004#E0F1370000000000 R
(38.664000) vcan0 00000005#44F2370000000000 R
(38.665000) vcan0 00000006#A8F2370000000000 R
(38.666000) vcan0 00000001#0CF3370000000000 R
(38.667000) vcan0 00000002#70F3370000000000 R
(38.668000) vcan0 00000003#D4F3370000000000 R
(38.669000) vcan0 00000004#38F4370000000000 R
(38.670000) vcan0 00000005#9CF4370000000000 R
(38.671000) vcan0 00000006#00F5370000000000 R
(38.672000) vcan0 00000001#64F5370000000000 R
(38.673000) vcan0 00000002#C8F5370000000000 R
(38.674000) vcan0 00000003#2CF6370000000000 R
(38.675000) vcan0 00000004#90F6370000000000 R
(38.676000) vcan0 00000005#F4F6370000000000 R
(38.677000) vcan0 00000006#58F7370000000000 R
(38.678000) vcan0 00000001#BCF7370000000000 R
(38.679000) vcan0 00000002#20F8370000000000 R
(38.680000) vcan0 00000003#84F8370000000000 R
(38.681000) vcan0 00000004#E8F8370000000000 R
(38.682000) vcan0 00000005#4CF9370000000000 R
(38.683000) vcan0 00000006#B0F9370000000000 R
(38.684000) vcan0 00000001#14FA370000000000 R
(38.685000) vcan0 00000002#78FA370000000000 R
(38.686000) vcan0 00000003#DCFA370000000000 R
(38.687000) vcan0 00000004#40FB370000000000 R
(38.688000) vcan0 00000005#A4FB370000000000 R
(38.689000) vcan0 00000006#08FC370000000000 R
(38.690000) vcan0 00000001#6CFC370000000000 R
(38.691000) vcan0 00000002#D0FC370000000000 R
(38.692000) vcan0 00000003#34FD370000000000 R
(38.693000) vcan0 00000004#98FD370000000000 R
(38.694000) vcan0 00000005#FCFD370000000000 R
(38.695000) vcan0 00000006#60FE370000000000 R
(38.696000) vcan0 00000001#C4FE370000000000 R
(38.697000) vcan0 00000002#28FF370000000000 R
(38.698000) vcan0 00000003#8CFF370000000000 R
(38.699000) vcan0 00000004#F0FF370000000000 R
(38.700000) vcan0 00000005#5400380000000000 R
(38.701000) vcan0 00000006#B800380000000000 R
(38.702000) vcan0 00000001#1C01380000000000 R
(38.703000) vcan0 00000002#8001380000000000 R
(38.704000) vcan0 00000003#E401380000000000 R
(38.705000) vcan0 00000004#4802380000000000 R
(38.706000) vcan0 00000005#AC02380000000000 R
(38.707000) vcan0 00000006#1003380000000000 R
(38.708000) vcan0 00000001#7403380000000000 R
(38.709000) vcan0 00000002#D803380000000000 R
(38.710000) vcan0 00000003#3C04380000000000 R
(38.711000) vcan0 00000004#A004380000000000 R
(38.712000) vcan0 00000005#0405380000000000 R
(38.713000) vcan0 00000006#6805380000000000 R
(38.714000) vcan0 00000001#CC05380000000000 R
(38.715000) vcan0 00000002#3006380000000000 R
(38.716000) vcan0 00000003#9406380000000000 R
(38.717000) vcan0 00000004#F806380000000000 R
(38.718000) vcan0 00000005#5C07380000000000 R
(38.719000) vcan0 00000006#C007380000000000 R
(38.720000) vcan0 00000001#2408380000000000 R
(38.721000) vcan0 00000002#8808380000000000 R
(38.722000) vcan0 00000003#EC08380000000000 R
(38.723000) vcan0 00000004#5009380000000000 R
(38.724000) vcan0 00000005#B409380000000000 R
(38.725000) vcan0 00000006#180A380000000000 R
(38.726000) vcan0 00000001#7C0A380000000000 R
(38.727000) vcan0 00000002#E00A380000000000 R
(38.728000) vcan0 00000003#440B380000000000 R
(38.729000) vcan0 00000004#A80B380000000000 R
(38.730000) vcan0 00000005#0C0C380000000000 R
(38.731000) vcan0 00000006#700C380000000000 R
(38.732000) vcan0 00000001#D40C380000000000 R
(38.733000) vcan0 00000002#380D380000000000 R
(38.734000) vcan0 00000003#9C0D380000000000 R
(38.735000) vcan0 00000004#000E380000000000 R
(38.736000) vcan0 00000005#640E380000000000 R
(38.737000) vcan0 00000006#C80E380000000000 R
(38.738000) vcan0 00000001#2C0F380000000000 R
(38.739000) vcan0 00000002#900F380000000000 R
(38.740000) vcan0 00000003#F40F380000000000 R
(38.741000) vcan0 00000004#5810380000000000 R
(38.742000) vcan0 00000005#BC10380000000000 R
(38.743000) vcan0 00000006#2011380000000000 R
(38.744000) vcan0 00000001#8411380000000000 R
(38.745000) vcan0 00000002#E811380000000000 R
(38.746000) vcan0 00000003#4C12380000000000 R
(38.747000) vcan0 00000004#B012380000000000 R
(38.748000) vcan0 00000005#1413380000000000 R
(38.749000) vcan0 00000006#7813380000000000 R
(38.750000) vcan0 00000001#DC13380000000000 R
(38.751000) vcan0 00000002#4014380000000000 R
(38.752000) vcan0 00000003#A414380000000000 R
(38.753000) vcan0 00000004#0815380000000000 R
(38.754000) vcan0 00000005#6C15380000000000 R
(38.755000) vcan0 00000006#D015380000000000 R
(38.756000) vcan0 00000001#3416380000000000 R
(38.757000) vcan0 00000002#9816380000000000 R
(38.758000) vcan0 00000003#FC16380000000000 R
(38.759000) vcan0 00000004#6017380000000000 R
(38.760000) vcan0 00000005#C417380000000000 R
(38.761000) vcan0 00000006#2818380000000000 R
(38.762000) vcan0 00000001#8C18380000000000 R
(38.763000) vcan0 00000002#F018380000000000 R
(38.764000) vcan0 00000003#5419380000000000 R
(38.765000) vcan0 00000004#B819380000000000 R
(38.766000) vcan0 00000005#1C1A380000000000 R
(38.767000) vcan0 00000006#801A380000000000 R
(38.768000) vcan0 00000001#E41A380000000000 R
(38.769000) vcan0 00000002#481B380000000000 R
(38.770000) vcan0 00000003#AC1B380000000000 R
(38.771000) vcan0 00000004#101C380000000000 R
(38.772000) vcan0 00000005#741C380000000000 R
(38.773000) vcan0 00000006#D81C380000000000 R
(38.774000) vcan0 00000001#3C1D380000000000 R
(38.775000) vcan0 00000002#A01D380000000000 R
(38.776000) vcan0 00000003#041E380000000000 R
(38.777000) vcan0 00000004#681E380000000000 R
(38.778000) vcan0 00000005#CC1E380000000000 R
(38.779000) vcan0 00000006#301F380000000000 R
(38.780000) vcan0 00000001#941F380000000000 R
(38.781000) vcan0 00000002#F81F380000000000 R
(38.782000) vcan0 00000003#5C20380000000000 R
(38.783000) vcan0 00000004#C020380000000000 R
(38.784000) vcan0 00000005#2421380000000000 R
(38.785000) vcan0 00000006#8821380000000000 R
(38.786000) vcan0 00000001#EC21380000000000 R
(38.787000) vcan0 00000002#5022380000000000 R
(38.788000) vcan0 00000003#B422380000000000 R
(38.789000) vcan0 00000004#1823380000000000 R
(38.790000) vcan0 00000005#7C23380000000000 R
(38.791000) vcan0 00000006#E023380000000000 R
(38.792000) vcan0 00000001#4424380000000000 R
(38.793000) vcan0 00000002#A824380000000000 R
(38.794000) vcan0 00000003#0C25380000000000 R
(38.795000) vcan0 00000004#7025380000000000 R
(38.796000) vcan0 00000005#D425380000000000 R
(38.797000) vcan0 00000006#3826380000000000 R
(38.798000) vcan0 00000001#9C26380000000000 R
(38.799000) vcan0 00000002#0027380000000000 R
(38.800000) vcan0 00000003#6427380000000000 R
(38.801000) vcan0 00000004#C827380000000000 R
(38.802000) vcan0 00000005#2C28380000000000 R
(38.803000) vcan0 00000006#9028380000000000 R
(38.804000) vcan0 00000001#F428380000000000 R
(38.805000) vcan0 00000002#5829380000000000 R
(38.806000) vcan0 00000003#BC29380000000000 R
(38.807000) vcan0 00000004#202A380000000000 R
(38.808000) vcan0 00000005#842A380000000000 R
(38.809000) vcan0 00000006#E82A380000000000 R
(38.810000) vcan0 00000001#4C2B380000000000 R
(38.811000) vcan0 00000002#B02B380000000000 R
(38.812000) vcan0 00000003#142C380000000000 R
(38.813000) vcan0 00000004#782C380000000000 R
(38.814000) vcan0 00000005#DC2C380000000000 R
(38.815000) vcan0 00000006#402D380000000000 R
(38.816000) vcan0 00000001#A42D380000000000 R
(38.817000) vcan0 00000002#082E380000000000 R
(38.818000) vcan0 00000003#6C2E380000000000 R
(38.819000) vcan0 00000004#D02E380000000000 R
(38.820000) vcan0 00000005#342F380000000000 R
(38.821000) vcan0 00000006#982F380000000000 R
(38.822000) vcan0 00000001#FC2F380000000000 R
(38.823000) vcan0 00000002#6030380000000000 R
(38.824000) vcan0 00000003#C430380000000000 R
(38.825000) vcan0 00000004#2831380000000000 R
(38.826000) vcan0 00000005#8C31380000000000 R
(38.827000) vcan0 00000006#F031380000000000 R
(38.828000) vcan0 00000001#5432380000000000 R
(38.829000) vcan0 00000002#B832380000000000 R
(38.830000) vcan0 00000003#1C33380000000000 R
(38.831000) vcan0 00000004#8033380000000000 R
(38.832000) vcan0 00000005#E433380000000000 R
(38.833000) vcan0 00000006#4834380000000000 R
(38.834000) vcan0 00000001#AC34380000000000 R
(38.835000) vcan0 00000002#1035380000000000 R
(38.836000) vcan0 00000003#7435380000000000 R
(38.837000) vcan0 00000004#D835380000000000 R
(38.838000) vcan0 00000005#3C36380000000000 R
(38.839000) vcan0 00000006#A036380000000000 R
(38.840000) vcan0 00000001#0437380000000000 R
(38.841000) vcan0 00000002#6837380000000000 R
(38.842000) vcan0 00000003#CC37380000000000 R
(38.843000) vcan0 00000004#3038380000000000 R
(38.844000) vcan0 00000005#9438380000000000 R
(38.845000) vcan0 00000006#F838380000000000 R
(38.846000) vcan0 00000001#5C39380000000000 R
(38.847000) vcan0 00000002#C039380000000000 R
(38.848000) vcan0 00000003#243A380000000000 R
(38.849000) vcan0 00000004#883A380000000000 R
(38.850000) vcan0 00000005#EC3A380000000000 R
(38.851000) vcan0 00000006#503B380000000000 R
(38.852000) vcan0 00000001#B43B380000000000 R
(38.853000) vcan0 00000002#183C380000000000 R
(38.854000) vcan0 00000003#7C3C380000000000 R
(38.855000) vcan0 00000004#E03C380000000000 R
(38.856000) vcan0 00000005#443D380000000000 R
(38.857000) vcan0 00000006#A83D380000000000 R
(38.858000) vcan0 00000001#0C3E380000000000 R
(38.859000) vcan0 00000002#703E380000000000 R
(38.860000) vcan0 00000003#D43E380000000000 R
(38.861000) vcan0 00000004#383F380000000000 R
(38.862000) vcan0 00000005#9C3F380000000000 R
(38.863000) vcan0 00000006#0040380000000000 R
(38.864000) vcan0 00000001#6440380000000000 R
(38.865000) vcan0 00000002#C840380000000000 R
(38.866000) vcan0 00000003#2C41380000000000 R
(38.867000) vcan0 00000004#9041380000000000 R
(38.868000) vcan0 00000005#F441380000000000 R
(38.869000) vcan0 00000006#5842380000000000 R
(38.870000) vcan0 00000001#BC42380000000000 R
(38.871000) vcan0 00000002#2043380000000000 R
(38.872000) vcan0 00000003#8443380000000000 R
(38.873000) vcan0 00000004#E843380000000000 R
(38.874000) vcan0 00000005#4C44380000000000 R
(38.875000) vcan0 00000006#B044380000000000 R
(38.876000) vcan0 00000001#1445380000000000 R
(38.877000) vcan0 00000002#7845380000000000 R
(38.878000) vcan0 00000003#DC45380000000000 R
(38.879000) vcan0 00000004#4046380000000000 R
(38.880000) vcan0 00000005#A446380000000000 R
(38.881000) vcan0 00000006#0847380000000000 R
(38.882000) vcan0 00000001#6C47380000000000 R
(38.883000) vcan0 00000002#D047380000000000 R
(38.884000) vcan0 00000003#3448380000000000 R
(38.885000) vcan0 00000004#9848380000000000 R
(38.886000) vcan0 00000005#FC48380000000000 R
(38.887000) vcan0 00000006#6049380000000000 R
(38.888000) vcan0 00000001#C449380000000000 R
(38.889000) vcan0 00000002#284A380000000000 R
(38.890000) vcan0 00000003#8C4A380000000000 R
(38.891000) vcan0 00000004#F04A380000000000 R
