(49.793000) vcan0 00000004#88ED480000000000 R
(49.794000) vcan0 00000005#ECED480000000000 R
(49.795000) vcan0 00000006#50EE480000000000 R
(49.796000) vcan0 00000001#B4EE480000000000 R
(49.797000) vcan0 00000002#18EF480000000000 R
(49.798000) vcan0 00000003#7CEF480000000000 R
(49.799000) vcan0 00000004#E0EF480000000000 R
(49.800000) vcan0 00000005#44F0480000000000 R
(49.801000) vcan0 00000006#A8F0480000000000 R
(49.802000) vcan0 00000001#0CF1480000000000 R
(49.803000) vcan0 00000002#70F1480000000000 R
(49.804000) vcan0 00000003#D4F1480000000000 R
(49.805000) vcan0 00000004#38F2480000000000 R
(49.806000) vcan0 00000005#9CF2480000000000 R
(49.807000) vcan0 00000006#00F3480000000000 R
(49.808000) vcan0 00000001#64F3480000000000 R
(49.809000) vcan0 00000002#C8F3480000000000 R
(49.810000) vcan0 00000003#2CF4480000000000 R
(49.811000) vcan0 00000004#90F4480000000000 R
(49.812000) vcan0 00000005#F4F4480000000000 R
(49.813000) vcan0 00000006#58F5480000000000 R
(49.814000) vcan0 00000001#BCF5480000000000 R
(49.815000) vcan0 00000002#20F6480000000000 R
(49.816000) vcan0 00000003#84F6480000000000 R
(49.817000) vcan0 00000004#E8F6480000000000 R
(49.818000) vcan0 00000005#4CF7480000000000 R
(49.819000) vcan0 00000006#B0F7480000000000 R
(49.820000) vcan0 00000001#14F8480000000000 R
(49.821000) vcan0 00000002#78F8480000000000 R
(49.822000) vcan0 00000003#DCF8480000000000 R
(49.823000) vcan0 00000004#40F9480000000000 R
(49.824000) vcan0 00000005#A4F9480000000000 R
(49.825000) vcan0 00000006#08FA480000000000 R
(49.826000) vcan0 00000001#6CFA480000000000 R
(49.827000) vcan0 00000002#D0FA480000000000 R
(49.828000) vcan0 00000003#34FB480000000000 R
(49.829000) vcan0 00000004#98FB480000000000 R
(49.830000) vcan0 00000005#FCFB480000000000 R
(49.831000) vcan0 00000006#60FC480000000000 R
(49.832000) vcan0 00000001#C4FC480000000000 R
(49.833000) vcan0 00000002#28FD480000000000 R
(49.834000) vcan0 00000003#8CFD480000000000 R
(49.835000) vcan0 00000004#F0FD480000000000 R
(49.836000) vcan0 00000005#54FE480000000000 R
(49.837000) vcan0 00000006#B8FE480000000000 R
(49.838000) vcan0 00000001#1CFF480000000000 R
(49.839000) vcan0 00000002#80FF480000000000 R
(49.840000) vcan0 00000003#E4FF480000000000 R
(49.841000) vcan0 00000004#4800490000000000 R
(49.842000) vcan0 00000005#AC00490000000000 R
(49.843000) vcan0 00000006#1001490000000000 R
(49.844000) vcan0 00000001#7401490000000000 R
(49.845000) vcan0 00000002#D801490000000000 R
(49.846000) vcan0 00000003#3C02490000000000 R
(49.847000) vcan0 00000004#A002490000000000 R
(49.848000) vcan0 00000005#0403490000000000 R
(49.849000) vcan0 00000006#6803490000000000 R
(49.850000) vcan0 00000001#CC03490000000000 R
(49.851000) vcan0 00000002#3004490000000000 R
(49.852000) vcan0 00000003#9404490000000000 R
(49.853000) vcan0 00000004#F804490000000000 R
(49.854000) vcan0 00000005#5C05490000000000 R
(49.855000) vcan0 00000006#C005490000000000 R
(49.856000) vcan0 00000001#2406490000000000 R
(49.857000) vcan0 00000002#8806490000000000 R
(49.858000) vcan0 00000003#EC06490000000000 R
(49.859000) vcan0 00000004#5007490000000000 R
(49.860000) vcan0 00000005#B407490000000000 R
(49.861000) vcan0 00000006#1808490000000000 R
(49.862000) vcan0 00000001#7C08490000000000 R
(49.863000) vcan0 00000002#E008490000000000 R
(49.864000) vcan0 00000003#4409490000000000 R
(49.865000) vcan0 00000004#A809490000000000 R
(49.866000) vcan0 00000005#0C0A490000000000 R
(49.867000) vcan0 00000006#700A490000000000 R
(49.868000) vcan0 00000001#D40A490000000000 R
(49.869000) vcan0 00000002#380B490000000000 R
(49.870000) vcan0 00000003#9C0B490000000000 R
(49.871000) vcan0 00000004#000C490000000000 R
(49.872000) vcan0 00000005#640C490000000000 R
(49.873000) vcan0 00000006#C80C490000000000 R
(49.874000) vcan0 00000001#2C0D490000000000 R
(49.875000) vcan0 00000002#900D490000000000 R
(49.876000) vcan0 00000003#F40D490000000000 R
(49.877000) vcan0 00000004#580E490000000000 R
(49.878000) vcan0 00000005#BC0E490000000000 R
(49.879000) vcan0 00000006#200F490000000000 R
(49.880000) vcan0 00000001#840F490000000000 R
(49.881000) vcan0 00000002#E80F490000000000 R
(49.882000) vcan0 00000003#4C10490000000000 R
(49.883000) vcan0 00000004#B010490000000000 R
(49.884000) vcan0 00000005#1411490000000000 R
(49.885000) vcan0 00000006#7811490000000000 R
(49.886000) vcan0 00000001#DC11490000000000 R
(49.887000) vcan0 00000002#4012490000000000 R
(49.888000) vcan0 00000003#A412490000000000 R
(49.889000) vcan0 00000004#0813490000000000 R
(49.890000) vcan0 00000005#6C13490000000000 R
(49.891000) vcan0 00000006#D013490000000000 R
(49.892000) vcan0 00000001#3414490000000000 R
(49.893000) vcan0 00000002#9814490000000000 R
(49.894000) vcan0 00000003#FC14490000000000 R
(49.895000) vcan0 00000004#6015490000000000 R
(49.896000) vcan0 00000005#C415490000000000 R
(49.897000) vcan0 00000006#2816490000000000 R
(49.898000) vcan0 00000001#8C16490000000000 R
(49.899000) vcan0 00000002#F016490000000000 R
(49.900000) vcan0 00000003#5417490000000000 R
(49.901000) vcan0 00000004#B817490000000000 R
(49.902000) vcan0 00000005#1C18490000000000 R
(49.903000) vcan0 00000006#8018490000000000 R
(49.904000) vcan0 00000001#E418490000000000 R
(49.905000) vcan0 00000002#4819490000000000 R
(49.906000) vcan0 00000003#AC19490000000000 R
(49.907000) vcan0 00000004#101A490000000000 R
(49.908000) vcan0 00000005#741A490000000000 R
(49.909000) vcan0 00000006#D81A490000000000 R
(49.910000) vcan0 00000001#3C1B490000000000 R
(49.911000) vcan0 00000002#A01B490000000000 R
(49.912000) vcan0 00000003#041C490000000000 R
(49.913000) vcan0 00000004#681C490000000000 R
(49.914000) vcan0 00000005#CC1C490000000000 R
(49.915000) vcan0 00000006#301D490000000000 R
(49.916000) vcan0 00000001#941D490000000000 R
(49.917000) vcan0 00000002#F81D490000000000 R
(49.918000) vcan0 00000003#5C1E490000000000 R
(49.919000) vcan0 00000004#C01E490000000000 R
(49.920000) vcan0 00000005#241F490000000000 R
(49.921000) vcan0 00000006#881F490000000000 R
(49.922000) vcan0 00000001#EC1F490000000000 R
(49.923000) vcan0 00000002#5020490000000000 R
(49.924000) vcan0 00000003#B420490000000000 R
(49.925000) vcan0 00000004#1821490000000000 R
(49.926000) vcan0 00000005#7C21490000000000 R
(49.927000) vcan0 00000006#E021490000000000 R
(49.928000) vcan0 00000001#4422490000000000 R
(49.929000) vcan0 00000002#A822490000000000 R
(49.930000) vcan0 00000003#0C23490000000000 R
(49.931000) vcan0 00000004#7023490000000000 R
(49.932000) vcan0 00000005#D423490000000000 R
(49.933000) vcan0 00000006#3824490000000000 R
(49.934000) vcan0 00000001#9C24490000000000 R
(49.935000) vcan0 00000002#0025490000000000 R
(49.936000) vcan0 00000003#6425490000000000 R
(49.937000) vcan0 00000004#C825490000000000 R
(49.938000) vcan0 00000005#2C26490000000000 R
(49.939000) vcan0 00000006#9026490000000000 R
(49.940000) vcan0 00000001#F426490000000000 R
(49.941000) vcan0 00000002#5827490000000000 R
(49.942000) vcan0 00000003#BC27490000000000 R
(49.943000) vcan0 00000004#2028490000000000 R
(49.944000) vcan0 00000005#8428490000000000 R
(49.945000) vcan0 00000006#E828490000000000 R
(49.946000) vcan0 00000001#4C29490000000000 R
(49.947000) vcan0 00000002#B029490000000000 R
(49.948000) vcan0 00000003#142A490000000000 R
(49.949000) vcan0 00000004#782A490000000000 R
(49.950000) vcan0 00000005#DC2A490000000000 R
(49.951000) vcan0 00000006#402B490000000000 R
(49.952000) vcan0 00000001#A42B490000000000 R
(49.953000) vcan0 00000002#082C490000000000 R
(49.954000) vcan0 00000003#6C2C490000000000 R
(49.955000) vcan0 00000004#D02C490000000000 R
(49.956000) vcan0 00000005#342D490000000000 R
(49.957000) vcan0 00000006#982D490000000000 R
(49.958000) vcan0 00000001#FC2D490000000000 R
(49.959000) vcan0 00000002#602E490000000000 R
(49.960000) vcan0 00000003#C42E490000000000 R
(49.961000) vcan0 00000004#282F490000000000 R
(49.962000) vcan0 00000005#8C2F490000000000 R
(49.963000) vcan0 00000006#F02F490000000000 R
(49.964000) vcan0 00000001#5430490000000000 R
(49.965000) vcan0 00000002#B830490000000000 R
(49.966000) vcan0 00000003#1C31490000000000 R
(49.967000) vcan0 00000004#8031490000000000 R
(49.968000) vcan0 00000005#E431490000000000 R
(49.969000) vcan0 00000006#4832490000000000 R
(49.970000) vcan0 00000001#AC32490000000000 R
