(2.111000) vcan0 00000004#C02B000000000000 R
(2.112000) vcan0 00000005#242C000000000000 R
(2.113000) vcan0 00000006#882C000000000000 R
(2.114000) vcan0 00000001#EC2C000000000000 R
(2.115000) vcan0 00000002#502D000000000000 R
(2.116000) vcan0 00000003#B42D000000000000 R
(2.117000) vcan0 00000004#182E000000000000 R
(2.118000) vcan0 00000005#7C2E000000000000 R
(2.119000) vcan0 00000006#E02E000000000000 R
(2.120000) vcan0 00000001#442F000000000000 R
(2.121000) vcan0 00000002#A82F000000000000 R
(2.122000) vcan0 00000003#0C30000000000000 R
(2.123000) vcan0 00000004#7030000000000000 R
(2.124000) vcan0 00000005#D430000000000000 R
(2.125000) vcan0 00000006#3831000000000000 R
(2.126000) vcan0 00000001#9C31000000000000 R
(2.127000) vcan0 00000002#0032000000000000 R
(2.128000) vcan0 00000003#6432000000000000 R
(2.129000) vcan0 00000004#C832000000000000 R
(2.130000) vcan0 00000005#2C33000000000000 R
(2.131000) vcan0 00000006#9033000000000000 R
(2.132000) vcan0 00000001#F433000000000000 R
(2.133000) vcan0 00000002#5834000000000000 R
(2.134000) vcan0 00000003#BC34000000000000 R
(2.135000) vcan0 00000004#2035000000000000 R
(2.136000) vcan0 00000005#8435000000000000 R
(2.137000) vcan0 00000006#E835000000000000 R
(2.138000) vcan0 00000001#4C36000000000000 R
(2.139000) vcan0 00000002#B036000000000000 R
(2.140000) vcan0 00000003#1437000000000000 R
(2.141000) vcan0 00000004#7837000000000000 R
(2.142000) vcan0 00000005#DC37000000000000 R
(2.143000) vcan0 00000006#4038000000000000 R
(2.144000) vcan0 00000001#A438000000000000 R
(2.145000) vcan0 00000002#0839000000000000 R
(2.146000) vcan0 00000003#6C39000000000000 R
(2.147000) vcan0 00000004#D039000000000000 R
(2.148000) vcan0 00000005#343A000000000000 R
(2.149000) vcan0 00000006#983A000000000000 R
(2.150000) vcan0 00000001#FC3A000000000000 R
(2.151000) vcan0 00000002#603B000000000000 R
(2.152000) vcan0 00000003#C43B000000000000 R
(2.153000) vcan0 00000004#283C000000000000 R
(2.154000) vcan0 00000005#8C3C000000000000 R
(2.155000) vcan0 00000006#F03C000000000000 R
(2.156000) vcan0 00000001#543D000000000000 R
(2.157000) vcan0 00000002#B83D000000000000 R
(2.158000) vcan0 00000003#1C3E000000000000 R
(2.159000) vcan0 00000004#803E000000000000 R
(2.160000) vcan0 00000005#E43E000000000000 R
(2.161000) vcan0 00000006#483F000000000000 R
(2.162000) vcan0 00000001#AC3F000000000000 R
(2.163000) vcan0 00000002#1040000000000000 R
(2.164000) vcan0 00000003#7440000000000000 R
(2.165000) vcan0 00000004#D840000000000000 R
(2.166000) vcan0 00000005#3C41000000000000 R
(2.167000) vcan0 00000006#A041000000000000 R
(2.168000) vcan0 00000001#0442000000000000 R
(2.169000) vcan0 00000002#6842000000000000 R
(2.170000) vcan0 00000003#CC42000000000000 R
(2.171000) vcan0 00000004#3043000000000000 R
(2.172000) vcan0 00000005#9443000000000000 R
(2.173000) vcan0 00000006#F843000000000000 R
(2.174000) vcan0 00000001#5C44000000000000 R
(2.175000) vcan0 00000002#C044000000000000 R
(2.176000) vcan0 00000003#2445000000000000 R
(2.177000) vcan0 00000004#8845000000000000 R
(2.178000) vcan0 00000005#EC45000000000000 R
(2.179000) vcan0 00000006#5046000000000000 R
(2.180000) vcan0 00000001#B446000000000000 R
(2.181000) vcan0 00000002#1847000000000000 R
(2.182000) vcan0 00000003#7C47000000000000 R
(2.183000) vcan0 00000004#E047000000000000 R
(2.184000) vcan0 00000005#4448000000000000 R
(2.185000) vcan0 00000006#A848000000000000 R
(2.186000) vcan0 00000001#0C49000000000000 R
(2.187000) vcan0 00000002#7049000000000000 R
(2.188000) vcan0 00000003#D449000000000000 R
(2.189000) vcan0 00000004#384A000000000000 R
(2.190000) vcan0 00000005#9C4A000000000000 R
(2.191000) vcan0 00000006#004B000000000000 R
(2.192000) vcan0 00000001#644B000000000000 R
(2.193000) vcan0 00000002#C84B000000000000 R
(2.194000) vcan0 00000003#2C4C000000000000 R
(2.195000) vcan0 00000004#904C000000000000 R
(2.196000) vcan0 00000005#F44C000000000000 R
(2.197000) vcan0 00000006#584D000000000000 R
(2.198000) vcan0 00000001#BC4D000000000000 R
(2.199000) vcan0 00000002#204E000000000000 R
(2.200000) vcan0 00000003#844E000000000000 R
(2.201000) vcan0 00000004#E84E000000000000 R
(2.202000) vcan0 00000005#4C4F000000000000 R
(2.203000) vcan0 00000006#B04F000000000000 R
(2.204000) vcan0 00000001#1450000000000000 R
(2.205000) vcan0 00000002#7850000000000000 R
(2.206000) vcan0 00000003#DC50000000000000 R
(2.207000) vcan0 00000004#4051000000000000 R
(2.208000) vcan0 00000005#A451000000000000 R
(2.209000) vcan0 00000006#0852000000000000 R
(2.210000) vcan0 00000001#6C52000000000000 R
(2.211000) vcan0 00000002#D052000000000000 R
(2.212000) vcan0 00000003#3453000000000000 R
(2.213000) vcan0 00000004#9853000000000000 R
(2.214000) vcan0 00000005#FC53000000000000 R
(2.215000) vcan0 00000006#6054000000000000 R
(2.216000) vcan0 00000001#C454000000000000 R
(2.217000) vcan0 00000002#2855000000000000 R
(2.218000) vcan0 00000003#8C55000000000000 R
(2.219000) vcan0 00000004#F055000000000000 R
(2.220000) vcan0 00000005#5456000000000000 R
(2.221000) vcan0 00000006#B856000000000000 R
(2.222000) vcan0 00000001#1C57000000000000 R
(2.223000) vcan0 00000002#8057000000000000 R
(2.224000) vcan0 00000003#E457000000000000 R
(2.225000) vcan0 00000004#4858000000000000 R
(2.226000) vcan0 00000005#AC58000000000000 R
(2.227000) vcan0 00000006#1059000000000000 R
(2.228000) vcan0 00000001#7459000000000000 R
(2.229000) vcan0 00000002#D859000000000000 R
(2.230000) vcan0 00000003#3C5A000000000000 R
(2.231000) vcan0 00000004#A05A000000000000 R
(2.232000) vcan0 00000005#045B000000000000 R
(2.233000) vcan0 00000006#685B000000000000 R
(2.234000) vcan0 00000001#CC5B000000000000 R
(2.235000) vcan0 00000002#305C000000000000 R
(2.236000) vcan0 00000003#945C000000000000 R
(2.237000) vcan0 00000004#F85C000000000000 R
(2.238000) vcan0 00000005#5C5D000000000000 R
(2.239000) vcan0 00000006#C05D000000000000 R
(2.240000) vcan0 00000001#245E000000000000 R
(2.241000) vcan0 00000002#885E000000000000 R
(2.242000) vcan0 00000003#EC5E000000000000 R
(2.243000) vcan0 00000004#505F000000000000 R
(2.244000) vcan0 00000005#B45F000000000000 R
(2.245000) vcan0 00000006#1860000000000000 R
(2.246000) vcan0 00000001#7C60000000000000 R
(2.247000) vcan0 00000002#E060000000000000 R
(2.248000) vcan0 00000003#4461000000000000 R
(2.249000) vcan0 00000004#A861000000000000 R
(2.250000) vcan0 00000005#0C62000000000000 R
(2.251000) vcan0 00000006#7062000000000000 R
(2.252000) vcan0 00000001#D462000000000000 R
(2.253000) vcan0 00000002#3863000000000000 R
(2.254000) vcan0 00000003#9C63000000000000 R
(2.255000) vcan0 00000004#0064000000000000 R
(2.256000) vcan0 00000005#6464000000000000 R
(2.257000) vcan0 00000006#C864000000000000 R
(2.258000) vcan0 00000001#2C65000000000000 R
(2.259000) vcan0 00000002#9065000000000000 R
(2.260000) vcan0 00000003#F465000000000000 R
(2.261000) vcan0 00000004#5866000000000000 R
(2.262000) vcan0 00000005#BC66000000000000 R
(2.263000) vcan0 00000006#2067000000000000 R
(2.264000) vcan0 00000001#8467000000000000 R
(2.265000) vcan0 00000002#E867000000000000 R
(2.266000) vcan0 00000003#4C68000000000000 R
(2.267000) vcan0 00000004#B068000000000000 R
(2.268000) vcan0 00000005#1469000000000000 R
(2.269000) vcan0 00000006#7869000000000000 R
(2.270000) vcan0 00000001#DC69000000000000 R
(2.271000) vcan0 00000002#406A000000000000 R
(2.272000) vcan0 00000003#A46A000000000000 R
(2.273000) vcan0 00000004#086B000000000000 R
(2.274000) vcan0 00000005#6C6B000000000000 R
(2.275000) vcan0 00000006#D06B000000000000 R
(2.276000) vcan0 00000001#346C000000000000 R
(2.277000) vcan0 00000002#986C000000000000 R
(2.278000) vcan0 00000003#FC6C000000000000 R
(2.279000) vcan0 00000004#606D000000000000 R
(2.280000) vcan0 00000005#C46D000000000000 R
(2.281000) vcan0 00000006#286E000000000000 R
(2.282000) vcan0 00000001#8C6E000000000000 R
(2.283000) vcan0 00000002#F06E000000000000 R
(2.284000) vcan0 00000003#546F000000000000 R
(2.285000) vcan0 00000004#B86F000000000000 R
(2.286000) vcan0 00000005#1C70000000000000 R
(2.287000) vcan0 00000006#8070000000000000 R
(2.288000) vcan0 00000001#E470000000000000 R
(2.289000) vcan0 00000002#4871000000000000 R
(2.290000) vcan0 00000003#AC71000000000000 R
(2.291000) vcan0 00000004#1072000000000000 R
(2.292000) vcan0 00000005#7472000000000000 R
(2.293000) vcan0 00000006#D872000000000000 R
(2.294000) vcan0 00000001#3C73000000000000 R
(2.295000) vcan0 00000002#A073000000000000 R
(2.296000) vcan0 00000003#0474000000000000 R
(2.297000) vcan0 00000004#6874000000000000 R
(2.298000) vcan0 00000005#CC74000000000000 R
(2.299000) vcan0 00000006#3075000000000000 R
(2.300000) vcan0 00000001#9475000000000000 R
(2.301000) vcan0 00000002#F875000000000000 R
(2.302000) vcan0 00000003#5C76000000000000 R
(2.303000) vcan0 00000004#C076000000000000 R
(2.304000) vcan0 00000005#2477000000000000 R
(2.305000) vcan0 00000006#8877000000000000 R
(2.306000) vcan0 00000001#EC77000000000000 R
(2.307000) vcan0 00000002#5078000000000000 R
(2.308000) vcan0 00000003#B478000000000000 R
(2.309000) vcan0 00000004#1879000000000000 R
(2.310000) vcan0 00000005#7C79000000000000 R
(2.311000) vcan0 00000006#E079000000000000 R
(2.312000) vcan0 00000001#447A000000000000 R
(2.313000) vcan0 00000002#A87A000000000000 R
(2.314000) vcan0 00000003#0C7B000000000000 R
(2.315000) vcan0 00000004#707B000000000000 R
(2.316000) vcan0 00000005#D47B000000000000 R
(2.317000) vcan0 00000006#387C000000000000 R
(2.318000) vcan0 00000001#9C7C000000000000 R
(2.319000) vcan0 00000002#007D000000000000 R
(2.320000) vcan0 00000003#647D000000000000 R
(2.321000) vcan0 00000004#C87D000000000000 R
(2.322000) vcan0 00000005#2C7E000000000000 R
(2.323000) vcan0 00000006#907E000000000000 R
(2.324000) vcan0 00000001#F47E000000000000 R
(2.325000) vcan0 00000002#587F000000000000 R
(2.326000) vcan0 00000003#BC7F000000000000 R
(2.327000) vcan0 00000004#2080000000000000 R
(2.328000) vcan0 00000005#8480000000000000 R
(2.329000) vcan0 00000006#E880000000000000 R
(2.330000) vcan0 00000001#4C81000000000000 R
(2.331000) vcan0 00000002#B081000000000000 R
(2.332000) vcan0 00000003#1482000000000000 R
(2.333000) vcan0 00000004#7882000000000000 R
(2.334000) vcan0 00000005#DC82000000000000 R
(2.335000) vcan0 00000006#4083000000000000 R
(2.336000) vcan0 00000001#A483000000000000 R
(2.337000) vcan0 00000002#0884000000000000 R
(2.338000) vcan0 00000003#6C84000000000000 R
(2.339000) vcan0 00000004#D084000000000000 R
(2.340000) vcan0 00000005#3485000000000000 R
(2.341000) vcan0 00000006#9885000000000000 R
(2.342000) vcan0 00000001#FC85000000000000 R
(2.343000) vcan0 00000002#6086000000000000 R
(2.344000) vcan0 00000003#C486000000000000 R
(2.345000) vcan0 00000004#2887000000000000 R
(2.346000) vcan0 00000005#8C87000000000000 R
(2.347000) vcan0 00000006#F087000000000000 R
(2.348000) vcan0 00000001#5488000000000000 R
(2.349000) vcan0 00000002#B888000000000000 R
(2.350000) vcan0 00000003#1C89000000000000 R
(2.351000) vcan0 00000004#8089000000000000 R
(2.352000) vcan0 00000005#E489000000000000 R
(2.353000) vcan0 00000006#488A000000000000 R
(2.354000) vcan0 00000001#AC8A000000000000 R
(2.355000) vcan0 00000002#108B000000000000 R
(2.356000) vcan0 00000003#748B000000000000 R
(2.357000) vcan0 00000004#D88B000000000000 R
(2.358000) vcan0 00000005#3C8C000000000000 R
(2.359000) vcan0 00000006#A08C000000000000 R
(2.360000) vcan0 00000001#048D000000000000 R
(2.361000) vcan0 00000002#688D000000000000 R
(2.362000) vcan0 00000003#CC8D000000000000 R
(2.363000) vcan0 00000004#308E000000000000 R
(2.364000) vcan0 00000005#948E000000000000 R
(2.365000) vcan0 00000006#F88E000000000000 R
(2.366000) vcan0 00000001#5C8F000000000000 R
(2.367000) vcan0 00000002#C08F000000000000 R
(2.368000) vcan0 00000003#2490000000000000 R
(2.369000) vcan0 00000004#8890000000000000 R
(2.370000) vcan0 00000005#EC90000000000000 R
(2.371000) vcan0 00000006#5091000000000000 R
(2.372000) vcan0 00000001#B491000000000000 R
(2.373000) vcan0 00000002#1892000000000000 R
(2.374000) vcan0 00000003#7C92000000000000 R
(2.375000) vcan0 00000004#E092000000000000 R
(2.376000) vcan0 00000005#4493000000000000 R
(2.377000) vcan0 00000006#A893000000000000 R
(2.378000) vcan0 00000001#0C94000000000000 R
(2.379000) vcan0 00000002#7094000000000000 R
(2.380000) vcan0 00000003#D494000000000000 R
(2.381000) vcan0 00000004#3895000000000000 R
(2.382000) vcan0 00000005#9C95000000000000 R
(2.383000) vcan0 00000006#0096000000000000 R
(2.384000) vcan0 00000001#6496000000000000 R
(2.385000) vcan0 00000002#C896000000000000 R
(2.386000) vcan0 00000003#2C97000000000000 R
(2.387000) vcan0 00000004#9097000000000000 R
(2.388000) vcan0 00000005#F497000000000000 R
(2.389000) vcan0 00000006#5898000000000000 R
(2.390000) vcan0 00000001#BC98000000000000 R
(2.391000) vcan0 00000002#2099000000000000 R
(2.392000) vcan0 00000003#8499000000000000 R
(2.393000) vcan0 00000004#E899000000000000 R
(2.394000) vcan0 00000005#4C9A000000000000 R
(2.395000) vcan0 00000006#B09A000000000000 R
(2.396000) vcan0 00000001#149B000000000000 R
(2.397000) vcan0 00000002#789B000000000000 R
(2.398000) vcan0 00000003#DC9B000000000000 R
(2.399000) vcan0 00000004#409C000000000000 R
(2.400000) vcan0 00000005#A49C000000000000 R
(2.401000) vcan0 00000006#089D000000000000 R
(2.402000) vcan0 00000001#6C9D000000000000 R
(2.403000) vcan0 00000002#D09D000000000000 R
(2.404000) vcan0 00000003#349E000000000000 R
(2.405000) vcan0 00000004#989E000000000000 R
(2.406000) vcan0 00000005#FC9E000000000000 R
(2.407000) vcan0 00000006#609F000000000000 R
(2.408000) vcan0 00000001#C49F000000000000 R
(2.409000) vcan0 00000002#28A0000000000000 R
(2.410000) vcan0 00000003#8CA0000000000000 R
(2.411000) vcan0 00000004#F0A0000000000000 R
(2.412000) vcan0 00000005#54A1000000000000 R
(2.413000) vcan0 00000006#B8A1000000000000 R
(2.414000) vcan0 00000001#1CA2000000000000 R
(2.415000) vcan0 00000002#80A2000000000000 R
(2.416000) vcan0 00000003#E4A2000000000000 R
(2.417000) vcan0 00000004#48A3000000000000 R
(2.418000) vcan0 00000005#ACA3000000000000 R
(2.419000) vcan0 00000006#10A4000000000000 R
(2.420000) vcan0 00000001#74A4000000000000 R
(2.421000) vcan0 00000002#D8A4000000000000 R
(2.422000) vcan0 00000003#3CA5000000000000 R
(2.423000) vcan0 00000004#A0A5000000000000 R
(2.424000) vcan0 00000005#04A6000000000000 R
(2.425000) vcan0 00000006#68A6000000000000 R
(2.426000) vcan0 00000001#CCA6000000000000 R
(2.427000) vcan0 00000002#30A7000000000000 R
(2.428000) vcan0 00000003#94A7000000000000 R
(2.429000) vcan0 00000004#F8A7000000000000 R
(2.430000) vcan0 00000005#5CA8000000000000 R
(2.431000) vcan0 00000006#C0A8000000000000 R
(2.432000) vcan0 00000001#24A9000000000000 R
(2.433000) vcan0 00000002#88A9000000000000 R
(2.434000) vcan0 00000003#ECA9000000000000 R
(2.435000) vcan0 00000004#50AA000000000000 R
(2.436000) vcan0 00000005#B4AA000000000000 R
(2.437000) vcan0 00000006#18AB000000000000 R
(2.438000) vcan0 00000001#7CAB000000000000 R
(2.439000) vcan0 00000002#E0AB000000000000 R
(2.440000) vcan0 00000003#44AC000000000000 R
(2.441000) vcan0 00000004#A8AC000000000000 R
(2.442000) vcan0 00000005#0CAD000000000000 R
(2.443000) vcan0 00000006#70AD000000000000 R
(2.444000) vcan0 00000001#D4AD000000000000 R
(2.445000) vcan0 00000002#38AE000000000000 R
(2.446000) vcan0 00000003#9CAE000000000000 R
(2.447000) vcan0 00000004#00AF000000000000 R
(2.448000) vcan0 00000005#64AF000000000000 R
(2.449000) vcan0 00000006#C8AF000000000000 R
(2.450000) vcan0 00000001#2CB0000000000000 R
(2.451000) vcan0 00000002#90B0000000000000 R
(2.452000) vcan0 00000003#F4B0000000000000 R
(2.453000) vcan0 00000004#58B1000000000000 R
(2.454000) vcan0 00000005#BCB1000000000000 R
(2.455000) vcan0 00000006#20B2000000000000 R
(2.456000) vcan0 00000001#84B2000000000000 R
(2.457000) vcan0 00000002#E8B2000000000000 R
(2.458000) vcan0 00000003#4CB3000000000000 R
(2.459000) vcan0 00000004#B0B3000000000000 R
(2.460000) vcan0 00000005#14B4000000000000 R
(2.461000) vcan0 00000006#78B4000000000000 R
(2.462000) vcan0 00000001#DCB4000000000000 R
(2.463000) vcan0 00000002#40B5000000000000 R
(2.464000) vcan0 00000003#A4B5000000000000 R
(2.465000) vcan0 00000004#08B6000000000000 R
(2.466000) vcan0 00000005#6CB6000000000000 R
(2.467000) vcan0 00000006#D0B6000000000000 R
(2.468000) vcan0 00000001#34B7000000000000 R
(2.469000) vcan0 00000002#98B7000000000000 R
(2.470000) vcan0 00000003#FCB7000000000000 R
(2.471000) vcan0 00000004#60B8000000000000 R
(2.472000) vcan0 00000005#C4B8000000000000 R
(2.473000) vcan0 00000006#28B9000000000000 R
(2.474000) vcan0 00000001#8CB9000000000000 R
(2.475000) vcan0 00000002#F0B9000000000000 R
(2.476000) vcan0 00000003#54BA000000000000 R
(2.477000) vcan0 00000004#B8BA000000000000 R
(2.478000) vcan0 00000005#1CBB000000000000 R
(2.479000) vcan0 00000006#80BB000000000000 R
(2.480000) vcan0 00000001#E4BB000000000000 R
(2.481000) vcan0 00000002#48BC000000000000 R
(2.482000) vcan0 00000003#ACBC000000000000 R
(2.483000) vcan0 00000004#10BD000000000000 R
(2.484000) vcan0 00000005#74BD000000000000 R
(2.485000) vcan0 00000006#D8BD000000000000 R
(2.486000) vcan0 00000001#3CBE000000000000 R
(2.487000) vcan0 00000002#A0BE000000000000 R
(2.488000) vcan0 00000003#04BF000000000000 R
(2.489000) vcan0 00000004#68BF000000000000 R
(2.490000) vcan0 00000005#CCBF000000000000 R
(2.491000) vcan0 00000006#30C0000000000000 R
(2.492000) vcan0 00000001#94C0000000000000 R
(2.493000) vcan0 00000002#F8C0000000000000 R
(2.494000) vcan0 00000003#5CC1000000000000 R
(2.495000) vcan0 00000004#C0C1000000000000 R
(2.496000) vcan0 00000005#24C2000000000000 R
(2.497000) vcan0 00000006#88C2000000000000 R
(2.498000) vcan0 00000001#ECC2000000000000 R
(2.499000) vcan0 00000002#50C3000000000000 R
(2.500000) vcan0 00000003#B4C3000000000000 R
(2.501000) vcan0 00000004#18C4000000000000 R
(2.502000) vcan0 00000005#7CC4000000000000 R
(2.503000) vcan0 00000006#E0C4000000000000 R
(2.504000) vcan0 00000001#44C5000000000000 R
(2.505000) vcan0 00000002#A8C5000000000000 R
(2.506000) vcan0 00000003#0CC6000000000000 R
(2.507000) vcan0 00000004#70C6000000000000 R
(2.508000) vcan0 00000005#D4C6000000000000 R
(2.509000) vcan0 00000006#38C7000000000000 R
(2.510000) vcan0 00000001#9CC7000000000000 R
(2.511000) vcan0 00000002#00C8000000000000 R
(2.512000) vcan0 00000003#64C8000000000000 R
(2.513000) vcan0 00000004#C8C8000000000000 R
(2.514000) vcan0 00000005#2CC9000000000000 R
(2.515000) vcan0 00000006#90C9000000000000 R
(2.516000) vcan0 00000001#F4C9000000000000 R
(2.517000) vcan0 00000002#58CA000000000000 R
(2.518000) vcan0 00000003#BCCA000000000000 R
(2.519000) vcan0 00000004#20CB000000000000 R
(2.520000) vcan0 00000005#84CB000000000000 R
(2.521000) vcan0 00000006#E8CB000000000000 R
(2.522000) vcan0 00000001#4CCC000000000000 R
(2.523000) vcan0 00000002#B0CC000000000000 R
(2.524000) vcan0 00000003#14CD000000000000 R
(2.525000) vcan0 00000004#78CD000000000000 R
(2.526000) vcan0 00000005#DCCD000000000000 R
(2.527000) vcan0 00000006#40CE000000000000 R
(2.528000) vcan0 00000001#A4CE000000000000 R
(2.529000) vcan0 00000002#08CF000000000000 R
(2.530000) vcan0 00000003#6CCF000000000000 R
(2.531000) vcan0 00000004#D0CF000000000000 R
(2.532000) vcan0 00000005#34D0000000000000 R
(2.533000) vcan0 00000006#98D0000000000000 R
(2.534000) vcan0 00000001#FCD0000000000000 R
(2.535000) vcan0 00000002#60D1000000000000 R
(2.536000) vcan0 00000003#C4D1000000000000 R
(2.537000) vcan0 00000004#28D2000000000000 R
(2.538000) vcan0 00000005#8CD2000000000000 R
(2.539000) vcan0 00000006#F0D2000000000000 R
(2.540000) vcan0 00000001#54D3000000000000 R
(2.541000) vcan0 00000002#B8D3000000000000 R
(2.542000) vcan0 00000003#1CD4000000000000 R
(2.543000) vcan0 00000004#80D4000000000000 R
(2.544000) vcan0 00000005#E4D4000000000000 R
(2.545000) vcan0 00000006#48D5000000000000 R
(2.546000) vcan0 00000001#ACD5000000000000 R
(2.547000) vcan0 00000002#10D6000000000000 R
(2.548000) vcan0 00000003#74D6000000000000 R
(2.549000) vcan0 00000004#D8D6000000000000 R
(2.550000) vcan0 00000005#3CD7000000000000 R
(2.551000) vcan0 00000006#A0D7000000000000 R
(2.552000) vcan0 00000001#04D8000000000000 R
(2.553000) vcan0 00000002#68D8000000000000 R
(2.554000) vcan0 00000003#CCD8000000000000 R
(2.555000) vcan0 00000004#30D9000000000000 R
(2.556000) vcan0 00000005#94D9000000000000 R
(2.557000) vcan0 00000006#F8D9000000000000 R
(2.558000) vcan0 00000001#5CDA000000000000 R
(2.559000) vcan0 00000002#C0DA000000000000 R
(2.560000) vcan0 00000003#24DB000000000000 R
(2.561000) vcan0 00000004#88DB000000000000 R
(2.562000) vcan0 00000005#ECDB000000000000 R
(2.563000) vcan0 00000006#50DC000000000000 R
(2.564000) vcan0 00000001#B4DC000000000000 R
(2.565000) vcan0 00000002#18DD000000000000 R
(2.566000) vcan0 00000003#7CDD000000000000 R
(2.567000) vcan0 00000004#E0DD000000000000 R
(2.568000) vcan0 00000005#44DE000000000000 R
(2.569000) vcan0 00000006#A8DE000000000000 R
(2.570000) vcan0 00000001#0CDF000000000000 R
(2.571000) vcan0 00000002#70DF000000000000 R
(2.572000) vcan0 00000003#D4DF000000000000 R
(2.573000) vcan0 00000004#38E0000000000000 R
(2.574000) vcan0 00000005#9CE0000000000000 R
(2.575000) vcan0 00000006#00E1000000000000 R
(2.576000) vcan0 00000001#64E1000000000000 R
(2.577000) vcan0 00000002#C8E1000000000000 R
(2.578000) vcan0 00000003#2CE2000000000000 R
(2.579000) vcan0 00000004#90E2000000000000 R
(2.580000) vcan0 00000005#F4E2000000000000 R
(2.581000) vcan0 00000006#58E3000000000000 R
(2.582000) vcan0 00000001#BCE3000000000000 R
(2.583000) vcan0 00000002#20E4000000000000 R
(2.584000) vcan0 00000003#84E4000000000000 R
(2.585000) vcan0 00000004#E8E4000000000000 R
(2.586000) vcan0 00000005#4CE5000000000000 R
(2.587000) vcan0 00000006#B0E5000000000000 R
(2.588000) vcan0 00000001#14E6000000000000 R
(2.589000) vcan0 00000002#78E6000000000000 R
(2.590000) vcan0 00000003#DCE6000000000000 R
(2.591000) vcan0 00000004#40E7000000000000 R
(2.592000) vcan0 00000005#A4E7000000000000 R
(2.593000) vcan0 00000006#08E8000000000000 R
(2.594000) vcan0 00000001#6CE8000000000000 R
(2.595000) vcan0 00000002#D0E8000000000000 R
(2.596000) vcan0 00000003#34E9000000000000 R
(2.597000) vcan0 00000004#98E9000000000000 R
(2.598000) vcan0 00000005#FCE9000000000000 R
(2.599000) vcan0 00000006#60EA000000000000 R
(2.600000) vcan0 00000001#C4EA000000000000 R
(2.601000) vcan0 00000002#28EB000000000000 R
(2.602000) vcan0 00000003#8CEB000000000000 R
(2.603000) vcan0 00000004#F0EB000000000000 R
(2.604000) vcan0 00000005#54EC000000000000 R
(2.605000) vcan0 00000006#B8EC000000000000 R
(2.606000) vcan0 00000001#1CED000000000000 R
(2.607000) vcan0 00000002#80ED000000000000 R
(2.608000) vcan0 00000003#E4ED000000000000 R
(2.609000) vcan0 00000004#48EE000000000000 R
(2.610000) vcan0 00000005#ACEE000000000000 R
(2.611000) vcan0 00000006#10EF000000000000 R
(2.612000) vcan0 00000001#74EF000000000000 R
(2.613000) vcan0 00000002#D8EF000000000000 R
(2.614000) vcan0 00000003#3CF0000000000000 R
(2.615000) vcan0 00000004#A0F0000000000000 R
(2.616000) vcan0 00000005#04F1000000000000 R
(2.617000) vcan0 00000006#68F1000000000000 R
(2.618000) vcan0 00000001#CCF1000000000000 R
(2.619000) vcan0 00000002#30F2000000000000 R
(2.620000) vcan0 00000003#94F2000000000000 R
(2.621000) vcan0 00000004#F8F2000000000000 R
(2.622000) vcan0 00000005#5CF3000000000000 R
(2.623000) vcan0 00000006#C0F3000000000000 R
(2.624000) vcan0 00000001#24F4000000000000 R
(2.625000) vcan0 00000002#88F4000000000000 R
(2.626000) vcan0 00000003#ECF4000000000000 R
(2.627000) vcan0 00000004#50F5000000000000 R
(2.628000) vcan0 00000005#B4F5000000000000 R
(2.629000) vcan0 00000006#18F6000000000000 R
(2.630000) vcan0 00000001#7CF6000000000000 R
(2.631000) vcan0 00000002#E0F6000000000000 R
(2.632000) vcan0 00000003#44F7000000000000 R
(2.633000) vcan0 00000004#A8F7000000000000 R
(2.634000) vcan0 00000005#0CF8000000000000 R
(2.635000) vcan0 00000006#70F8000000000000 R
(2.636000) vcan0 00000001#D4F8000000000000 R
(2.637000) vcan0 00000002#38F9000000000000 R
(2.638000) vcan0 00000003#9CF9000000000000 R
(2.639000) vcan0 00000004#00FA000000000000 R
(2.640000) vcan0 00000005#64FA000000000000 R
(2.641000) vcan0 00000006#C8FA000000000000 R
(2.642000) vcan0 00000001#2CFB000000000000 R
(2.643000) vcan0 00000002#90FB000000000000 R
(2.644000) vcan0 00000003#F4FB000000000000 R
(2.645000) vcan0 00000004#58FC000000000000 R
(2.646000) vcan0 00000005#BCFC000000000000 R
(2.647000) vcan0 00000006#20FD000000000000 R
(2.648000) vcan0 00000001#84FD000000000000 R
(2.649000) vcan0 00000002#E8FD000000000000 R
(2.650000) vcan0 00000003#4CFE000000000000 R
(2.651000) vcan0 00000004#B0FE000000000000 R
(2.652000) vcan0 00000005#14FF000000000000 R
(2.653000) vcan0 00000006#78FF000000000000 R
(2.654000) vcan0 00000001#DCFF000000000000 R
(2.655000) vcan0 00000002#4000010000000000 R
(2.656000) vcan0 00000003#A400010000000000 R
(2.657000) vcan0 00000004#0801010000000000 R
(2.658000) vcan0 00000005#6C01010000000000 R
(2.659000) vcan0 00000006#D001010000000000 R
(2.660000) vcan0 00000001#3402010000000000 R
(2.661000) vcan0 00000002#9802010000000000 R
(2.662000) vcan0 00000003#FC02010000000000 R
(2.663000) vcan0 00000004#6003010000000000 R
(2.664000) vcan0 00000005#C403010000000000 R
(2.665000) vcan0 00000006#2804010000000000 R
(2.666000) vcan0 00000001#8C04010000000000 R
(2.667000) vcan0 00000002#F004010000000000 R
(2.668000) vcan0 00000003#5405010000000000 R
(2.669000) vcan0 00000004#B805010000000000 R
(2.670000) vcan0 00000005#1C06010000000000 R
(2.671000) vcan0 00000006#8006010000000000 R
(2.672000) vcan0 00000001#E406010000000000 R
(2.673000) vcan0 00000002#4807010000000000 R
(2.674000) vcan0 00000003#AC07010000000000 R
(2.675000) vcan0 00000004#1008010000000000 R
(2.676000) vcan0 00000005#7408010000000000 R
(2.677000) vcan0 00000006#D808010000000000 R
(2.678000) vcan0 00000001#3C09010000000000 R
(2.679000) vcan0 00000002#A009010000000000 R
(2.680000) vcan0 00000003#040A010000000000 R
(2.681000) vcan0 00000004#680A010000000000 R
(2.682000) vcan0 00000005#CC0A010000000000 R
(2.683000) vcan0 00000006#300B010000000000 R
(2.684000) vcan0 00000001#940B010000000000 R
(2.685000) vcan0 00000002#F80B010000000000 R
(2.686000) vcan0 00000003#5C0C010000000000 R
(2.687000) vcan0 00000004#C00C010000000000 R
(2.688000) vcan0 00000005#240D010000000000 R
