(53.649000) vcan0 00000002#C8CF4E0000000000 R
(53.650000) vcan0 00000003#2CD04E0000000000 R
(53.651000) vcan0 00000004#90D04E0000000000 R
(53.652000) vcan0 00000005#F4D04E0000000000 R
(53.653000) vcan0 00000006#58D14E0000000000 R
(53.654000) vcan0 00000001#BCD14E0000000000 R
(53.655000) vcan0 00000002#20D24E0000000000 R
(53.656000) vcan0 00000003#84D24E0000000000 R
(53.657000) vcan0 00000004#E8D24E0000000000 R
(53.658000) vcan0 00000005#4CD34E0000000000 R
(53.659000) vcan0 00000006#B0D34E0000000000 R
(53.660000) vcan0 00000001#14D44E0000000000 R
(53.661000) vcan0 00000002#78D44E0000000000 R
(53.662000) vcan0 00000003#DCD44E0000000000 R
(53.663000) vcan0 00000004#40D54E0000000000 R
(53.664000) vcan0 00000005#A4D54E0000000000 R
(53.665000) vcan0 00000006#08D64E0000000000 R
(53.666000) vcan0 00000001#6CD64E0000000000 R
(53.667000) vcan0 00000002#D0D64E0000000000 R
(53.668000) vcan0 00000003#34D74E0000000000 R
(53.669000) vcan0 00000004#98D74E0000000000 R
(53.670000) vcan0 00000005#FCD74E0000000000 R
(53.671000) vcan0 00000006#60D84E0000000000 R
(53.672000) vcan0 00000001#C4D84E0000000000 R
(53.673000) vcan0 00000002#28D94E0000000000 R
(53.674000) vcan0 00000003#8CD94E0000000000 R
(53.675000) vcan0 00000004#F0D94E0000000000 R
(53.676000) vcan0 00000005#54DA4E0000000000 R
(53.677000) vcan0 00000006#B8DA4E0000000000 R
(53.678000) vcan0 00000001#1CDB4E0000000000 R
(53.679000) vcan0 00000002#80DB4E0000000000 R
(53.680000) vcan0 00000003#E4DB4E0000000000 R
(53.681000) vcan0 00000004#48DC4E0000000000 R
(53.682000) vcan0 00000005#ACDC4E0000000000 R
(53.683000) vcan0 00000006#10DD4E0000000000 R
(53.684000) vcan0 00000001#74DD4E0000000000 R
(53.685000) vcan0 00000002#D8DD4E0000000000 R
(53.686000) vcan0 00000003#3CDE4E0000000000 R
(53.687000) vcan0 00000004#A0DE4E0000000000 R
(53.688000) vcan0 00000005#04DF4E0000000000 R
(53.689000) vcan0 00000006#68DF4E0000000000 R
(53.690000) vcan0 00000001#CCDF4E0000000000 R
(53.691000) vcan0 00000002#30E04E0000000000 R
(53.692000) vcan0 00000003#94E04E0000000000 R
(53.693000) vcan0 00000004#F8E04E0000000000 R
(53.694000) vcan0 00000005#5CE14E0000000000 R
(53.695000) vcan0 00000006#C0E14E0000000000 R
(53.696000) vcan0 00000001#24E24E0000000000 R
(53.697000) vcan0 00000002#88E24E0000000000 R
(53.698000) vcan0 00000003#ECE24E0000000000 R
(53.699000) vcan0 00000004#50E34E0000000000 R
(53.700000) vcan0 00000005#B4E34E0000000000 R
(53.701000) vcan0 00000006#18E44E0000000000 R
(53.702000) vcan0 00000001#7CE44E0000000000 R
(53.703000) vcan0 00000002#E0E44E0000000000 R
(53.704000) vcan0 00000003#44E54E0000000000 R
(53.705000) vcan0 00000004#A8E54E0000000000 R
(53.706000) vcan0 00000005#0CE64E0000000000 R
(53.707000) vcan0 00000006#70E64E0000000000 R
(53.708000) vcan0 00000001#D4E64E0000000000 R
(53.709000) vcan0 00000002#38E74E0000000000 R
(53.710000) vcan0 00000003#9CE74E0000000000 R
(53.711000) vcan0 00000004#00E84E0000000000 R
(53.712000) vcan0 00000005#64E84E0000000000 R
(53.713000) vcan0 00000006#C8E84E0000000000 R
(53.714000) vcan0 00000001#2CE94E0000000000 R
(53.715000) vcan0 00000002#90E94E0000000000 R
(53.716000) vcan0 00000003#F4E94E0000000000 R
(53.717000) vcan0 00000004#58EA4E0000000000 R
(53.718000) vcan0 00000005#BCEA4E0000000000 R
(53.719000) vcan0 00000006#20EB4E0000000000 R
(53.720000) vcan0 00000001#84EB4E0000000000 R
(53.721000) vcan0 00000002#E8EB4E0000000000 R
(53.722000) vcan0 00000003#4CEC4E0000000000 R
(53.723000) vcan0 00000004#B0EC4E0000000000 R
(53.724000) vcan0 00000005#14ED4E0000000000 R
(53.725000) vcan0 00000006#78ED4E0000000000 R
(53.726000) vcan0 00000001#DCED4E0000000000 R
(53.727000) vcan0 00000002#40EE4E0000000000 R
(53.728000) vcan0 00000003#A4EE4E0000000000 R
(53.729000) vcan0 00000004#08EF4E0000000000 R
(53.730000) vcan0 00000005#6CEF4E0000000000 R
(53.731000) vcan0 00000006#D0EF4E0000000000 R
(53.732000) vcan0 00000001#34F04E0000000000 R
(53.733000) vcan0 00000002#98F04E0000000000 R
(53.734000) vcan0 00000003#FCF04E0000000000 R
(53.735000) vcan0 00000004#60F14E0000000000 R
(53.736000) vcan0 00000005#C4F14E0000000000 R
(53.737000) vcan0 00000006#28F24E0000000000 R
