(43.622000) vcan0 00000001#FC823F0000000000 R
(43.623000) vcan0 00000002#60833F0000000000 R
(43.624000) vcan0 00000003#C4833F0000000000 R
(43.625000) vcan0 00000004#28843F0000000000 R
(43.626000) vcan0 00000005#8C843F0000000000 R
(43.627000) vcan0 00000006#F0843F0000000000 R
(43.628000) vcan0 00000001#54853F0000000000 R
(43.629000) vcan0 00000002#B8853F0000000000 R
(43.630000) vcan0 00000003#1C863F0000000000 R
(43.631000) vcan0 00000004#80863F0000000000 R
(43.632000) vcan0 00000005#E4863F0000000000 R
(43.633000) vcan0 00000006#48873F0000000000 R
(43.634000) vcan0 00000001#AC873F0000000000 R
(43.635000) vcan0 00000002#10883F0000000000 R
(43.636000) vcan0 00000003#74883F0000000000 R
(43.637000) vcan0 00000004#D8883F0000000000 R
(43.638000) vcan0 00000005#3C893F0000000000 R
(43.639000) vcan0 00000006#A0893F0000000000 R
(43.640000) vcan0 00000001#048A3F0000000000 R
(43.641000) vcan0 00000002#688A3F0000000000 R
(43.642000) vcan0 00000003#CC8A3F0000000000 R
(43.643000) vcan0 00000004#308B3F0000000000 R
(43.644000) vcan0 00000005#948B3F0000000000 R
(43.645000) vcan0 00000006#F88B3F0000000000 R
(43.646000) vcan0 00000001#5C8C3F0000000000 R
(43.647000) vcan0 00000002#C08C3F0000000000 R
(43.648000) vcan0 00000003#248D3F0000000000 R
(43.649000) vcan0 00000004#888D3F0000000000 R
(43.650000) vcan0 00000005#EC8D3F0000000000 R
(43.651000) vcan0 00000006#508E3F0000000000 R
(43.652000) vcan0 00000001#B48E3F0000000000 R
(43.653000) vcan0 00000002#188F3F0000000000 R
(43.654000) vcan0 00000003#7C8F3F0000000000 R
(43.655000) vcan0 00000004#E08F3F0000000000 R
(43.656000) vcan0 00000005#44903F0000000000 R
(43.657000) vcan0 00000006#A8903F0000000000 R
(43.658000) vcan0 00000001#0C913F0000000000 R
(43.659000) vcan0 00000002#70913F0000000000 R
(43.660000) vcan0 00000003#D4913F0000000000 R
(43.661000) vcan0 00000004#38923F0000000000 R
(43.662000) vcan0 00000005#9C923F0000000000 R
(43.663000) vcan0 00000006#00933F0000000000 R
(43.664000) vcan0 00000001#64933F0000000000 R
(43.665000) vcan0 00000002#C8933F0000000000 R
(43.666000) vcan0 00000003#2C943F0000000000 R
(43.667000) vcan0 00000004#90943F0000000000 R
(43.668000) vcan0 00000005#F4943F0000000000 R
(43.669000) vcan0 00000006#58953F0000000000 R
(43.670000) vcan0 00000001#BC953F0000000000 R
(43.671000) vcan0 00000002#20963F0000000000 R
(43.672000) vcan0 00000003#84963F0000000000 R
(43.673000) vcan0 00000004#E8963F0000000000 R
(43.674000) vcan0 00000005#4C973F0000000000 R
(43.675000) vcan0 00000006#B0973F0000000000 R
(43.676000) vcan0 00000001#14983F0000000000 R
(43.677000) vcan0 00000002#78983F0000000000 R
(43.678000) vcan0 00000003#DC983F0000000000 R
(43.679000) vcan0 00000004#40993F0000000000 R
(43.680000) vcan0 00000005#A4993F0000000000 R
(43.681000) vcan0 00000006#089A3F0000000000 R
(43.682000) vcan0 00000001#6C9A3F0000000000 R
(43.683000) vcan0 00000002#D09A3F0000000000 R
(43.684000) vcan0 00000003#349B3F0000000000 R
(43.685000) vcan0 00000004#989B3F0000000000 R
(43.686000) vcan0 00000005#FC9B3F0000000000 R
(43.687000) vcan0 00000006#609C3F0000000000 R
(43.688000) vcan0 00000001#C49C3F0000000000 R
(43.689000) vcan0 00000002#289D3F0000000000 R
(43.690000) vcan0 00000003#8C9D3F0000000000 R
(43.691000) vcan0 00000004#F09D3F0000000000 R
(43.692000) vcan0 00000005#549E3F0000000000 R
(43.693000) vcan0 00000006#B89E3F0000000000 R
(43.694000) vcan0 00000001#1C9F3F0000000000 R
(43.695000) vcan0 00000002#809F3F0000000000 R
(43.696000) vcan0 00000003#E49F3F0000000000 R
(43.697000) vcan0 00000004#48A03F0000000000 R
(43.698000) vcan0 00000005#ACA03F0000000000 R
(43.699000) vcan0 00000006#10A13F0000000000 R
(43.700000) vcan0 00000001#74A13F0000000000 R
(43.701000) vcan0 00000002#D8A13F0000000000 R
(43.702000) vcan0 00000003#3CA23F0000000000 R
(43.703000) vcan0 00000004#A0A23F0000000000 R
(43.704000) vcan0 00000005#04A33F0000000000 R
(43.705000) vcan0 00000006#68A33F0000000000 R
(43.706000) vcan0 00000001#CCA33F0000000000 R
(43.707000) vcan0 00000002#30A43F0000000000 R
(43.708000) vcan0 00000003#94A43F0000000000 R
(43.709000) vcan0 00000004#F8A43F0000000000 R
(43.710000) vcan0 00000005#5CA53F0000000000 R
(43.711000) vcan0 00000006#C0A53F0000000000 R
(43.712000) vcan0 00000001#24A63F0000000000 R
(43.713000) vcan0 00000002#88A63F0000000000 R
(43.714000) vcan0 00000003#ECA63F0000000000 R
(43.715000) vcan0 00000004#50A73F0000000000 R
(43.716000) vcan0 00000005#B4A73F0000000000 R
(43.717000) vcan0 00000006#18A83F0000000000 R
(43.718000) vcan0 00000001#7CA83F0000000000 R
(43.719000) vcan0 00000002#E0A83F0000000000 R
(43.720000) vcan0 00000003#44A93F0000000000 R
(43.721000) vcan0 00000004#A8A93F0000000000 R
(43.722000) vcan0 00000005#0CAA3F0000000000 R
(43.723000) vcan0 00000006#70AA3F0000000000 R
(43.724000) vcan0 00000001#D4AA3F0000000000 R
(43.725000) vcan0 00000002#38AB3F0000000000 R
(43.726000) vcan0 00000003#9CAB3F0000000000 R
(43.727000) vcan0 00000004#00AC3F0000000000 R
(43.728000) vcan0 00000005#64AC3F0000000000 R
(43.729000) vcan0 00000006#C8AC3F0000000000 R
(43.730000) vcan0 00000001#2CAD3F0000000000 R
(43.731000) vcan0 00000002#90AD3F0000000000 R
(43.732000) vcan0 00000003#F4AD3F0000000000 R
(43.733000) vcan0 00000004#58AE3F0000000000 R
(43.734000) vcan0 00000005#BCAE3F0000000000 R
(43.735000) vcan0 00000006#20AF3F0000000000 R
(43.736000) vcan0 00000001#84AF3F0000000000 R
(43.737000) vcan0 00000002#E8AF3F0000000000 R
(43.738000) vcan0 00000003#4CB03F0000000000 R
(43.739000) vcan0 00000004#B0B03F0000000000 R
(43.740000) vcan0 00000005#14B13F0000000000 R
(43.741000) vcan0 00000006#78B13F0000000000 R
(43.742000) vcan0 00000001#DCB13F0000000000 R
(43.743000) vcan0 00000002#40B23F0000000000 R
(43.744000) vcan0 00000003#A4B23F0000000000 R
(43.745000) vcan0 00000004#08B33F0000000000 R
(43.746000) vcan0 00000005#6CB33F0000000000 R
(43.747000) vcan0 00000006#D0B33F0000000000 R
(43.748000) vcan0 00000001#34B43F0000000000 R
(43.749000) vcan0 00000002#98B43F0000000000 R
(43.750000) vcan0 00000003#FCB43F0000000000 R
(43.751000) vcan0 00000004#60B53F0000000000 R
(43.752000) vcan0 00000005#C4B53F0000000000 R
(43.753000) vcan0 00000006#28B63F0000000000 R
(43.754000) vcan0 00000001#8CB63F0000000000 R
(43.755000) vcan0 00000002#F0B63F0000000000 R
(43.756000) vcan0 00000003#54B73F0000000000 R
(43.757000) vcan0 00000004#B8B73F0000000000 R
(43.758000) vcan0 00000005#1CB83F0000000000 R
(43.759000) vcan0 00000006#80B83F0000000000 R
(43.760000) vcan0 00000001#E4B83F0000000000 R
(43.761000) vcan0 00000002#48B93F0000000000 R
(43.762000) vcan0 00000003#ACB93F0000000000 R
(43.763000) vcan0 00000004#10BA3F0000000000 R
(43.764000) vcan0 00000005#74BA3F0000000000 R
(43.765000) vcan0 00000006#D8BA3F0000000000 R
(43.766000) vcan0 00000001#3CBB3F0000000000 R
(43.767000) vcan0 00000002#A0BB3F0000000000 R
(43.768000) vcan0 00000003#04BC3F0000000000 R
(43.769000) vcan0 00000004#68BC3F0000000000 R
(43.770000) vcan0 00000005#CCBC3F0000000000 R
(43.771000) vcan0 00000006#30BD3F0000000000 R
(43.772000) vcan0 00000001#94BD3F0000000000 R
(43.773000) vcan0 00000002#F8BD3F0000000000 R
(43.774000) vcan0 00000003#5CBE3F0000000000 R
(43.775000) vcan0 00000004#C0BE3F0000000000 R
(43.776000) vcan0 00000005#24BF3F0000000000 R
(43.777000) vcan0 00000006#88BF3F0000000000 R
(43.778000) vcan0 00000001#ECBF3F0000000000 R
(43.779000) vcan0 00000002#50C03F0000000000 R
(43.780000) vcan0 00000003#B4C03F0000000000 R
(43.781000) vcan0 00000004#18C13F0000000000 R
(43.782000) vcan0 00000005#7CC13F0000000000 R
(43.783000) vcan0 00000006#E0C13F0000000000 R
(43.784000) vcan0 00000001#44C23F0000000000 R
(43.785000) vcan0 00000002#A8C23F0000000000 R
(43.786000) vcan0 00000003#0CC33F0000000000 R
(43.787000) vcan0 00000004#70C33F0000000000 R
(43.788000) vcan0 00000005#D4C33F0000000000 R
(43.789000) vcan0 00000006#38C43F0000000000 R
(43.790000) vcan0 00000001#9CC43F0000000000 R
(43.791000) vcan0 00000002#00C53F0000000000 R
(43.792000) vcan0 00000003#64C53F0000000000 R
(43.793000) vcan0 00000004#C8C53F0000000000 R
(43.794000) vcan0 00000005#2CC63F0000000000 R
(43.795000) vcan0 00000006#90C63F0000000000 R
(43.796000) vcan0 00000001#F4C63F0000000000 R
(43.797000) vcan0 00000002#58C73F0000000000 R
(43.798000) vcan0 00000003#BCC73F0000000000 R
(43.799000) vcan0 00000004#20C83F0000000000 R
(43.800000) vcan0 00000005#84C83F0000000000 R
(43.801000) vcan0 00000006#E8C83F0000000000 R
(43.802000) vcan0 00000001#4CC93F0000000000 R
(43.803000) vcan0 00000002#B0C93F0000000000 R
(43.804000) vcan0 00000003#14CA3F0000000000 R
(43.805000) vcan0 00000004#78CA3F0000000000 R
(43.806000) vcan0 00000005#DCCA3F0000000000 R
(43.807000) vcan0 00000006#40CB3F0000000000 R
(43.808000) vcan0 00000001#A4CB3F0000000000 R
(43.809000) vcan0 00000002#08CC3F0000000000 R
(43.810000) vcan0 00000003#6CCC3F0000000000 R
(43.811000) vcan0 00000004#D0CC3F0000000000 R
(43.812000) vcan0 00000005#34CD3F0000000000 R
(43.813000) vcan0 00000006#98CD3F0000000000 R
(43.814000) vcan0 00000001#FCCD3F0000000000 R
(43.815000) vcan0 00000002#60CE3F0000000000 R
(43.816000) vcan0 00000003#C4CE3F0000000000 R
(43.817000) vcan0 00000004#28CF3F0000000000 R
(43.818000) vcan0 00000005#8CCF3F0000000000 R
(43.819000) vcan0 00000006#F0CF3F0000000000 R
(43.820000) vcan0 00000001#54D03F0000000000 R
(43.821000) vcan0 00000002#B8D03F0000000000 R
(43.822000) vcan0 00000003#1CD13F0000000000 R
(43.823000) vcan0 00000004#80D13F0000000000 R
(43.824000) vcan0 00000005#E4D13F0000000000 R
(43.825000) vcan0 00000006#48D23F0000000000 R
(43.826000) vcan0 00000001#ACD23F0000000000 R
(43.827000) vcan0 00000002#10D33F0000000000 R
(43.828000) vcan0 00000003#74D33F0000000000 R
(43.829000) vcan0 00000004#D8D33F0000000000 R
(43.830000) vcan0 00000005#3CD43F0000000000 R
(43.831000) vcan0 00000006#A0D43F0000000000 R
(43.832000) vcan0 00000001#04D53F0000000000 R
(43.833000) vcan0 00000002#68D53F0000000000 R
(43.834000) vcan0 00000003#CCD53F0000000000 R
(43.835000) vcan0 00000004#30D63F0000000000 R
(43.836000) vcan0 00000005#94D63F0000000000 R
(43.837000) vcan0 00000006#F8D63F0000000000 R
(43.838000) vcan0 00000001#5CD73F0000000000 R
(43.839000) vcan0 00000002#C0D73F0000000000 R
(43.840000) vcan0 00000003#24D83F0000000000 R
(43.841000) vcan0 00000004#88D83F0000000000 R
(43.842000) vcan0 00000005#ECD83F0000000000 R
(43.843000) vcan0 00000006#50D93F0000000000 R
(43.844000) vcan0 00000001#B4D93F0000000000 R
(43.845000) vcan0 00000002#18DA3F0000000000 R
(43.846000) vcan0 00000003#7CDA3F0000000000 R
(43.847000) vcan0 00000004#E0DA3F0000000000 R
(43.848000) vcan0 00000005#44DB3F0000000000 R
(43.849000) vcan0 00000006#A8DB3F0000000000 R
(43.850000) vcan0 00000001#0CDC3F0000000000 R
(43.851000) vcan0 00000002#70DC3F0000000000 R
(43.852000) vcan0 00000003#D4DC3F0000000000 R
(43.853000) vcan0 00000004#38DD3F0000000000 R
(43.854000) vcan0 00000005#9CDD3F0000000000 R
(43.855000) vcan0 00000006#00DE3F0000000000 R
(43.856000) vcan0 00000001#64DE3F0000000000 R
(43.857000) vcan0 00000002#C8DE3F0000000000 R
(43.858000) vcan0 00000003#2CDF3F0000000000 R
(43.859000) vcan0 00000004#90DF3F0000000000 R
(43.860000) vcan0 00000005#F4DF3F0000000000 R
(43.861000) vcan0 00000006#58E03F0000000000 R
(43.862000) vcan0 00000001#BCE03F0000000000 R
(43.863000) vcan0 00000002#20E13F0000000000 R
(43.864000) vcan0 00000003#84E13F0000000000 R
(43.865000) vcan0 00000004#E8E13F0000000000 R
(43.866000) vcan0 00000005#4CE23F0000000000 R
(43.867000) vcan0 00000006#B0E23F0000000000 R
(43.868000) vcan0 00000001#14E33F0000000000 R
(43.869000) vcan0 00000002#78E33F0000000000 R
(43.870000) vcan0 00000003#DCE33F0000000000 R
(43.871000) vcan0 00000004#40E43F0000000000 R
(43.872000) vcan0 00000005#A4E43F0000000000 R
(43.873000) vcan0 00000006#08E53F0000000000 R
(43.874000) vcan0 00000001#6CE53F0000000000 R
(43.875000) vcan0 00000002#D0E53F0000000000 R
(43.876000) vcan0 00000003#34E63F0000000000 R
(43.877000) vcan0 00000004#98E63F0000000000 R
(43.878000) vcan0 00000005#FCE63F0000000000 R
(43.879000) vcan0 00000006#60E73F0000000000 R
(43.880000) vcan0 00000001#C4E73F0000000000 R
(43.881000) vcan0 00000002#28E83F0000000000 R
(43.882000) vcan0 00000003#8CE83F0000000000 R
(43.883000) vcan0 00000004#F0E83F0000000000 R
(43.884000) vcan0 00000005#54E93F0000000000 R
(43.885000) vcan0 00000006#B8E93F0000000000 R
(43.886000) vcan0 00000001#1CEA3F0000000000 R
(43.887000) vcan0 00000002#80EA3F0000000000 R
(43.888000) vcan0 00000003#E4EA3F0000000000 R
(43.889000) vcan0 00000004#48EB3F0000000000 R
(43.890000) vcan0 00000005#ACEB3F0000000000 R
(43.891000) vcan0 00000006#10EC3F0000000000 R
(43.892000) vcan0 00000001#74EC3F0000000000 R
(43.893000) vcan0 00000002#D8EC3F0000000000 R
(43.894000) vcan0 00000003#3CED3F0000000000 R
(43.895000) vcan0 00000004#A0ED3F0000000000 R
(43.896000) vcan0 00000005#04EE3F0000000000 R
(43.897000) vcan0 00000006#68EE3F0000000000 R
(43.898000) vcan0 00000001#CCEE3F0000000000 R
(43.899000) vcan0 00000002#30EF3F0000000000 R
(43.900000) vcan0 00000003#94EF3F0000000000 R
(43.901000) vcan0 00000004#F8EF3F0000000000 R
(43.902000) vcan0 00000005#5CF03F0000000000 R
(43.903000) vcan0 00000006#C0F03F0000000000 R
(43.904000) vcan0 00000001#24F13F0000000000 R
(43.905000) vcan0 00000002#88F13F0000000000 R
(43.906000) vcan0 00000003#ECF13F0000000000 R
(43.907000) vcan0 00000004#50F23F0000000000 R
(43.908000) vcan0 00000005#B4F23F0000000000 R
(43.909000) vcan0 00000006#18F33F0000000000 R
(43.910000) vcan0 00000001#7CF33F0000000000 R
(43.911000) vcan0 00000002#E0F33F0000000000 R
(43.912000) vcan0 00000003#44F43F0000000000 R
(43.913000) vcan0 00000004#A8F43F0000000000 R
(43.914000) vcan0 00000005#0CF53F0000000000 R
(43.915000) vcan0 00000006#70F53F0000000000 R
(43.916000) vcan0 00000001#D4F53F0000000000 R
(43.917000) vcan0 00000002#38F63F0000000000 R
(43.918000) vcan0 00000003#9CF63F0000000000 R
(43.919000) vcan0 00000004#00F73F0000000000 R
(43.920000) vcan0 00000005#64F73F0000000000 R
(43.921000) vcan0 00000006#C8F73F0000000000 R
(43.922000) vcan0 00000001#2CF83F0000000000 R
(43.923000) vcan0 00000002#90F83F0000000000 R
(43.924000) vcan0 00000003#F4F83F0000000000 R
(43.925000) vcan0 00000004#58F93F0000000000 R
(43.926000) vcan0 00000005#BCF93F0000000000 R
(43.927000) vcan0 00000006#20FA3F0000000000 R
(43.928000) vcan0 00000001#84FA3F0000000000 R
(43.929000) vcan0 00000002#E8FA3F0000000000 R
(43.930000) vcan0 00000003#4CFB3F0000000000 R
(43.931000) vcan0 00000004#B0FB3F0000000000 R
(43.932000) vcan0 00000005#14FC3F0000000000 R
(43.933000) vcan0 00000006#78FC3F0000000000 R
(43.934000) vcan0 00000001#DCFC3F0000000000 R
(43.935000) vcan0 00000002#40FD3F0000000000 R
(43.936000) vcan0 00000003#A4FD3F0000000000 R
(43.937000) vcan0 00000004#08FE3F0000000000 R
(43.938000) vcan0 00000005#6CFE3F0000000000 R
(43.939000) vcan0 00000006#D0FE3F0000000000 R
(43.940000) vcan0 00000001#34FF3F0000000000 R
(43.941000) vcan0 00000002#98FF3F0000000000 R
(43.942000) vcan0 00000003#FCFF3F0000000000 R
(43.943000) vcan0 00000004#6000400000000000 R
(43.944000) vcan0 00000005#C400400000000000 R
(43.945000) vcan0 00000006#2801400000000000 R
(43.946000) vcan0 00000001#8C01400000000000 R
(43.947000) vcan0 00000002#F001400000000000 R
(43.948000) vcan0 00000003#5402400000000000 R
(43.949000) vcan0 00000004#B802400000000000 R
(43.950000) vcan0 00000005#1C03400000000000 R
(43.951000) vcan0 00000006#8003400000000000 R
(43.952000) vcan0 00000001#E403400000000000 R
(43.953000) vcan0 00000002#4804400000000000 R
(43.954000) vcan0 00000003#AC04400000000000 R
(43.955000) vcan0 00000004#1005400000000000 R
(43.956000) vcan0 00000005#7405400000000000 R
(43.957000) vcan0 00000006#D805400000000000 R
(43.958000) vcan0 00000001#3C06400000000000 R
(43.959000) vcan0 00000002#A006400000000000 R
(43.960000) vcan0 00000003#0407400000000000 R
(43.961000) vcan0 00000004#6807400000000000 R
(43.962000) vcan0 00000005#CC07400000000000 R
(43.963000) vcan0 00000006#3008400000000000 R
(43.964000) vcan0 00000001#9408400000000000 R
(43.965000) vcan0 00000002#F808400000000000 R
(43.966000) vcan0 00000003#5C09400000000000 R
(43.967000) vcan0 00000004#C009400000000000 R
(43.968000) vcan0 00000005#240A400000000000 R
(43.969000) vcan0 00000006#880A400000000000 R
(43.970000) vcan0 00000001#EC0A400000000000 R
(43.971000) vcan0 00000002#500B400000000000 R
(43.972000) vcan0 00000003#B40B400000000000 R
(43.973000) vcan0 00000004#180C400000000000 R
(43.974000) vcan0 00000005#7C0C400000000000 R
(43.975000) vcan0 00000006#E00C400000000000 R
(43.976000) vcan0 00000001#440D400000000000 R
(43.977000) vcan0 00000002#A80D400000000000 R
(43.978000) vcan0 00000003#0C0E400000000000 R
(43.979000) vcan0 00000004#700E400000000000 R
(43.980000) vcan0 00000005#D40E400000000000 R
(43.981000) vcan0 00000006#380F400000000000 R
(43.982000) vcan0 00000001#9C0F400000000000 R
(43.983000) vcan0 00000002#0010400000000000 R
(43.984000) vcan0 00000003#6410400000000000 R
(43.985000) vcan0 00000004#C810400000000000 R
(43.986000) vcan0 00000005#2C11400000000000 R
(43.987000) vcan0 00000006#9011400000000000 R
(43.988000) vcan0 00000001#F411400000000000 R
(43.989000) vcan0 00000002#5812400000000000 R
(43.990000) vcan0 00000003#BC12400000000000 R
(43.991000) vcan0 00000004#2013400000000000 R
(43.992000) vcan0 00000005#8413400000000000 R
(43.993000) vcan0 00000006#E813400000000000 R
(43.994000) vcan0 00000001#4C14400000000000 R
(43.995000) vcan0 00000002#B014400000000000 R
(43.996000) vcan0 00000003#1415400000000000 R
(43.997000) vcan0 00000004#7815400000000000 R
(43.998000) vcan0 00000005#DC15400000000000 R
(43.999000) vcan0 00000006#4016400000000000 R
(44.000000) vcan0 00000001#A416400000000000 R
(44.001000) vcan0 00000002#0817400000000000 R
(44.002000) vcan0 00000003#6C17400000000000 R
(44.003000) vcan0 00000004#D017400000000000 R
(44.004000) vcan0 00000005#3418400000000000 R
(44.005000) vcan0 00000006#9818400000000000 R
(44.006000) vcan0 00000001#FC18400000000000 R
(44.007000) vcan0 00000002#6019400000000000 R
(44.008000) vcan0 00000003#C419400000000000 R
(44.009000) vcan0 00000004#281A400000000000 R
(44.010000) vcan0 00000005#8C1A400000000000 R
(44.011000) vcan0 00000006#F01A400000000000 R
(44.012000) vcan0 00000001#541B400000000000 R
(44.013000) vcan0 00000002#B81B400000000000 R
(44.014000) vcan0 00000003#1C1C400000000000 R
(44.015000) vcan0 00000004#801C400000000000 R
(44.016000) vcan0 00000005#E41C400000000000 R
(44.017000) vcan0 00000006#481D400000000000 R
(44.018000) vcan0 00000001#AC1D400000000000 R
(44.019000) vcan0 00000002#101E400000000000 R
(44.020000) vcan0 00000003#741E400000000000 R
(44.021000) vcan0 00000004#D81E400000000000 R
(44.022000) vcan0 00000005#3C1F400000000000 R
(44.023000) vcan0 00000006#A01F400000000000 R
(44.024000) vcan0 00000001#0420400000000000 R
(44.025000) vcan0 00000002#6820400000000000 R
(44.026000) vcan0 00000003#CC20400000000000 R
(44.027000) vcan0 00000004#3021400000000000 R
(44.028000) vcan0 00000005#9421400000000000 R
(44.029000) vcan0 00000006#F821400000000000 R
(44.030000) vcan0 00000001#5C22400000000000 R
(44.031000) vcan0 00000002#C022400000000000 R
(44.032000) vcan0 00000003#2423400000000000 R
(44.033000) vcan0 00000004#8823400000000000 R
(44.034000) vcan0 00000005#EC23400000000000 R
(44.035000) vcan0 00000006#5024400000000000 R
(44.036000) vcan0 00000001#B424400000000000 R
(44.037000) vcan0 00000002#1825400000000000 R
(44.038000) vcan0 00000003#7C25400000000000 R
(44.039000) vcan0 00000004#E025400000000000 R
(44.040000) vcan0 00000005#4426400000000000 R
(44.041000) vcan0 00000006#A826400000000000 R
(44.042000) vcan0 00000001#0C27400000000000 R
(44.043000) vcan0 00000002#7027400000000000 R
(44.044000) vcan0 00000003#D427400000000000 R
(44.045000) vcan0 00000004#3828400000000000 R
(44.046000) vcan0 00000005#9C28400000000000 R
(44.047000) vcan0 00000006#0029400000000000 R
(44.048000) vcan0 00000001#6429400000000000 R
(44.049000) vcan0 00000002#C829400000000000 R
(44.050000) vcan0 00000003#2C2A400000000000 R
(44.051000) vcan0 00000004#902A400000000000 R
(44.052000) vcan0 00000005#F42A400000000000 R
(44.053000) vcan0 00000006#582B400000000000 R
(44.054000) vcan0 00000001#BC2B400000000000 R
(44.055000) vcan0 00000002#202C400000000000 R
(44.056000) vcan0 00000003#842C400000000000 R
(44.057000) vcan0 00000004#E82C400000000000 R
(44.058000) vcan0 00000005#4C2D400000000000 R
(44.059000) vcan0 00000006#B02D400000000000 R
(44.060000) vcan0 00000001#142E400000000000 R
(44.061000) vcan0 00000002#782E400000000000 R
(44.062000) vcan0 00000003#DC2E400000000000 R
(44.063000) vcan0 00000004#402F400000000000 R
(44.064000) vcan0 00000005#A42F400000000000 R
(44.065000) vcan0 00000006#0830400000000000 R
(44.066000) vcan0 00000001#6C30400000000000 R
(44.067000) vcan0 00000002#D030400000000000 R
(44.068000) vcan0 00000003#3431400000000000 R
(44.069000) vcan0 00000004#9831400000000000 R
(44.070000) vcan0 00000005#FC31400000000000 R
(44.071000) vcan0 00000006#6032400000000000 R
(44.072000) vcan0 00000001#C432400000000000 R
(44.073000) vcan0 00000002#2833400000000000 R
(44.074000) vcan0 00000003#8C33400000000000 R
(44.075000) vcan0 00000004#F033400000000000 R
(44.076000) vcan0 00000005#5434400000000000 R
(44.077000) vcan0 00000006#B834400000000000 R
(44.078000) vcan0 00000001#1C35400000000000 R
(44.079000) vcan0 00000002#8035400000000000 R
(44.080000) vcan0 00000003#E435400000000000 R
(44.081000) vcan0 00000004#4836400000000000 R
(44.082000) vcan0 00000005#AC36400000000000 R
(44.083000) vcan0 00000006#1037400000000000 R
(44.084000) vcan0 00000001#7437400000000000 R
(44.085000) vcan0 00000002#D837400000000000 R
(44.086000) vcan0 00000003#3C38400000000000 R
(44.087000) vcan0 00000004#A038400000000000 R
(44.088000) vcan0 00000005#0439400000000000 R
(44.089000) vcan0 00000006#6839400000000000 R
(44.090000) vcan0 00000001#CC39400000000000 R
(44.091000) vcan0 00000002#303A400000000000 R
(44.092000) vcan0 00000003#943A400000000000 R
(44.093000) vcan0 00000004#F83A400000000000 R
(44.094000) vcan0 00000005#5C3B400000000000 R
(44.095000) vcan0 00000006#C03B400000000000 R
(44.096000) vcan0 00000001#243C400000000000 R
(44.097000) vcan0 00000002#883C400000000000 R
(44.098000) vcan0 00000003#EC3C400000000000 R
(44.099000) vcan0 00000004#503D400000000000 R
(44.100000) vcan0 00000005#B43D400000000000 R
(44.101000) vcan0 00000006#183E400000000000 R
(44.102000) vcan0 00000001#7C3E400000000000 R
(44.103000) vcan0 00000002#E03E400000000000 R
(44.104000) vcan0 00000003#443F400000000000 R
(44.105000) vcan0 00000004#A83F400000000000 R
(44.106000) vcan0 00000005#0C40400000000000 R
(44.107000) vcan0 00000006#7040400000000000 R
(44.108000) vcan0 00000001#D440400000000000 R
(44.109000) vcan0 00000002#3841400000000000 R
(44.110000) vcan0 00000003#9C41400000000000 R
(44.111000) vcan0 00000004#0042400000000000 R
(44.112000) vcan0 00000005#6442400000000000 R
(44.113000) vcan0 00000006#C842400000000000 R
(44.114000) vcan0 00000001#2C43400000000000 R
(44.115000) vcan0 00000002#9043400000000000 R
(44.116000) vcan0 00000003#F443400000000000 R
(44.117000) vcan0 00000004#5844400000000000 R
(44.118000) vcan0 00000005#BC44400000000000 R
(44.119000) vcan0 00000006#2045400000000000 R
(44.120000) vcan0 00000001#8445400000000000 R
(44.121000) vcan0 00000002#E845400000000000 R
(44.122000) vcan0 00000003#4C46400000000000 R
(44.123000) vcan0 00000004#B046400000000000 R
(44.124000) vcan0 00000005#1447400000000000 R
(44.125000) vcan0 00000006#7847400000000000 R
(44.126000) vcan0 00000001#DC47400000000000 R
(44.127000) vcan0 00000002#4048400000000000 R
(44.128000) vcan0 00000003#A448400000000000 R
(44.129000) vcan0 00000004#0849400000000000 R
(44.130000) vcan0 00000005#6C49400000000000 R
(44.131000) vcan0 00000006#D049400000000000 R
(44.132000) vcan0 00000001#344A400000000000 R
(44.133000) vcan0 00000002#984A400000000000 R
(44.134000) vcan0 00000003#FC4A400000000000 R
(44.135000) vcan0 00000004#604B400000000000 R
(44.136000) vcan0 00000005#C44B400000000000 R
(44.137000) vcan0 00000006#284C400000000000 R
(44.138000) vcan0 00000001#8C4C400000000000 R
(44.139000) vcan0 00000002#F04C400000000000 R
(44.140000) vcan0 00000003#544D400000000000 R
(44.141000) vcan0 00000004#B84D400000000000 R
(44.142000) vcan0 00000005#1C4E400000000000 R
(44.143000) vcan0 00000006#804E400000000000 R
(44.144000) vcan0 00000001#E44E400000000000 R
(44.145000) vcan0 00000002#484F400000000000 R
(44.146000) vcan0 00000003#AC4F400000000000 R
(44.147000) vcan0 00000004#1050400000000000 R
(44.148000) vcan0 00000005#7450400000000000 R
(44.149000) vcan0 00000006#D850400000000000 R
(44.150000) vcan0 00000001#3C51400000000000 R
(44.151000) vcan0 00000002#A051400000000000 R
(44.152000) vcan0 00000003#0452400000000000 R
(44.153000) vcan0 00000004#6852400000000000 R
(44.154000) vcan0 00000005#CC52400000000000 R
(44.155000) vcan0 00000006#3053400000000000 R
(44.156000) vcan0 00000001#9453400000000000 R
(44.157000) vcan0 00000002#F853400000000000 R
(44.158000) vcan0 00000003#5C54400000000000 R
(44.159000) vcan0 00000004#C054400000000000 R
(44.160000) vcan0 00000005#2455400000000000 R
(44.161000) vcan0 00000006#8855400000000000 R
(44.162000) vcan0 00000001#EC55400000000000 R
(44.163000) vcan0 00000002#5056400000000000 R
(44.164000) vcan0 00000003#B456400000000000 R
(44.165000) vcan0 00000004#1857400000000000 R
(44.166000) vcan0 00000005#7C57400000000000 R
(44.167000) vcan0 00000006#E057400000000000 R
(44.168000) vcan0 00000001#4458400000000000 R
(44.169000) vcan0 00000002#A858400000000000 R
(44.170000) vcan0 00000003#0C59400000000000 R
(44.171000) vcan0 00000004#7059400000000000 R
(44.172000) vcan0 00000005#D459400000000000 R
(44.173000) vcan0 00000006#385A400000000000 R
(44.174000) vcan0 00000001#9C5A400000000000 R
(44.175000) vcan0 00000002#005B400000000000 R
(44.176000) vcan0 00000003#645B400000000000 R
(44.177000) vcan0 00000004#C85B400000000000 R
(44.178000) vcan0 00000005#2C5C400000000000 R
(44.179000) vcan0 00000006#905C400000000000 R
(44.180000) vcan0 00000001#F45C400000000000 R
(44.181000) vcan0 00000002#585D400000000000 R
(44.182000) vcan0 00000003#BC5D400000000000 R
(44.183000) vcan0 00000004#205E400000000000 R
(44.184000) vcan0 00000005#845E400000000000 R
(44.185000) vcan0 00000006#E85E400000000000 R
(44.186000) vcan0 00000001#4C5F400000000000 R
(44.187000) vcan0 00000002#B05F400000000000 R
(44.188000) vcan0 00000003#1460400000000000 R
(44.189000) vcan0 00000004#7860400000000000 R
(44.190000) vcan0 00000005#DC60400000000000 R
(44.191000) vcan0 00000006#4061400000000000 R
(44.192000) vcan0 00000001#A461400000000000 R
(44.193000) vcan0 00000002#0862400000000000 R
(44.194000) vcan0 00000003#6C62400000000000 R
(44.195000) vcan0 00000004#D062400000000000 R
(44.196000) vcan0 00000005#3463400000000000 R
(44.197000) vcan0 00000006#9863400000000000 R
(44.198000) vcan0 00000001#FC63400000000000 R
(44.199000) vcan0 00000002#6064400000000000 R
(44.200000) vcan0 00000003#C464400000000000 R
(44.201000) vcan0 00000004#2865400000000000 R
(44.202000) vcan0 00000005#8C65400000000000 R
(44.203000) vcan0 00000006#F065400000000000 R
(44.204000) vcan0 00000001#5466400000000000 R
(44.205000) vcan0 00000002#B866400000000000 R
(44.206000) vcan0 00000003#1C67400000000000 R
(44.207000) vcan0 00000004#8067400000000000 R
(44.208000) vcan0 00000005#E467400000000000 R
(44.209000) vcan0 00000006#4868400000000000 R
(44.210000) vcan0 00000001#AC68400000000000 R
(44.211000) vcan0 00000002#1069400000000000 R
(44.212000) vcan0 00000003#7469400000000000 R
(44.213000) vcan0 00000004#D869400000000000 R
(44.214000) vcan0 00000005#3C6A400000000000 R
(44.215000) vcan0 00000006#A06A400000000000 R
(44.216000) vcan0 00000001#046B400000000000 R
(44.217000) vcan0 00000002#686B400000000000 R
(44.218000) vcan0 00000003#CC6B400000000000 R
(44.219000) vcan0 00000004#306C400000000000 R
(44.220000) vcan0 00000005#946C400000000000 R
(44.221000) vcan0 00000006#F86C400000000000 R
(44.222000) vcan0 00000001#5C6D400000000000 R
(44.223000) vcan0 00000002#C06D400000000000 R
(44.224000) vcan0 00000003#246E400000000000 R
(44.225000) vcan0 00000004#886E400000000000 R
(44.226000) vcan0 00000005#EC6E400000000000 R
(44.227000) vcan0 00000006#506F400000000000 R
(44.228000) vcan0 00000001#B46F400000000000 R
(44.229000) vcan0 00000002#1870400000000000 R
(44.230000) vcan0 00000003#7C70400000000000 R
(44.231000) vcan0 00000004#E070400000000000 R
(44.232000) vcan0 00000005#4471400000000000 R
(44.233000) vcan0 00000006#A871400000000000 R
(44.234000) vcan0 00000001#0C72400000000000 R
(44.235000) vcan0 00000002#7072400000000000 R
(44.236000) vcan0 00000003#D472400000000000 R
(44.237000) vcan0 00000004#3873400000000000 R
(44.238000) vcan0 00000005#9C73400000000000 R
(44.239000) vcan0 00000006#0074400000000000 R
(44.240000) vcan0 00000001#6474400000000000 R
(44.241000) vcan0 00000002#C874400000000000 R
(44.242000) vcan0 00000003#2C75400000000000 R
(44.243000) vcan0 00000004#9075400000000000 R
(44.244000) vcan0 00000005#F475400000000000 R
(44.245000) vcan0 00000006#5876400000000000 R
(44.246000) vcan0 00000001#BC76400000000000 R
(44.247000) vcan0 00000002#2077400000000000 R
(44.248000) vcan0 00000003#8477400000000000 R
(44.249000) vcan0 00000004#E877400000000000 R
(44.250000) vcan0 00000005#4C78400000000000 R
(44.251000) vcan0 00000006#B078400000000000 R
(44.252000) vcan0 00000001#1479400000000000 R
(44.253000) vcan0 00000002#7879400000000000 R
(44.254000) vcan0 00000003#DC79400000000000 R
(44.255000) vcan0 00000004#407A400000000000 R
(44.256000) vcan0 00000005#A47A400000000000 R
(44.257000) vcan0 00000006#087B400000000000 R
(44.258000) vcan0 00000001#6C7B400000000000 R
(44.259000) vcan0 00000002#D07B400000000000 R
(44.260000) vcan0 00000003#347C400000000000 R
(44.261000) vcan0 00000004#987C400000000000 R
(44.262000) vcan0 00000005#FC7C400000000000 R
(44.263000) vcan0 00000006#607D400000000000 R
(44.264000) vcan0 00000001#C47D400000000000 R
(44.265000) vcan0 00000002#287E400000000000 R
(44.266000) vcan0 00000003#8C7E400000000000 R
(44.267000) vcan0 00000004#F07E400000000000 R
(44.268000) vcan0 00000005#547F400000000000 R
(44.269000) vcan0 00000006#B87F400000000000 R
(44.270000) vcan0 00000001#1C80400000000000 R
(44.271000) vcan0 00000002#8080400000000000 R
(44.272000) vcan0 00000003#E480400000000000 R
(44.273000) vcan0 00000004#4881400000000000 R
(44.274000) vcan0 00000005#AC81400000000000 R
(44.275000) vcan0 00000006#1082400000000000 R
(44.276000) vcan0 00000001#7482400000000000 R
(44.277000) vcan0 00000002#D882400000000000 R
(44.278000) vcan0 00000003#3C83400000000000 R
(44.279000) vcan0 00000004#A083400000000000 R
(44.280000) vcan0 00000005#0484400000000000 R
(44.281000) vcan0 00000006#6884400000000000 R
(44.282000) vcan0 00000001#CC84400000000000 R
(44.283000) vcan0 00000002#3085400000000000 R
(44.284000) vcan0 00000003#9485400000000000 R
(44.285000) vcan0 00000004#F885400000000000 R
(44.286000) vcan0 00000005#5C86400000000000 R
(44.287000) vcan0 00000006#C086400000000000 R
(44.288000) vcan0 00000001#2487400000000000 R
(44.289000) vcan0 00000002#8887400000000000 R
(44.290000) vcan0 00000003#EC87400000000000 R
(44.291000) vcan0 00000004#5088400000000000 R
(44.292000) vcan0 00000005#B488400000000000 R
(44.293000) vcan0 00000006#1889400000000000 R
(44.294000) vcan0 00000001#7C89400000000000 R
(44.295000) vcan0 00000002#E089400000000000 R
(44.296000) vcan0 00000003#448A400000000000 R
(44.297000) vcan0 00000004#A88A400000000000 R
(44.298000) vcan0 00000005#0C8B400000000000 R
(44.299000) vcan0 00000006#708B400000000000 R
(44.300000) vcan0 00000001#D48B400000000000 R
(44.301000) vcan0 00000002#388C400000000000 R
(44.302000) vcan0 00000003#9C8C400000000000 R
(44.303000) vcan0 00000004#008D400000000000 R
(44.304000) vcan0 00000005#648D400000000000 R
(44.305000) vcan0 00000006#C88D400000000000 R
(44.306000) vcan0 00000001#2C8E400000000000 R
(44.307000) vcan0 00000002#908E400000000000 R
(44.308000) vcan0 00000003#F48E400000000000 R
(44.309000) vcan0 00000004#588F400000000000 R
(44.310000) vcan0 00000005#BC8F400000000000 R
(44.311000) vcan0 00000006#2090400000000000 R
(44.312000) vcan0 00000001#8490400000000000 R
(44.313000) vcan0 00000002#E890400000000000 R
(44.314000) vcan0 00000003#4C91400000000000 R
(44.315000) vcan0 00000004#B091400000000000 R
(44.316000) vcan0 00000005#1492400000000000 R
(44.317000) vcan0 00000006#7892400000000000 R
(44.318000) vcan0 00000001#DC92400000000000 R
(44.319000) vcan0 00000002#4093400000000000 R
(44.320000) vcan0 00000003#A493400000000000 R
(44.321000) vcan0 00000004#0894400000000000 R
(44.322000) vcan0 00000005#6C94400000000000 R
(44.323000) vcan0 00000006#D094400000000000 R
(44.324000) vcan0 00000001#3495400000000000 R
(44.325000) vcan0 00000002#9895400000000000 R
(44.326000) vcan0 00000003#FC95400000000000 R
(44.327000) vcan0 00000004#6096400000000000 R
(44.328000) vcan0 00000005#C496400000000000 R
(44.329000) vcan0 00000006#2897400000000000 R
(44.330000) vcan0 00000001#8C97400000000000 R
(44.331000) vcan0 00000002#F097400000000000 R
(44.332000) vcan0 00000003#5498400000000000 R
(44.333000) vcan0 00000004#B898400000000000 R
(44.334000) vcan0 00000005#1C99400000000000 R
(44.335000) vcan0 00000006#8099400000000000 R
(44.336000) vcan0 00000001#E499400000000000 R
(44.337000) vcan0 00000002#489A400000000000 R
(44.338000) vcan0 00000003#AC9A400000000000 R
(44.339000) vcan0 00000004#109B400000000000 R
(44.340000) vcan0 00000005#749B400000000000 R
(44.341000) vcan0 00000006#D89B400000000000 R
(44.342000) vcan0 00000001#3C9C400000000000 R
(44.343000) vcan0 00000002#A09C400000000000 R
(44.344000) vcan0 00000003#049D400000000000 R
(44.345000) vcan0 00000004#689D400000000000 R
(44.346000) vcan0 00000005#CC9D400000000000 R
(44.347000) vcan0 00000006#309E400000000000 R
(44.348000) vcan0 00000001#949E400000000000 R
(44.349000) vcan0 00000002#F89E400000000000 R
(44.350000) vcan0 00000003#5C9F400000000000 R
(44.351000) vcan0 00000004#C09F400000000000 R
(44.352000) vcan0 00000005#24A0400000000000 R
(44.353000) vcan0 00000006#88A0400000000000 R
(44.354000) vcan0 00000001#ECA0400000000000 R
(44.355000) vcan0 00000002#50A1400000000000 R
(44.356000) vcan0 00000003#B4A1400000000000 R
(44.357000) vcan0 00000004#18A2400000000000 R
(44.358000) vcan0 00000005#7CA2400000000000 R
(44.359000) vcan0 00000006#E0A2400000000000 R
(44.360000) vcan0 00000001#44A3400000000000 R
(44.361000) vcan0 00000002#A8A3400000000000 R
(44.362000) vcan0 00000003#0CA4400000000000 R
(44.363000) vcan0 00000004#70A4400000000000 R
(44.364000) vcan0 00000005#D4A4400000000000 R
(44.365000) vcan0 00000006#38A5400000000000 R
(44.366000) vcan0 00000001#9CA5400000000000 R
(44.367000) vcan0 00000002#00A6400000000000 R
(44.368000) vcan0 00000003#64A6400000000000 R
(44.369000) vcan0 00000004#C8A6400000000000 R
(44.370000) vcan0 00000005#2CA7400000000000 R
(44.371000) vcan0 00000006#90A7400000000000 R
(44.372000) vcan0 00000001#F4A7400000000000 R
(44.373000) vcan0 00000002#58A8400000000000 R
(44.374000) vcan0 00000003#BCA8400000000000 R
(44.375000) vcan0 00000004#20A9400000000000 R
(44.376000) vcan0 00000005#84A9400000000000 R
(44.377000) vcan0 00000006#E8A9400000000000 R
(44.378000) vcan0 00000001#4CAA400000000000 R
(44.379000) vcan0 00000002#B0AA400000000000 R
(44.380000) vcan0 00000003#14AB400000000000 R
(44.381000) vcan0 00000004#78AB400000000000 R
(44.382000) vcan0 00000005#DCAB400000000000 R
(44.383000) vcan0 00000006#40AC400000000000 R
(44.384000) vcan0 00000001#A4AC400000000000 R
(44.385000) vcan0 00000002#08AD400000000000 R
(44.386000) vcan0 00000003#6CAD400000000000 R
(44.387000) vcan0 00000004#D0AD400000000000 R
(44.388000) vcan0 00000005#34AE400000000000 R
(44.389000) vcan0 00000006#98AE400000000000 R
(44.390000) vcan0 00000001#FCAE400000000000 R
(44.391000) vcan0 00000002#60AF400000000000 R
(44.392000) vcan0 00000003#C4AF400000000000 R
(44.393000) vcan0 00000004#28B0400000000000 R
(44.394000) vcan0 00000005#8CB0400000000000 R
(44.395000) vcan0 00000006#F0B0400000000000 R
(44.396000) vcan0 00000001#54B1400000000000 R
(44.397000) vcan0 00000002#B8B1400000000000 R
(44.398000) vcan0 00000003#1CB2400000000000 R
(44.399000) vcan0 00000004#80B2400000000000 R
(44.400000) vcan0 00000005#E4B2400000000000 R
(44.401000) vcan0 00000006#48B3400000000000 R
(44.402000) vcan0 00000001#ACB3400000000000 R
(44.403000) vcan0 00000002#10B4400000000000 R
(44.404000) vcan0 00000003#74B4400000000000 R
(44.405000) vcan0 00000004#D8B4400000000000 R
(44.406000) vcan0 00000005#3CB5400000000000 R
(44.407000) vcan0 00000006#A0B5400000000000 R
(44.408000) vcan0 00000001#04B6400000000000 R
(44.409000) vcan0 00000002#68B6400000000000 R
(44.410000) vcan0 00000003#CCB6400000000000 R
(44.411000) vcan0 00000004#30B7400000000000 R
(44.412000) vcan0 00000005#94B7400000000000 R
(44.413000) vcan0 00000006#F8B7400000000000 R
(44.414000) vcan0 00000001#5CB8400000000000 R
(44.415000) vcan0 00000002#C0B8400000000000 R
(44.416000) vcan0 00000003#24B9400000000000 R
(44.417000) vcan0 00000004#88B9400000000000 R
(44.418000) vcan0 00000005#ECB9400000000000 R
(44.419000) vcan0 00000006#50BA400000000000 R
(44.420000) vcan0 00000001#B4BA400000000000 R
(44.421000) vcan0 00000002#18BB400000000000 R
(44.422000) vcan0 00000003#7CBB400000000000 R
(44.423000) vcan0 00000004#E0BB400000000000 R
(44.424000) vcan0 00000005#44BC400000000000 R
(44.425000) vcan0 00000006#A8BC400000000000 R
(44.426000) vcan0 00000001#0CBD400000000000 R
(44.427000) vcan0 00000002#70BD400000000000 R
(44.428000) vcan0 00000003#D4BD400000000000 R
(44.429000) vcan0 00000004#38BE400000000000 R
(44.430000) vcan0 00000005#9CBE400000000000 R
(44.431000) vcan0 00000006#00BF400000000000 R
(44.432000) vcan0 00000001#64BF400000000000 R
(44.433000) vcan0 00000002#C8BF400000000000 R
(44.434000) vcan0 00000003#2CC0400000000000 R
(44.435000) vcan0 00000004#90C0400000000000 R
(44.436000) vcan0 00000005#F4C0400000000000 R
(44.437000) vcan0 00000006#58C1400000000000 R
(44.438000) vcan0 00000001#BCC1400000000000 R
(44.439000) vcan0 00000002#20C2400000000000 R
(44.440000) vcan0 00000003#84C2400000000000 R
(44.441000) vcan0 00000004#E8C2400000000000 R
(44.442000) vcan0 00000005#4CC3400000000000 R
(44.443000) vcan0 00000006#B0C3400000000000 R
(44.444000) vcan0 00000001#14C4400000000000 R
(44.445000) vcan0 00000002#78C4400000000000 R
(44.446000) vcan0 00000003#DCC4400000000000 R
(44.447000) vcan0 00000004#40C5400000000000 R
(44.448000) vcan0 00000005#A4C5400000000000 R
(44.449000) vcan0 00000006#08C6400000000000 R
(44.450000) vcan0 00000001#6CC6400000000000 R
(44.451000) vcan0 00000002#D0C6400000000000 R
(44.452000) vcan0 00000003#34C7400000000000 R
(44.453000) vcan0 00000004#98C7400000000000 R
(44.454000) vcan0 00000005#FCC7400000000000 R
(44.455000) vcan0 00000006#60C8400000000000 R
(44.456000) vcan0 00000001#C4C8400000000000 R
(44.457000) vcan0 00000002#28C9400000000000 R
(44.458000) vcan0 00000003#8CC9400000000000 R
(44.459000) vcan0 00000004#F0C9400000000000 R
(44.460000) vcan0 00000005#54CA400000000000 R
(44.461000) vcan0 00000006#B8CA400000000000 R
(44.462000) vcan0 00000001#1CCB400000000000 R
(44.463000) vcan0 00000002#80CB400000000000 R
(44.464000) vcan0 00000003#E4CB400000000000 R
(44.465000) vcan0 00000004#48CC400000000000 R
(44.466000) vcan0 00000005#ACCC400000000000 R
(44.467000) vcan0 00000006#10CD400000000000 R
(44.468000) vcan0 00000001#74CD400000000000 R
(44.469000) vcan0 00000002#D8CD400000000000 R
(44.470000) vcan0 00000003#3CCE400000000000 R
(44.471000) vcan0 00000004#A0CE400000000000 R
(44.472000) vcan0 00000005#04CF400000000000 R
(44.473000) vcan0 00000006#68CF400000000000 R
(44.474000) vcan0 00000001#CCCF400000000000 R
(44.475000) vcan0 00000002#30D0400000000000 R
(44.476000) vcan0 00000003#94D0400000000000 R
(44.477000) vcan0 00000004#F8D0400000000000 R
(44.478000) vcan0 00000005#5CD1400000000000 R
(44.479000) vcan0 00000006#C0D1400000000000 R
(44.480000) vcan0 00000001#24D2400000000000 R
(44.481000) vcan0 00000002#88D2400000000000 R
(44.482000) vcan0 00000003#ECD2400000000000 R
(44.483000) vcan0 00000004#50D3400000000000 R
(44.484000) vcan0 00000005#B4D3400000000000 R
(44.485000) vcan0 00000006#18D4400000000000 R
(44.486000) vcan0 00000001#7CD4400000000000 R
(44.487000) vcan0 00000002#E0D4400000000000 R
(44.488000) vcan0 00000003#44D5400000000000 R
(44.489000) vcan0 00000004#A8D5400000000000 R
(44.490000) vcan0 00000005#0CD6400000000000 R
(44.491000) vcan0 00000006#70D6400000000000 R
(44.492000) vcan0 00000001#D4D6400000000000 R
(44.493000) vcan0 00000002#38D7400000000000 R
(44.494000) vcan0 00000003#9CD7400000000000 R
(44.495000) vcan0 00000004#00D8400000000000 R
(44.496000) vcan0 00000005#64D8400000000000 R
(44.497000) vcan0 00000006#C8D8400000000000 R
(44.498000) vcan0 00000001#2CD9400000000000 R
(44.499000) vcan0 00000002#90D9400000000000 R
(44.500000) vcan0 00000003#F4D9400000000000 R
(44.501000) vcan0 00000004#58DA400000000000 R
(44.502000) vcan0 00000005#BCDA400000000000 R
(44.503000) vcan0 00000006#20DB400000000000 R
(44.504000) vcan0 00000001#84DB400000000000 R
(44.505000) vcan0 00000002#E8DB400000000000 R
(44.506000) vcan0 00000003#4CDC400000000000 R
(44.507000) vcan0 00000004#B0DC400000000000 R
(44.508000) vcan0 00000005#14DD400000000000 R
(44.509000) vcan0 00000006#78DD400000000000 R
(44.510000) vcan0 00000001#DCDD400000000000 R
(44.511000) vcan0 00000002#40DE400000000000 R
(44.512000) vcan0 00000003#A4DE400000000000 R
(44.513000) vcan0 00000004#08DF400000000000 R
(44.514000) vcan0 00000005#6CDF400000000000 R
(44.515000) vcan0 00000006#D0DF400000000000 R
(44.516000) vcan0 00000001#34E0400000000000 R
(44.517000) vcan0 00000002#98E0400000000000 R
(44.518000) vcan0 00000003#FCE0400000000000 R
(44.519000) vcan0 00000004#60E1400000000000 R
(44.520000) vcan0 00000005#C4E1400000000000 R
(44.521000) vcan0 00000006#28E2400000000000 R
(44.522000) vcan0 00000001#8CE2400000000000 R
(44.523000) vcan0 00000002#F0E2400000000000 R
(44.524000) vcan0 00000003#54E3400000000000 R
(44.525000) vcan0 00000004#B8E3400000000000 R
(44.526000) vcan0 00000005#1CE4400000000000 R
(44.527000) vcan0 00000006#80E4400000000000 R
(44.528000) vcan0 00000001#E4E4400000000000 R
(44.529000) vcan0 00000002#48E5400000000000 R
(44.530000) vcan0 00000003#ACE5400000000000 R
(44.531000) vcan0 00000004#10E6400000000000 R
(44.532000) vcan0 00000005#74E6400000000000 R
(44.533000) vcan0 00000006#D8E6400000000000 R
(44.534000) vcan0 00000001#3CE7400000000000 R
(44.535000) vcan0 00000002#A0E7400000000000 R
(44.536000) vcan0 00000003#04E8400000000000 R
(44.537000) vcan0 00000004#68E8400000000000 R
(44.538000) vcan0 00000005#CCE8400000000000 R
(44.539000) vcan0 00000006#30E9400000000000 R
(44.540000) vcan0 00000001#94E9400000000000 R
(44.541000) vcan0 00000002#F8E9400000000000 R
(44.542000) vcan0 00000003#5CEA400000000000 R
(44.543000) vcan0 00000004#C0EA400000000000 R
(44.544000) vcan0 00000005#24EB400000000000 R
(44.545000) vcan0 00000006#88EB400000000000 R
(44.546000) vcan0 00000001#ECEB400000000000 R
(44.547000) vcan0 00000002#50EC400000000000 R
(44.548000) vcan0 00000003#B4EC400000000000 R
(44.549000) vcan0 00000004#18ED400000000000 R
(44.550000) vcan0 00000005#7CED400000000000 R
(44.551000) vcan0 00000006#E0ED400000000000 R
(44.552000) vcan0 00000001#44EE400000000000 R
(44.553000) vcan0 00000002#A8EE400000000000 R
(44.554000) vcan0 00000003#0CEF400000000000 R
(44.555000) vcan0 00000004#70EF400000000000 R
(44.556000) vcan0 00000005#D4EF400000000000 R
(44.557000) vcan0 00000006#38F0400000000000 R
(44.558000) vcan0 00000001#9CF0400000000000 R
(44.559000) vcan0 00000002#00F1400000000000 R
(44.560000) vcan0 00000003#64F1400000000000 R
(44.561000) vcan0 00000004#C8F1400000000000 R
(44.562000) vcan0 00000005#2CF2400000000000 R
(44.563000) vcan0 00000006#90F2400000000000 R
(44.564000) vcan0 00000001#F4F2400000000000 R
(44.565000) vcan0 00000002#58F3400000000000 R
(44.566000) vcan0 00000003#BCF3400000000000 R
(44.567000) vcan0 00000004#20F4400000000000 R
(44.568000) vcan0 00000005#84F4400000000000 R
(44.569000) vcan0 00000006#E8F4400000000000 R
(44.570000) vcan0 00000001#4CF5400000000000 R
(44.571000) vcan0 00000002#B0F5400000000000 R
(44.572000) vcan0 00000003#14F6400000000000 R
(44.573000) vcan0 00000004#78F6400000000000 R
(44.574000) vcan0 00000005#DCF6400000000000 R
(44.575000) vcan0 00000006#40F7400000000000 R
(44.576000) vcan0 00000001#A4F7400000000000 R
(44.577000) vcan0 00000002#08F8400000000000 R
(44.578000) vcan0 00000003#6CF8400000000000 R
(44.579000) vcan0 00000004#D0F8400000000000 R
(44.580000) vcan0 00000005#34F9400000000000 R
(44.581000) vcan0 00000006#98F9400000000000 R
(44.582000) vcan0 00000001#FCF9400000000000 R
(44.583000) vcan0 00000002#60FA400000000000 R
(44.584000) vcan0 00000003#C4FA400000000000 R
(44.585000) vcan0 00000004#28FB400000000000 R
(44.586000) vcan0 00000005#8CFB400000000000 R
(44.587000) vcan0 00000006#F0FB400000000000 R
(44.588000) vcan0 00000001#54FC400000000000 R
(44.589000) vcan0 00000002#B8FC400000000000 R
(44.590000) vcan0 00000003#1CFD400000000000 R
(44.591000) vcan0 00000004#80FD400000000000 R
(44.592000) vcan0 00000005#E4FD400000000000 R
(44.593000) vcan0 00000006#48FE400000000000 R
(44.594000) vcan0 00000001#ACFE400000000000 R
(44.595000) vcan0 00000002#10FF400000000000 R
(44.596000) vcan0 00000003#74FF400000000000 R
(44.597000) vcan0 00000004#D8FF400000000000 R
(44.598000) vcan0 00000005#3C00410000000000 R
(44.599000) vcan0 00000006#A000410000000000 R
(44.600000) vcan0 00000001#0401410000000000 R
(44.601000) vcan0 00000002#6801410000000000 R
(44.602000) vcan0 00000003#CC01410000000000 R
(44.603000) vcan0 00000004#3002410000000000 R
(44.604000) vcan0 00000005#9402410000000000 R
(44.605000) vcan0 00000006#F802410000000000 R
(44.606000) vcan0 00000001#5C03410000000000 R
(44.607000) vcan0 00000002#C003410000000000 R
(44.608000) vcan0 00000003#2404410000000000 R
(44.609000) vcan0 00000004#8804410000000000 R
(44.610000) vcan0 00000005#EC04410000000000 R
(44.611000) vcan0 00000006#5005410000000000 R
(44.612000) vcan0 00000001#B405410000000000 R
(44.613000) vcan0 00000002#1806410000000000 R
(44.614000) vcan0 00000003#7C06410000000000 R
(44.615000) vcan0 00000004#E006410000000000 R
(44.616000) vcan0 00000005#4407410000000000 R
(44.617000) vcan0 00000006#A807410000000000 R
(44.618000) vcan0 00000001#0C08410000000000 R
(44.619000) vcan0 00000002#7008410000000000 R
(44.620000) vcan0 00000003#D408410000000000 R
(44.621000) vcan0 00000004#3809410000000000 R
(44.622000) vcan0 00000005#9C09410000000000 R
(44.623000) vcan0 00000006#000A410000000000 R
(44.624000) vcan0 00000001#640A410000000000 R
(44.625000) vcan0 00000002#C80A410000000000 R
(44.626000) vcan0 00000003#2C0B410000000000 R
(44.627000) vcan0 00000004#900B410000000000 R
(44.628000) vcan0 00000005#F40B410000000000 R
(44.629000) vcan0 00000006#580C410000000000 R
(44.630000) vcan0 00000001#BC0C410000000000 R
(44.631000) vcan0 00000002#200D410000000000 R
(44.632000) vcan0 00000003#840D410000000000 R
(44.633000) vcan0 00000004#E80D410000000000 R
(44.634000) vcan0 00000005#4C0E410000000000 R
(44.635000) vcan0 00000006#B00E410000000000 R
(44.636000) vcan0 00000001#140F410000000000 R
(44.637000) vcan0 00000002#780F410000000000 R
(44.638000) vcan0 00000003#DC0F410000000000 R
(44.639000) vcan0 00000004#4010410000000000 R
(44.640000) vcan0 00000005#A410410000000000 R
(44.641000) vcan0 00000006#0811410000000000 R
(44.642000) vcan0 00000001#6C11410000000000 R
(44.643000) vcan0 00000002#D011410000000000 R
(44.644000) vcan0 00000003#3412410000000000 R
(44.645000) vcan0 00000004#9812410000000000 R
(44.646000) vcan0 00000005#FC12410000000000 R
(44.647000) vcan0 00000006#6013410000000000 R
(44.648000) vcan0 00000001#C413410000000000 R
(44.649000) vcan0 00000002#2814410000000000 R
(44.650000) vcan0 00000003#8C14410000000000 R
(44.651000) vcan0 00000004#F014410000000000 R
(44.652000) vcan0 00000005#5415410000000000 R
(44.653000) vcan0 00000006#B815410000000000 R
(44.654000) vcan0 00000001#1C16410000000000 R
(44.655000) vcan0 00000002#8016410000000000 R
(44.656000) vcan0 00000003#E416410000000000 R
(44.657000) vcan0 00000004#4817410000000000 R
(44.658000) vcan0 00000005#AC17410000000000 R
(44.659000) vcan0 00000006#1018410000000000 R
(44.660000) vcan0 00000001#7418410000000000 R
(44.661000) vcan0 00000002#D818410000000000 R
(44.662000) vcan0 00000003#3C19410000000000 R
(44.663000) vcan0 00000004#A019410000000000 R
(44.664000) vcan0 00000005#041A410000000000 R
(44.665000) vcan0 00000006#681A410000000000 R
(44.666000) vcan0 00000001#CC1A410000000000 R
(44.667000) vcan0 00000002#301B410000000000 R
(44.668000) vcan0 00000003#941B410000000000 R
(44.669000) vcan0 00000004#F81B410000000000 R
(44.670000) vcan0 00000005#5C1C410000000000 R
(44.671000) vcan0 00000006#C01C410000000000 R
(44.672000) vcan0 00000001#241D410000000000 R
(44.673000) vcan0 00000002#881D410000000000 R
(44.674000) vcan0 00000003#EC1D410000000000 R
(44.675000) vcan0 00000004#501E410000000000 R
(44.676000) vcan0 00000005#B41E410000000000 R
(44.677000) vcan0 00000006#181F410000000000 R
(44.678000) vcan0 00000001#7C1F410000000000 R
(44.679000) vcan0 00000002#E01F410000000000 R
(44.680000) vcan0 00000003#4420410000000000 R
(44.681000) vcan0 00000004#A820410000000000 R
(44.682000) vcan0 00000005#0C21410000000000 R
(44.683000) vcan0 00000006#7021410000000000 R
(44.684000) vcan0 00000001#D421410000000000 R
(44.685000) vcan0 00000002#3822410000000000 R
(44.686000) vcan0 00000003#9C22410000000000 R
(44.687000) vcan0 00000004#0023410000000000 R
(44.688000) vcan0 00000005#6423410000000000 R
(44.689000) vcan0 00000006#C823410000000000 R
(44.690000) vcan0 00000001#2C24410000000000 R
(44.691000) vcan0 00000002#9024410000000000 R
(44.692000) vcan0 00000003#F424410000000000 R
(44.693000) vcan0 00000004#5825410000000000 R
(44.694000) vcan0 00000005#BC25410000000000 R
(44.695000) vcan0 00000006#2026410000000000 R
(44.696000) vcan0 00000001#8426410000000000 R
(44.697000) vcan0 00000002#E826410000000000 R
(44.698000) vcan0 00000003#4C27410000000000 R
(44.699000) vcan0 00000004#B027410000000000 R
(44.700000) vcan0 00000005#1428410000000000 R
(44.701000) vcan0 00000006#7828410000000000 R
(44.702000) vcan0 00000001#DC28410000000000 R
(44.703000) vcan0 00000002#4029410000000000 R
(44.704000) vcan0 00000003#A429410000000000 R
(44.705000) vcan0 00000004#082A410000000000 R
(44.706000) vcan0 00000005#6C2A410000000000 R
(44.707000) vcan0 00000006#D02A410000000000 R
(44.708000) vcan0 00000001#342B410000000000 R
(44.709000) vcan0 00000002#982B410000000000 R
(44.710000) vcan0 00000003#FC2B410000000000 R
(44.711000) vcan0 00000004#602C410000000000 R
(44.712000) vcan0 00000005#C42C410000000000 R
(44.713000) vcan0 00000006#282D410000000000 R
(44.714000) vcan0 00000001#8C2D410000000000 R
(44.715000) vcan0 00000002#F02D410000000000 R
(44.716000) vcan0 00000003#542E410000000000 R
(44.717000) vcan0 00000004#B82E410000000000 R
(44.718000) vcan0 00000005#1C2F410000000000 R
(44.719000) vcan0 00000006#802F410000000000 R
(44.720000) vcan0 00000001#E42F410000000000 R
(44.721000) vcan0 00000002#4830410000000000 R
(44.722000) vcan0 00000003#AC30410000000000 R
(44.723000) vcan0 00000004#1031410000000000 R
(44.724000) vcan0 00000005#7431410000000000 R
(44.725000) vcan0 00000006#D831410000000000 R
(44.726000) vcan0 00000001#3C32410000000000 R
(44.727000) vcan0 00000002#A032410000000000 R
(44.728000) vcan0 00000003#0433410000000000 R
(44.729000) vcan0 00000004#6833410000000000 R
(44.730000) vcan0 00000005#CC33410000000000 R
(44.731000) vcan0 00000006#3034410000000000 R
(44.732000) vcan0 00000001#9434410000000000 R
(44.733000) vcan0 00000002#F834410000000000 R
(44.734000) vcan0 00000003#5C35410000000000 R
(44.735000) vcan0 00000004#C035410000000000 R
(44.736000) vcan0 00000005#2436410000000000 R
(44.737000) vcan0 00000006#8836410000000000 R
(44.738000) vcan0 00000001#EC36410000000000 R
(44.739000) vcan0 00000002#5037410000000000 R
(44.740000) vcan0 00000003#B437410000000000 R
(44.741000) vcan0 00000004#1838410000000000 R
(44.742000) vcan0 00000005#7C38410000000000 R
(44.743000) vcan0 00000006#E038410000000000 R
(44.744000) vcan0 00000001#4439410000000000 R
(44.745000) vcan0 00000002#A839410000000000 R
(44.746000) vcan0 00000003#0C3A410000000000 R
(44.747000) vcan0 00000004#703A410000000000 R
(44.748000) vcan0 00000005#D43A410000000000 R
(44.749000) vcan0 00000006#383B410000000000 R
(44.750000) vcan0 00000001#9C3B410000000000 R
(44.751000) vcan0 00000002#003C410000000000 R
(44.752000) vcan0 00000003#643C410000000000 R
(44.753000) vcan0 00000004#C83C410000000000 R
(44.754000) vcan0 00000005#2C3D410000000000 R
(44.755000) vcan0 00000006#903D410000000000 R
(44.756000) vcan0 00000001#F43D410000000000 R
(44.757000) vcan0 00000002#583E410000000000 R
(44.758000) vcan0 00000003#BC3E410000000000 R
(44.759000) vcan0 00000004#203F410000000000 R
(44.760000) vcan0 00000005#843F410000000000 R
(44.761000) vcan0 00000006#E83F410000000000 R
(44.762000) vcan0 00000001#4C40410000000000 R
(44.763000) vcan0 00000002#B040410000000000 R
(44.764000) vcan0 00000003#1441410000000000 R
(44.765000) vcan0 00000004#7841410000000000 R
(44.766000) vcan0 00000005#DC41410000000000 R
(44.767000) vcan0 00000006#4042410000000000 R
(44.768000) vcan0 00000001#A442410000000000 R
(44.769000) vcan0 00000002#0843410000000000 R
(44.770000) vcan0 00000003#6C43410000000000 R
(44.771000) vcan0 00000004#D043410000000000 R
(44.772000) vcan0 00000005#3444410000000000 R
(44.773000) vcan0 00000006#9844410000000000 R
(44.774000) vcan0 00000001#FC44410000000000 R
(44.775000) vcan0 00000002#6045410000000000 R
(44.776000) vcan0 00000003#C445410000000000 R
(44.777000) vcan0 00000004#2846410000000000 R
(44.778000) vcan0 00000005#8C46410000000000 R
(44.779000) vcan0 00000006#F046410000000000 R
(44.780000) vcan0 00000001#5447410000000000 R
(44.781000) vcan0 00000002#B847410000000000 R
(44.782000) vcan0 00000003#1C48410000000000 R
(44.783000) vcan0 00000004#8048410000000000 R
(44.784000) vcan0 00000005#E448410000000000 R
(44.785000) vcan0 00000006#4849410000000000 R
(44.786000) vcan0 00000001#AC49410000000000 R
(44.787000) vcan0 00000002#104A410000000000 R
(44.788000) vcan0 00000003#744A410000000000 R
(44.789000) vcan0 00000004#D84A410000000000 R
(44.790000) vcan0 00000005#3C4B410000000000 R
(44.791000) vcan0 00000006#A04B410000000000 R
(44.792000) vcan0 00000001#044C410000000000 R
(44.793000) vcan0 00000002#684C410000000000 R
(44.794000) vcan0 00000003#CC4C410000000000 R
(44.795000) vcan0 00000004#304D410000000000 R
(44.796000) vcan0 00000005#944D410000000000 R
(44.797000) vcan0 00000006#F84D410000000000 R
(44.798000) vcan0 00000001#5C4E410000000000 R
(44.799000) vcan0 00000002#C04E410000000000 R
(44.800000) vcan0 00000003#244F410000000000 R
(44.801000) vcan0 00000004#884F410000000000 R
(44.802000) vcan0 00000005#EC4F410000000000 R
(44.803000) vcan0 00000006#5050410000000000 R
(44.804000) vcan0 00000001#B450410000000000 R
(44.805000) vcan0 00000002#1851410000000000 R
(44.806000) vcan0 00000003#7C51410000000000 R
(44.807000) vcan0 00000004#E051410000000000 R
(44.808000) vcan0 00000005#4452410000000000 R
(44.809000) vcan0 00000006#A852410000000000 R
(44.810000) vcan0 00000001#0C53410000000000 R
(44.811000) vcan0 00000002#7053410000000000 R
(44.812000) vcan0 00000003#D453410000000000 R
(44.813000) vcan0 00000004#3854410000000000 R
(44.814000) vcan0 00000005#9C54410000000000 R
(44.815000) vcan0 00000006#0055410000000000 R
(44.816000) vcan0 00000001#6455410000000000 R
(44.817000) vcan0 00000002#C855410000000000 R
(44.818000) vcan0 00000003#2C56410000000000 R
(44.819000) vcan0 00000004#9056410000000000 R
(44.820000) vcan0 00000005#F456410000000000 R
(44.821000) vcan0 00000006#5857410000000000 R
(44.822000) vcan0 00000001#BC57410000000000 R
(44.823000) vcan0 00000002#2058410000000000 R
(44.824000) vcan0 00000003#8458410000000000 R
(44.825000) vcan0 00000004#E858410000000000 R
(44.826000) vcan0 00000005#4C59410000000000 R
(44.827000) vcan0 00000006#B059410000000000 R
(44.828000) vcan0 00000001#145A410000000000 R
(44.829000) vcan0 00000002#785A410000000000 R
(44.830000) vcan0 00000003#DC5A410000000000 R
(44.831000) vcan0 00000004#405B410000000000 R
(44.832000) vcan0 00000005#A45B410000000000 R
(44.833000) vcan0 00000006#085C410000000000 R
(44.834000) vcan0 00000001#6C5C410000000000 R
(44.835000) vcan0 00000002#D05C410000000000 R
(44.836000) vcan0 00000003#345D410000000000 R
(44.837000) vcan0 00000004#985D410000000000 R
(44.838000) vcan0 00000005#FC5D410000000000 R
(44.839000) vcan0 00000006#605E410000000000 R
(44.840000) vcan0 00000001#C45E410000000000 R
(44.841000) vcan0 00000002#285F410000000000 R
(44.842000) vcan0 00000003#8C5F410000000000 R
(44.843000) vcan0 00000004#F05F410000000000 R
(44.844000) vcan0 00000005#5460410000000000 R
(44.845000) vcan0 00000006#B860410000000000 R
(44.846000) vcan0 00000001#1C61410000000000 R
(44.847000) vcan0 00000002#8061410000000000 R
(44.848000) vcan0 00000003#E461410000000000 R
(44.849000) vcan0 00000004#4862410000000000 R
(44.850000) vcan0 00000005#AC62410000000000 R
(44.851000) vcan0 00000006#1063410000000000 R
(44.852000) vcan0 00000001#7463410000000000 R
(44.853000) vcan0 00000002#D863410000000000 R
(44.854000) vcan0 00000003#3C64410000000000 R
(44.855000) vcan0 00000004#A064410000000000 R
(44.856000) vcan0 00000005#0465410000000000 R
(44.857000) vcan0 00000006#6865410000000000 R
(44.858000) vcan0 00000001#CC65410000000000 R
(44.859000) vcan0 00000002#3066410000000000 R
(44.860000) vcan0 00000003#9466410000000000 R
(44.861000) vcan0 00000004#F866410000000000 R
(44.862000) vcan0 00000005#5C67410000000000 R
(44.863000) vcan0 00000006#C067410000000000 R
(44.864000) vcan0 00000001#2468410000000000 R
(44.865000) vcan0 00000002#8868410000000000 R
(44.866000) vcan0 00000003#EC68410000000000 R
(44.867000) vcan0 00000004#5069410000000000 R
(44.868000) vcan0 00000005#B469410000000000 R
(44.869000) vcan0 00000006#186A410000000000 R
(44.870000) vcan0 00000001#7C6A410000000000 R
(44.871000) vcan0 00000002#E06A410000000000 R
(44.872000) vcan0 00000003#446B410000000000 R
(44.873000) vcan0 00000004#A86B410000000000 R
(44.874000) vcan0 00000005#0C6C410000000000 R
(44.875000) vcan0 00000006#706C410000000000 R
(44.876000) vcan0 00000001#D46C410000000000 R
(44.877000) vcan0 00000002#386D410000000000 R
(44.878000) vcan0 00000003#9C6D410000000000 R
(44.879000) vcan0 00000004#006E410000000000 R
(44.880000) vcan0 00000005#646E410000000000 R
(44.881000) vcan0 00000006#C86E410000000000 R
(44.882000) vcan0 00000001#2C6F410000000000 R
(44.883000) vcan0 00000002#906F410000000000 R
(44.884000) vcan0 00000003#F46F410000000000 R
(44.885000) vcan0 00000004#5870410000000000 R
(44.886000) vcan0 00000005#BC70410000000000 R
(44.887000) vcan0 00000006#2071410000000000 R
(44.888000) vcan0 00000001#8471410000000000 R
(44.889000) vcan0 00000002#E871410000000000 R
(44.890000) vcan0 00000003#4C72410000000000 R
(44.891000) vcan0 00000004#B072410000000000 R
(44.892000) vcan0 00000005#1473410000000000 R
(44.893000) vcan0 00000006#7873410000000000 R
(44.894000) vcan0 00000001#DC73410000000000 R
(44.895000) vcan0 00000002#4074410000000000 R
(44.896000) vcan0 00000003#A474410000000000 R
(44.897000) vcan0 00000004#0875410000000000 R
(44.898000) vcan0 00000005#6C75410000000000 R
(44.899000) vcan0 00000006#D075410000000000 R
(44.900000) vcan0 00000001#3476410000000000 R
(44.901000) vcan0 00000002#9876410000000000 R
(44.902000) vcan0 00000003#FC76410000000000 R
(44.903000) vcan0 00000004#6077410000000000 R
(44.904000) vcan0 00000005#C477410000000000 R
(44.905000) vcan0 00000006#2878410000000000 R
(44.906000) vcan0 00000001#8C78410000000000 R
(44.907000) vcan0 00000002#F078410000000000 R
(44.908000) vcan0 00000003#5479410000000000 R
(44.909000) vcan0 00000004#B879410000000000 R
(44.910000) vcan0 00000005#1C7A410000000000 R
(44.911000) vcan0 00000006#807A410000000000 R
(44.912000) vcan0 00000001#E47A410000000000 R
(44.913000) vcan0 00000002#487B410000000000 R
(44.914000) vcan0 00000003#AC7B410000000000 R
(44.915000) vcan0 00000004#107C410000000000 R
(44.916000) vcan0 00000005#747C410000000000 R
(44.917000) vcan0 00000006#D87C410000000000 R
(44.918000) vcan0 00000001#3C7D410000000000 R
(44.919000) vcan0 00000002#A07D410000000000 R
(44.920000) vcan0 00000003#047E410000000000 R
(44.921000) vcan0 00000004#687E410000000000 R
(44.922000) vcan0 00000005#CC7E410000000000 R
(44.923000) vcan0 00000006#307F410000000000 R
(44.924000) vcan0 00000001#947F410000000000 R
(44.925000) vcan0 00000002#F87F410000000000 R
(44.926000) vcan0 00000003#5C80410000000000 R
(44.927000) vcan0 00000004#C080410000000000 R
(44.928000) vcan0 00000005#2481410000000000 R
(44.929000) vcan0 00000006#8881410000000000 R
(44.930000) vcan0 00000001#EC81410000000000 R
(44.931000) vcan0 00000002#5082410000000000 R
(44.932000) vcan0 00000003#B482410000000000 R
(44.933000) vcan0 00000004#1883410000000000 R
(44.934000) vcan0 00000005#7C83410000000000 R
(44.935000) vcan0 00000006#E083410000000000 R
(44.936000) vcan0 00000001#4484410000000000 R
(44.937000) vcan0 00000002#A884410000000000 R
(44.938000) vcan0 00000003#0C85410000000000 R
(44.939000) vcan0 00000004#7085410000000000 R
(44.940000) vcan0 00000005#D485410000000000 R
(44.941000) vcan0 00000006#3886410000000000 R
(44.942000) vcan0 00000001#9C86410000000000 R
(44.943000) vcan0 00000002#0087410000000000 R
(44.944000) vcan0 00000003#6487410000000000 R
(44.945000) vcan0 00000004#C887410000000000 R
(44.946000) vcan0 00000005#2C88410000000000 R
(44.947000) vcan0 00000006#9088410000000000 R
(44.948000) vcan0 00000001#F488410000000000 R
(44.949000) vcan0 00000002#5889410000000000 R
(44.950000) vcan0 00000003#BC89410000000000 R
(44.951000) vcan0 00000004#208A410000000000 R
(44.952000) vcan0 00000005#848A410000000000 R
(44.953000) vcan0 00000006#E88A410000000000 R
(44.954000) vcan0 00000001#4C8B410000000000 R
(44.955000) vcan0 00000002#B08B410000000000 R
(44.956000) vcan0 00000003#148C410000000000 R
(44.957000) vcan0 00000004#788C410000000000 R
(44.958000) vcan0 00000005#DC8C410000000000 R
(44.959000) vcan0 00000006#408D410000000000 R
(44.960000) vcan0 00000001#A48D410000000000 R
(44.961000) vcan0 00000002#088E410000000000 R
(44.962000) vcan0 00000003#6C8E410000000000 R
(44.963000) vcan0 00000004#D08E410000000000 R
(44.964000) vcan0 00000005#348F410000000000 R
(44.965000) vcan0 00000006#988F410000000000 R
(44.966000) vcan0 00000001#FC8F410000000000 R
(44.967000) vcan0 00000002#6090410000000000 R
(44.968000) vcan0 00000003#C490410000000000 R
(44.969000) vcan0 00000004#2891410000000000 R
(44.970000) vcan0 00000005#8C91410000000000 R
(44.971000) vcan0 00000006#F091410000000000 R
(44.972000) vcan0 00000001#5492410000000000 R
(44.973000) vcan0 00000002#B892410000000000 R
(44.974000) vcan0 00000003#1C93410000000000 R
(44.975000) vcan0 00000004#8093410000000000 R
(44.976000) vcan0 00000005#E493410000000000 R
(44.977000) vcan0 00000006#4894410000000000 R
(44.978000) vcan0 00000001#AC94410000000000 R
(44.979000) vcan0 00000002#1095410000000000 R
(44.980000) vcan0 00000003#7495410000000000 R
(44.981000) vcan0 00000004#D895410000000000 R
(44.982000) vcan0 00000005#3C96410000000000 R
(44.983000) vcan0 00000006#A096410000000000 R
(44.984000) vcan0 00000001#0497410000000000 R
(44.985000) vcan0 00000002#6897410000000000 R
(44.986000) vcan0 00000003#CC97410000000000 R
(44.987000) vcan0 00000004#3098410000000000 R
(44.988000) vcan0 00000005#9498410000000000 R
(44.989000) vcan0 00000006#F898410000000000 R
(44.990000) vcan0 00000001#5C99410000000000 R
(44.991000) vcan0 00000002#C099410000000000 R
(44.992000) vcan0 00000003#249A410000000000 R
(44.993000) vcan0 00000004#889A410000000000 R
(44.994000) vcan0 00000005#EC9A410000000000 R
(44.995000) vcan0 00000006#509B410000000000 R
(44.996000) vcan0 00000001#B49B410000000000 R
(44.997000) vcan0 00000002#189C410000000000 R
(44.998000) vcan0 00000003#7C9C410000000000 R
(44.999000) vcan0 00000004#E09C410000000000 R
(45.000000) vcan0 00000005#449D410000000000 R
(45.001000) vcan0 00000006#A89D410000000000 R
(45.002000) vcan0 00000001#0C9E410000000000 R
(45.003000) vcan0 00000002#709E410000000000 R
(45.004000) vcan0 00000003#D49E410000000000 R
(45.005000) vcan0 00000004#389F410000000000 R
(45.006000) vcan0 00000005#9C9F410000000000 R
(45.007000) vcan0 00000006#00A0410000000000 R
(45.008000) vcan0 00000001#64A0410000000000 R
(45.009000) vcan0 00000002#C8A0410000000000 R
(45.010000) vcan0 00000003#2CA1410000000000 R
(45.011000) vcan0 00000004#90A1410000000000 R
(45.012000) vcan0 00000005#F4A1410000000000 R
(45.013000) vcan0 00000006#58A2410000000000 R
(45.014000) vcan0 00000001#BCA2410000000000 R
(45.015000) vcan0 00000002#20A3410000000000 R
(45.016000) vcan0 00000003#84A3410000000000 R
(45.017000) vcan0 00000004#E8A3410000000000 R
(45.018000) vcan0 00000005#4CA4410000000000 R
(45.019000) vcan0 00000006#B0A4410000000000 R
(45.020000) vcan0 00000001#14A5410000000000 R
(45.021000) vcan0 00000002#78A5410000000000 R
(45.022000) vcan0 00000003#DCA5410000000000 R
(45.023000) vcan0 00000004#40A6410000000000 R
(45.024000) vcan0 00000005#A4A6410000000000 R
(45.025000) vcan0 00000006#08A7410000000000 R
(45.026000) vcan0 00000001#6CA7410000000000 R
(45.027000) vcan0 00000002#D0A7410000000000 R
(45.028000) vcan0 00000003#34A8410000000000 R
(45.029000) vcan0 00000004#98A8410000000000 R
(45.030000) vcan0 00000005#FCA8410000000000 R
(45.031000) vcan0 00000006#60A9410000000000 R
(45.032000) vcan0 00000001#C4A9410000000000 R
(45.033000) vcan0 00000002#28AA410000000000 R
(45.034000) vcan0 00000003#8CAA410000000000 R
(45.035000) vcan0 00000004#F0AA410000000000 R
(45.036000) vcan0 00000005#54AB410000000000 R
(45.037000) vcan0 00000006#B8AB410000000000 R
(45.038000) vcan0 00000001#1CAC410000000000 R
(45.039000) vcan0 00000002#80AC410000000000 R
(45.040000) vcan0 00000003#E4AC410000000000 R
(45.041000) vcan0 00000004#48AD410000000000 R
(45.042000) vcan0 00000005#ACAD410000000000 R
(45.043000) vcan0 00000006#10AE410000000000 R
(45.044000) vcan0 00000001#74AE410000000000 R
(45.045000) vcan0 00000002#D8AE410000000000 R
(45.046000) vcan0 00000003#3CAF410000000000 R
(45.047000) vcan0 00000004#A0AF410000000000 R
(45.048000) vcan0 00000005#04B0410000000000 R
(45.049000) vcan0 00000006#68B0410000000000 R
(45.050000) vcan0 00000001#CCB0410000000000 R
(45.051000) vcan0 00000002#30B1410000000000 R
(45.052000) vcan0 00000003#94B1410000000000 R
(45.053000) vcan0 00000004#F8B1410000000000 R
(45.054000) vcan0 00000005#5CB2410000000000 R
(45.055000) vcan0 00000006#C0B2410000000000 R
(45.056000) vcan0 00000001#24B3410000000000 R
(45.057000) vcan0 00000002#88B3410000000000 R
(45.058000) vcan0 00000003#ECB3410000000000 R
(45.059000) vcan0 00000004#50B4410000000000 R
(45.060000) vcan0 00000005#B4B4410000000000 R
(45.061000) vcan0 00000006#18B5410000000000 R
(45.062000) vcan0 00000001#7CB5410000000000 R
(45.063000) vcan0 00000002#E0B5410000000000 R
(45.064000) vcan0 00000003#44B6410000000000 R
(45.065000) vcan0 00000004#A8B6410000000000 R
(45.066000) vcan0 00000005#0CB7410000000000 R
(45.067000) vcan0 00000006#70B7410000000000 R
(45.068000) vcan0 00000001#D4B7410000000000 R
(45.069000) vcan0 00000002#38B8410000000000 R
(45.070000) vcan0 00000003#9CB8410000000000 R
(45.071000) vcan0 00000004#00B9410000000000 R
(45.072000) vcan0 00000005#64B9410000000000 R
(45.073000) vcan0 00000006#C8B9410000000000 R
(45.074000) vcan0 00000001#2CBA410000000000 R
(45.075000) vcan0 00000002#90BA410000000000 R
(45.076000) vcan0 00000003#F4BA410000000000 R
(45.077000) vcan0 00000004#58BB410000000000 R
(45.078000) vcan0 00000005#BCBB410000000000 R
(45.079000) vcan0 00000006#20BC410000000000 R
(45.080000) vcan0 00000001#84BC410000000000 R
(45.081000) vcan0 00000002#E8BC410000000000 R
(45.082000) vcan0 00000003#4CBD410000000000 R
(45.083000) vcan0 00000004#B0BD410000000000 R
(45.084000) vcan0 00000005#14BE410000000000 R
(45.085000) vcan0 00000006#78BE410000000000 R
(45.086000) vcan0 00000001#DCBE410000000000 R
(45.087000) vcan0 00000002#40BF410000000000 R
(45.088000) vcan0 00000003#A4BF410000000000 R
(45.089000) vcan0 00000004#08C0410000000000 R
(45.090000) vcan0 00000005#6CC0410000000000 R
(45.091000) vcan0 00000006#D0C0410000000000 R
(45.092000) vcan0 00000001#34C1410000000000 R
(45.093000) vcan0 00000002#98C1410000000000 R
(45.094000) vcan0 00000003#FCC1410000000000 R
(45.095000) vcan0 00000004#60C2410000000000 R
(45.096000) vcan0 00000005#C4C2410000000000 R
(45.097000) vcan0 00000006#28C3410000000000 R
(45.098000) vcan0 00000001#8CC3410000000000 R
(45.099000) vcan0 00000002#F0C3410000000000 R
(45.100000) vcan0 00000003#54C4410000000000 R
(45.101000) vcan0 00000004#B8C4410000000000 R
(45.102000) vcan0 00000005#1CC5410000000000 R
(45.103000) vcan0 00000006#80C5410000000000 R
(45.104000) vcan0 00000001#E4C5410000000000 R
(45.105000) vcan0 00000002#48C6410000000000 R
(45.106000) vcan0 00000003#ACC6410000000000 R
(45.107000) vcan0 00000004#10C7410000000000 R
(45.108000) vcan0 00000005#74C7410000000000 R
(45.109000) vcan0 00000006#D8C7410000000000 R
(45.110000) vcan0 00000001#3CC8410000000000 R
(45.111000) vcan0 00000002#A0C8410000000000 R
(45.112000) vcan0 00000003#04C9410000000000 R
(45.113000) vcan0 00000004#68C9410000000000 R
(45.114000) vcan0 00000005#CCC9410000000000 R
(45.115000) vcan0 00000006#30CA410000000000 R
(45.116000) vcan0 00000001#94CA410000000000 R
(45.117000) vcan0 00000002#F8CA410000000000 R
(45.118000) vcan0 00000003#5CCB410000000000 R
(45.119000) vcan0 00000004#C0CB410000000000 R
(45.120000) vcan0 00000005#24CC410000000000 R
(45.121000) vcan0 00000006#88CC410000000000 R
(45.122000) vcan0 00000001#ECCC410000000000 R
(45.123000) vcan0 00000002#50CD410000000000 R
(45.124000) vcan0 00000003#B4CD410000000000 R
(45.125000) vcan0 00000004#18CE410000000000 R
(45.126000) vcan0 00000005#7CCE410000000000 R
(45.127000) vcan0 00000006#E0CE410000000000 R
(45.128000) vcan0 00000001#44CF410000000000 R
(45.129000) vcan0 00000002#A8CF410000000000 R
(45.130000) vcan0 00000003#0CD0410000000000 R
(45.131000) vcan0 00000004#70D0410000000000 R
(45.132000) vcan0 00000005#D4D0410000000000 R
(45.133000) vcan0 00000006#38D1410000000000 R
(45.134000) vcan0 00000001#9CD1410000000000 R
(45.135000) vcan0 00000002#00D2410000000000 R
(45.136000) vcan0 00000003#64D2410000000000 R
(45.137000) vcan0 00000004#C8D2410000000000 R
(45.138000) vcan0 00000005#2CD3410000000000 R
(45.139000) vcan0 00000006#90D3410000000000 R
(45.140000) vcan0 00000001#F4D3410000000000 R
(45.141000) vcan0 00000002#58D4410000000000 R
(45.142000) vcan0 00000003#BCD4410000000000 R
(45.143000) vcan0 00000004#20D5410000000000 R
(45.144000) vcan0 00000005#84D5410000000000 R
(45.145000) vcan0 00000006#E8D5410000000000 R
(45.146000) vcan0 00000001#4CD6410000000000 R
(45.147000) vcan0 00000002#B0D6410000000000 R
(45.148000) vcan0 00000003#14D7410000000000 R
(45.149000) vcan0 00000004#78D7410000000000 R
(45.150000) vcan0 00000005#DCD7410000000000 R
(45.151000) vcan0 00000006#40D8410000000000 R
(45.152000) vcan0 00000001#A4D8410000000000 R
(45.153000) vcan0 00000002#08D9410000000000 R
(45.154000) vcan0 00000003#6CD9410000000000 R
(45.155000) vcan0 00000004#D0D9410000000000 R
(45.156000) vcan0 00000005#34DA410000000000 R
(45.157000) vcan0 00000006#98DA410000000000 R
(45.158000) vcan0 00000001#FCDA410000000000 R
(45.159000) vcan0 00000002#60DB410000000000 R
(45.160000) vcan0 00000003#C4DB410000000000 R
(45.161000) vcan0 00000004#28DC410000000000 R
(45.162000) vcan0 00000005#8CDC410000000000 R
(45.163000) vcan0 00000006#F0DC410000000000 R
(45.164000) vcan0 00000001#54DD410000000000 R
(45.165000) vcan0 00000002#B8DD410000000000 R
(45.166000) vcan0 00000003#1CDE410000000000 R
(45.167000) vcan0 00000004#80DE410000000000 R
(45.168000) vcan0 00000005#E4DE410000000000 R
(45.169000) vcan0 00000006#48DF410000000000 R
(45.170000) vcan0 00000001#ACDF410000000000 R
(45.171000) vcan0 00000002#10E0410000000000 R
(45.172000) vcan0 00000003#74E0410000000000 R
(45.173000) vcan0 00000004#D8E0410000000000 R
(45.174000) vcan0 00000005#3CE1410000000000 R
(45.175000) vcan0 00000006#A0E1410000000000 R
(45.176000) vcan0 00000001#04E2410000000000 R
(45.177000) vcan0 00000002#68E2410000000000 R
(45.178000) vcan0 00000003#CCE2410000000000 R
(45.179000) vcan0 00000004#30E3410000000000 R
(45.180000) vcan0 00000005#94E3410000000000 R
(45.181000) vcan0 00000006#F8E3410000000000 R
(45.182000) vcan0 00000001#5CE4410000000000 R
(45.183000) vcan0 00000002#C0E4410000000000 R
(45.184000) vcan0 00000003#24E5410000000000 R
(45.185000) vcan0 00000004#88E5410000000000 R
(45.186000) vcan0 00000005#ECE5410000000000 R
(45.187000) vcan0 00000006#50E6410000000000 R
(45.188000) vcan0 00000001#B4E6410000000000 R
(45.189000) vcan0 00000002#18E7410000000000 R
(45.190000) vcan0 00000003#7CE7410000000000 R
(45.191000) vcan0 00000004#E0E7410000000000 R
(45.192000) vcan0 00000005#44E8410000000000 R
(45.193000) vcan0 00000006#A8E8410000000000 R
(45.194000) vcan0 00000001#0CE9410000000000 R
(45.195000) vcan0 00000002#70E9410000000000 R
(45.196000) vcan0 00000003#D4E9410000000000 R
(45.197000) vcan0 00000004#38EA410000000000 R
(45.198000) vcan0 00000005#9CEA410000000000 R
(45.199000) vcan0 00000006#00EB410000000000 R
(45.200000) vcan0 00000001#64EB410000000000 R
(45.201000) vcan0 00000002#C8EB410000000000 R
(45.202000) vcan0 00000003#2CEC410000000000 R
(45.203000) vcan0 00000004#90EC410000000000 R
(45.204000) vcan0 00000005#F4EC410000000000 R
(45.205000) vcan0 00000006#58ED410000000000 R
(45.206000) vcan0 00000001#BCED410000000000 R
(45.207000) vcan0 00000002#20EE410000000000 R
(45.208000) vcan0 00000003#84EE410000000000 R
(45.209000) vcan0 00000004#E8EE410000000000 R
(45.210000) vcan0 00000005#4CEF410000000000 R
(45.211000) vcan0 00000006#B0EF410000000000 R
(45.212000) vcan0 00000001#14F0410000000000 R
(45.213000) vcan0 00000002#78F0410000000000 R
(45.214000) vcan0 00000003#DCF0410000000000 R
(45.215000) vcan0 00000004#40F1410000000000 R
(45.216000) vcan0 00000005#A4F1410000000000 R
(45.217000) vcan0 00000006#08F2410000000000 R
(45.218000) vcan0 00000001#6CF2410000000000 R
(45.219000) vcan0 00000002#D0F2410000000000 R
(45.220000) vcan0 00000003#34F3410000000000 R
(45.221000) vcan0 00000004#98F3410000000000 R
(45.222000) vcan0 00000005#FCF3410000000000 R
(45.223000) vcan0 00000006#60F4410000000000 R
(45.224000) vcan0 00000001#C4F4410000000000 R
(45.225000) vcan0 00000002#28F5410000000000 R
(45.226000) vcan0 00000003#8CF5410000000000 R
(45.227000) vcan0 00000004#F0F5410000000000 R
(45.228000) vcan0 00000005#54F6410000000000 R
(45.229000) vcan0 00000006#B8F6410000000000 R
(45.230000) vcan0 00000001#1CF7410000000000 R
(45.231000) vcan0 00000002#80F7410000000000 R
(45.232000) vcan0 00000003#E4F7410000000000 R
(45.233000) vcan0 00000004#48F8410000000000 R
(45.234000) vcan0 00000005#ACF8410000000000 R
(45.235000) vcan0 00000006#10F9410000000000 R
(45.236000) vcan0 00000001#74F9410000000000 R
(45.237000) vcan0 00000002#D8F9410000000000 R
(45.238000) vcan0 00000003#3CFA410000000000 R
(45.239000) vcan0 00000004#A0FA410000000000 R
(45.240000) vcan0 00000005#04FB410000000000 R
(45.241000) vcan0 00000006#68FB410000000000 R
(45.242000) vcan0 00000001#CCFB410000000000 R
(45.243000) vcan0 00000002#30FC410000000000 R
(45.244000) vcan0 00000003#94FC410000000000 R
(45.245000) vcan0 00000004#F8FC410000000000 R
(45.246000) vcan0 00000005#5CFD410000000000 R
(45.247000) vcan0 00000006#C0FD410000000000 R
(45.248000) vcan0 00000001#24FE410000000000 R
(45.249000) vcan0 00000002#88FE410000000000 R
(45.250000) vcan0 00000003#ECFE410000000000 R
(45.251000) vcan0 00000004#50FF410000000000 R
(45.252000) vcan0 00000005#B4FF410000000000 R
(45.253000) vcan0 00000006#1800420000000000 R
(45.254000) vcan0 00000001#7C00420000000000 R
(45.255000) vcan0 00000002#E000420000000000 R
(45.256000) vcan0 00000003#4401420000000000 R
(45.257000) vcan0 00000004#A801420000000000 R
(45.258000) vcan0 00000005#0C02420000000000 R
(45.259000) vcan0 00000006#7002420000000000 R
(45.260000) vcan0 00000001#D402420000000000 R
(45.261000) vcan0 00000002#3803420000000000 R
(45.262000) vcan0 00000003#9C03420000000000 R
(45.263000) vcan0 00000004#0004420000000000 R
(45.264000) vcan0 00000005#6404420000000000 R
(45.265000) vcan0 00000006#C804420000000000 R
(45.266000) vcan0 00000001#2C05420000000000 R
(45.267000) vcan0 00000002#9005420000000000 R
(45.268000) vcan0 00000003#F405420000000000 R
(45.269000) vcan0 00000004#5806420000000000 R
(45.270000) vcan0 00000005#BC06420000000000 R
(45.271000) vcan0 00000006#2007420000000000 R
(45.272000) vcan0 00000001#8407420000000000 R
(45.273000) vcan0 00000002#E807420000000000 R
(45.274000) vcan0 00000003#4C08420000000000 R
(45.275000) vcan0 00000004#B008420000000000 R
(45.276000) vcan0 00000005#1409420000000000 R
(45.277000) vcan0 00000006#7809420000000000 R
(45.278000) vcan0 00000001#DC09420000000000 R
(45.279000) vcan0 00000002#400A420000000000 R
(45.280000) vcan0 00000003#A40A420000000000 R
(45.281000) vcan0 00000004#080B420000000000 R
(45.282000) vcan0 00000005#6C0B420000000000 R
(45.283000) vcan0 00000006#D00B420000000000 R
(45.284000) vcan0 00000001#340C420000000000 R
(45.285000) vcan0 00000002#980C420000000000 R
(45.286000) vcan0 00000003#FC0C420000000000 R
(45.287000) vcan0 00000004#600D420000000000 R
(45.288000) vcan0 00000005#C40D420000000000 R
(45.289000) vcan0 00000006#280E420000000000 R
(45.290000) vcan0 00000001#8C0E420000000000 R
(45.291000) vcan0 00000002#F00E420000000000 R
(45.292000) vcan0 00000003#540F420000000000 R
(45.293000) vcan0 00000004#B80F420000000000 R
(45.294000) vcan0 00000005#1C10420000000000 R
(45.295000) vcan0 00000006#8010420000000000 R
(45.296000) vcan0 00000001#E410420000000000 R
(45.297000) vcan0 00000002#4811420000000000 R
(45.298000) vcan0 00000003#AC11420000000000 R
(45.299000) vcan0 00000004#1012420000000000 R
(45.300000) vcan0 00000005#7412420000000000 R
(45.301000) vcan0 00000006#D812420000000000 R
(45.302000) vcan0 00000001#3C13420000000000 R
(45.303000) vcan0 00000002#A013420000000000 R
(45.304000) vcan0 00000003#0414420000000000 R
(45.305000) vcan0 00000004#6814420000000000 R
(45.306000) vcan0 00000005#CC14420000000000 R
(45.307000) vcan0 00000006#3015420000000000 R
(45.308000) vcan0 00000001#9415420000000000 R
(45.309000) vcan0 00000002#F815420000000000 R
(45.310000) vcan0 00000003#5C16420000000000 R
(45.311000) vcan0 00000004#C016420000000000 R
(45.312000) vcan0 00000005#2417420000000000 R
(45.313000) vcan0 00000006#8817420000000000 R
(45.314000) vcan0 00000001#EC17420000000000 R
(45.315000) vcan0 00000002#5018420000000000 R
(45.316000) vcan0 00000003#B418420000000000 R
(45.317000) vcan0 00000004#1819420000000000 R
(45.318000) vcan0 00000005#7C19420000000000 R
(45.319000) vcan0 00000006#E019420000000000 R
(45.320000) vcan0 00000001#441A420000000000 R
(45.321000) vcan0 00000002#A81A420000000000 R
(45.322000) vcan0 00000003#0C1B420000000000 R
(45.323000) vcan0 00000004#701B420000000000 R
(45.324000) vcan0 00000005#D41B420000000000 R
(45.325000) vcan0 00000006#381C420000000000 R
(45.326000) vcan0 00000001#9C1C420000000000 R
(45.327000) vcan0 00000002#001D420000000000 R
(45.328000) vcan0 00000003#641D420000000000 R
(45.329000) vcan0 00000004#C81D420000000000 R
(45.330000) vcan0 00000005#2C1E420000000000 R
(45.331000) vcan0 00000006#901E420000000000 R
(45.332000) vcan0 00000001#F41E420000000000 R
(45.333000) vcan0 00000002#581F420000000000 R
(45.334000) vcan0 00000003#BC1F420000000000 R
(45.335000) vcan0 00000004#2020420000000000 R
(45.336000) vcan0 00000005#8420420000000000 R
(45.337000) vcan0 00000006#E820420000000000 R
(45.338000) vcan0 00000001#4C21420000000000 R
(45.339000) vcan0 00000002#B021420000000000 R
(45.340000) vcan0 00000003#1422420000000000 R
(45.341000) vcan0 00000004#7822420000000000 R
(45.342000) vcan0 00000005#DC22420000000000 R
(45.343000) vcan0 00000006#4023420000000000 R
(45.344000) vcan0 00000001#A423420000000000 R
(45.345000) vcan0 00000002#0824420000000000 R
(45.346000) vcan0 00000003#6C24420000000000 R
(45.347000) vcan0 00000004#D024420000000000 R
(45.348000) vcan0 00000005#3425420000000000 R
(45.349000) vcan0 00000006#9825420000000000 R
(45.350000) vcan0 00000001#FC25420000000000 R
(45.351000) vcan0 00000002#6026420000000000 R
(45.352000) vcan0 00000003#C426420000000000 R
(45.353000) vcan0 00000004#2827420000000000 R
(45.354000) vcan0 00000005#8C27420000000000 R
(45.355000) vcan0 00000006#F027420000000000 R
(45.356000) vcan0 00000001#5428420000000000 R
(45.357000) vcan0 00000002#B828420000000000 R
(45.358000) vcan0 00000003#1C29420000000000 R
(45.359000) vcan0 00000004#8029420000000000 R
(45.360000) vcan0 00000005#E429420000000000 R
(45.361000) vcan0 00000006#482A420000000000 R
(45.362000) vcan0 00000001#AC2A420000000000 R
(45.363000) vcan0 00000002#102B420000000000 R
(45.364000) vcan0 00000003#742B420000000000 R
(45.365000) vcan0 00000004#D82B420000000000 R
(45.366000) vcan0 00000005#3C2C420000000000 R
(45.367000) vcan0 00000006#A02C420000000000 R
(45.368000) vcan0 00000001#042D420000000000 R
(45.369000) vcan0 00000002#682D420000000000 R
(45.370000) vcan0 00000003#CC2D420000000000 R
(45.371000) vcan0 00000004#302E420000000000 R
(45.372000) vcan0 00000005#942E420000000000 R
(45.373000) vcan0 00000006#F82E420000000000 R
(45.374000) vcan0 00000001#5C2F420000000000 R
(45.375000) vcan0 00000002#C02F420000000000 R
(45.376000) vcan0 00000003#2430420000000000 R
(45.377000) vcan0 00000004#8830420000000000 R
(45.378000) vcan0 00000005#EC30420000000000 R
(45.379000) vcan0 00000006#5031420000000000 R
(45.380000) vcan0 00000001#B431420000000000 R
(45.381000) vcan0 00000002#1832420000000000 R
(45.382000) vcan0 00000003#7C32420000000000 R
(45.383000) vcan0 00000004#E032420000000000 R
(45.384000) vcan0 00000005#4433420000000000 R
(45.385000) vcan0 00000006#A833420000000000 R
(45.386000) vcan0 00000001#0C34420000000000 R
(45.387000) vcan0 00000002#7034420000000000 R
(45.388000) vcan0 00000003#D434420000000000 R
(45.389000) vcan0 00000004#3835420000000000 R
(45.390000) vcan0 00000005#9C35420000000000 R
(45.391000) vcan0 00000006#0036420000000000 R
(45.392000) vcan0 00000001#6436420000000000 R
(45.393000) vcan0 00000002#C836420000000000 R
(45.394000) vcan0 00000003#2C37420000000000 R
(45.395000) vcan0 00000004#9037420000000000 R
(45.396000) vcan0 00000005#F437420000000000 R
(45.397000) vcan0 00000006#5838420000000000 R
(45.398000) vcan0 00000001#BC38420000000000 R
(45.399000) vcan0 00000002#2039420000000000 R
(45.400000) vcan0 00000003#8439420000000000 R
(45.401000) vcan0 00000004#E839420000000000 R
(45.402000) vcan0 00000005#4C3A420000000000 R
(45.403000) vcan0 00000006#B03A420000000000 R
(45.404000) vcan0 00000001#143B420000000000 R
(45.405000) vcan0 00000002#783B420000000000 R
(45.406000) vcan0 00000003#DC3B420000000000 R
(45.407000) vcan0 00000004#403C420000000000 R
(45.408000) vcan0 00000005#A43C420000000000 R
(45.409000) vcan0 00000006#083D420000000000 R
(45.410000) vcan0 00000001#6C3D420000000000 R
(45.411000) vcan0 00000002#D03D420000000000 R
(45.412000) vcan0 00000003#343E420000000000 R
(45.413000) vcan0 00000004#983E420000000000 R
(45.414000) vcan0 00000005#FC3E420000000000 R
(45.415000) vcan0 00000006#603F420000000000 R
(45.416000) vcan0 00000001#C43F420000000000 R
(45.417000) vcan0 00000002#2840420000000000 R
(45.418000) vcan0 00000003#8C40420000000000 R
(45.419000) vcan0 00000004#F040420000000000 R
(45.420000) vcan0 00000005#5441420000000000 R
(45.421000) vcan0 00000006#B841420000000000 R
(45.422000) vcan0 00000001#1C42420000000000 R
(45.423000) vcan0 00000002#8042420000000000 R
(45.424000) vcan0 00000003#E442420000000000 R
(45.425000) vcan0 00000004#4843420000000000 R
(45.426000) vcan0 00000005#AC43420000000000 R
(45.427000) vcan0 00000006#1044420000000000 R
(45.428000) vcan0 00000001#7444420000000000 R
(45.429000) vcan0 00000002#D844420000000000 R
(45.430000) vcan0 00000003#3C45420000000000 R
(45.431000) vcan0 00000004#A045420000000000 R
(45.432000) vcan0 00000005#0446420000000000 R
(45.433000) vcan0 00000006#6846420000000000 R
(45.434000) vcan0 00000001#CC46420000000000 R
(45.435000) vcan0 00000002#3047420000000000 R
(45.436000) vcan0 00000003#9447420000000000 R
(45.437000) vcan0 00000004#F847420000000000 R
(45.438000) vcan0 00000005#5C48420000000000 R
(45.439000) vcan0 00000006#C048420000000000 R
(45.440000) vcan0 00000001#2449420000000000 R
(45.441000) vcan0 00000002#8849420000000000 R
(45.442000) vcan0 00000003#EC49420000000000 R
(45.443000) vcan0 00000004#504A420000000000 R
(45.444000) vcan0 00000005#B44A420000000000 R
(45.445000) vcan0 00000006#184B420000000000 R
(45.446000) vcan0 00000001#7C4B420000000000 R
(45.447000) vcan0 00000002#E04B420000000000 R
(45.448000) vcan0 00000003#444C420000000000 R
(45.449000) vcan0 00000004#A84C420000000000 R
(45.450000) vcan0 00000005#0C4D420000000000 R
(45.451000) vcan0 00000006#704D420000000000 R
(45.452000) vcan0 00000001#D44D420000000000 R
(45.453000) vcan0 00000002#384E420000000000 R
(45.454000) vcan0 00000003#9C4E420000000000 R
(45.455000) vcan0 00000004#004F420000000000 R
(45.456000) vcan0 00000005#644F420000000000 R
(45.457000) vcan0 00000006#C84F420000000000 R
(45.458000) vcan0 00000001#2C50420000000000 R
(45.459000) vcan0 00000002#9050420000000000 R
(45.460000) vcan0 00000003#F450420000000000 R
(45.461000) vcan0 00000004#5851420000000000 R
(45.462000) vcan0 00000005#BC51420000000000 R
(45.463000) vcan0 00000006#2052420000000000 R
(45.464000) vcan0 00000001#8452420000000000 R
(45.465000) vcan0 00000002#E852420000000000 R
(45.466000) vcan0 00000003#4C53420000000000 R
(45.467000) vcan0 00000004#B053420000000000 R
(45.468000) vcan0 00000005#1454420000000000 R
(45.469000) vcan0 00000006#7854420000000000 R
(45.470000) vcan0 00000001#DC54420000000000 R
(45.471000) vcan0 00000002#4055420000000000 R
(45.472000) vcan0 00000003#A455420000000000 R
(45.473000) vcan0 00000004#0856420000000000 R
(45.474000) vcan0 00000005#6C56420000000000 R
(45.475000) vcan0 00000006#D056420000000000 R
(45.476000) vcan0 00000001#3457420000000000 R
(45.477000) vcan0 00000002#9857420000000000 R
(45.478000) vcan0 00000003#FC57420000000000 R
(45.479000) vcan0 00000004#6058420000000000 R
(45.480000) vcan0 00000005#C458420000000000 R
(45.481000) vcan0 00000006#2859420000000000 R
(45.482000) vcan0 00000001#8C59420000000000 R
(45.483000) vcan0 00000002#F059420000000000 R
(45.484000) vcan0 00000003#545A420000000000 R
(45.485000) vcan0 00000004#B85A420000000000 R
(45.486000) vcan0 00000005#1C5B420000000000 R
(45.487000) vcan0 00000006#805B420000000000 R
(45.488000) vcan0 00000001#E45B420000000000 R
(45.489000) vcan0 00000002#485C420000000000 R
(45.490000) vcan0 00000003#AC5C420000000000 R
(45.491000) vcan0 00000004#105D420000000000 R
(45.492000) vcan0 00000005#745D420000000000 R
(45.493000) vcan0 00000006#D85D420000000000 R
(45.494000) vcan0 00000001#3C5E420000000000 R
(45.495000) vcan0 00000002#A05E420000000000 R
(45.496000) vcan0 00000003#045F420000000000 R
(45.497000) vcan0 00000004#685F420000000000 R
(45.498000) vcan0 00000005#CC5F420000000000 R
(45.499000) vcan0 00000006#3060420000000000 R
(45.500000) vcan0 00000001#9460420000000000 R
(45.501000) vcan0 00000002#F860420000000000 R
(45.502000) vcan0 00000003#5C61420000000000 R
(45.503000) vcan0 00000004#C061420000000000 R
(45.504000) vcan0 00000005#2462420000000000 R
(45.505000) vcan0 00000006#8862420000000000 R
(45.506000) vcan0 00000001#EC62420000000000 R
(45.507000) vcan0 00000002#5063420000000000 R
(45.508000) vcan0 00000003#B463420000000000 R
(45.509000) vcan0 00000004#1864420000000000 R
(45.510000) vcan0 00000005#7C64420000000000 R
(45.511000) vcan0 00000006#E064420000000000 R
(45.512000) vcan0 00000001#4465420000000000 R
(45.513000) vcan0 00000002#A865420000000000 R
(45.514000) vcan0 00000003#0C66420000000000 R
(45.515000) vcan0 00000004#7066420000000000 R
(45.516000) vcan0 00000005#D466420000000000 R
(45.517000) vcan0 00000006#3867420000000000 R
(45.518000) vcan0 00000001#9C67420000000000 R
(45.519000) vcan0 00000002#0068420000000000 R
(45.520000) vcan0 00000003#6468420000000000 R
(45.521000) vcan0 00000004#C868420000000000 R
(45.522000) vcan0 00000005#2C69420000000000 R
(45.523000) vcan0 00000006#9069420000000000 R
(45.524000) vcan0 00000001#F469420000000000 R
(45.525000) vcan0 00000002#586A420000000000 R
(45.526000) vcan0 00000003#BC6A420000000000 R
(45.527000) vcan0 00000004#206B420000000000 R
(45.528000) vcan0 00000005#846B420000000000 R
(45.529000) vcan0 00000006#E86B420000000000 R
(45.530000) vcan0 00000001#4C6C420000000000 R
(45.531000) vcan0 00000002#B06C420000000000 R
(45.532000) vcan0 00000003#146D420000000000 R
(45.533000) vcan0 00000004#786D420000000000 R
(45.534000) vcan0 00000005#DC6D420000000000 R
(45.535000) vcan0 00000006#406E420000000000 R
(45.536000) vcan0 00000001#A46E420000000000 R
(45.537000) vcan0 00000002#086F420000000000 R
(45.538000) vcan0 00000003#6C6F420000000000 R
(45.539000) vcan0 00000004#D06F420000000000 R
(45.540000) vcan0 00000005#3470420000000000 R
(45.541000) vcan0 00000006#9870420000000000 R
(45.542000) vcan0 00000001#FC70420000000000 R
(45.543000) vcan0 00000002#6071420000000000 R
(45.544000) vcan0 00000003#C471420000000000 R
(45.545000) vcan0 00000004#2872420000000000 R
(45.546000) vcan0 00000005#8C72420000000000 R
(45.547000) vcan0 00000006#F072420000000000 R
(45.548000) vcan0 00000001#5473420000000000 R
(45.549000) vcan0 00000002#B873420000000000 R
(45.550000) vcan0 00000003#1C74420000000000 R
(45.551000) vcan0 00000004#8074420000000000 R
(45.552000) vcan0 00000005#E474420000000000 R
(45.553000) vcan0 00000006#4875420000000000 R
(45.554000) vcan0 00000001#AC75420000000000 R
(45.555000) vcan0 00000002#1076420000000000 R
(45.556000) vcan0 00000003#7476420000000000 R
(45.557000) vcan0 00000004#D876420000000000 R
(45.558000) vcan0 00000005#3C77420000000000 R
(45.559000) vcan0 00000006#A077420000000000 R
(45.560000) vcan0 00000001#0478420000000000 R
(45.561000) vcan0 00000002#6878420000000000 R
(45.562000) vcan0 00000003#CC78420000000000 R
(45.563000) vcan0 00000004#3079420000000000 R
(45.564000) vcan0 00000005#9479420000000000 R
(45.565000) vcan0 00000006#F879420000000000 R
(45.566000) vcan0 00000001#5C7A420000000000 R
(45.567000) vcan0 00000002#C07A420000000000 R
(45.568000) vcan0 00000003#247B420000000000 R
(45.569000) vcan0 00000004#887B420000000000 R
(45.570000) vcan0 00000005#EC7B420000000000 R
(45.571000) vcan0 00000006#507C420000000000 R
(45.572000) vcan0 00000001#B47C420000000000 R
(45.573000) vcan0 00000002#187D420000000000 R
(45.574000) vcan0 00000003#7C7D420000000000 R
(45.575000) vcan0 00000004#E07D420000000000 R
(45.576000) vcan0 00000005#447E420000000000 R
(45.577000) vcan0 00000006#A87E420000000000 R
(45.578000) vcan0 00000001#0C7F420000000000 R
(45.579000) vcan0 00000002#707F420000000000 R
(45.580000) vcan0 00000003#D47F420000000000 R
(45.581000) vcan0 00000004#3880420000000000 R
(45.582000) vcan0 00000005#9C80420000000000 R
(45.583000) vcan0 00000006#0081420000000000 R
(45.584000) vcan0 00000001#6481420000000000 R
(45.585000) vcan0 00000002#C881420000000000 R
(45.586000) vcan0 00000003#2C82420000000000 R
(45.587000) vcan0 00000004#9082420000000000 R
(45.588000) vcan0 00000005#F482420000000000 R
(45.589000) vcan0 00000006#5883420000000000 R
(45.590000) vcan0 00000001#BC83420000000000 R
(45.591000) vcan0 00000002#2084420000000000 R
(45.592000) vcan0 00000003#8484420000000000 R
(45.593000) vcan0 00000004#E884420000000000 R
(45.594000) vcan0 00000005#4C85420000000000 R
(45.595000) vcan0 00000006#B085420000000000 R
(45.596000) vcan0 00000001#1486420000000000 R
(45.597000) vcan0 00000002#7886420000000000 R
(45.598000) vcan0 00000003#DC86420000000000 R
(45.599000) vcan0 00000004#4087420000000000 R
(45.600000) vcan0 00000005#A487420000000000 R
(45.601000) vcan0 00000006#0888420000000000 R
(45.602000) vcan0 00000001#6C88420000000000 R
(45.603000) vcan0 00000002#D088420000000000 R
(45.604000) vcan0 00000003#3489420000000000 R
(45.605000) vcan0 00000004#9889420000000000 R
(45.606000) vcan0 00000005#FC89420000000000 R
(45.607000) vcan0 00000006#608A420000000000 R
(45.608000) vcan0 00000001#C48A420000000000 R
(45.609000) vcan0 00000002#288B420000000000 R
(45.610000) vcan0 00000003#8C8B420000000000 R
(45.611000) vcan0 00000004#F08B420000000000 R
(45.612000) vcan0 00000005#548C420000000000 R
(45.613000) vcan0 00000006#B88C420000000000 R
(45.614000) vcan0 00000001#1C8D420000000000 R
(45.615000) vcan0 00000002#808D420000000000 R
(45.616000) vcan0 00000003#E48D420000000000 R
(45.617000) vcan0 00000004#488E420000000000 R
(45.618000) vcan0 00000005#AC8E420000000000 R
(45.619000) vcan0 00000006#108F420000000000 R
(45.620000) vcan0 00000001#748F420000000000 R
(45.621000) vcan0 00000002#D88F420000000000 R
(45.622000) vcan0 00000003#3C90420000000000 R
(45.623000) vcan0 00000004#A090420000000000 R
(45.624000) vcan0 00000005#0491420000000000 R
(45.625000) vcan0 00000006#6891420000000000 R
(45.626000) vcan0 00000001#CC91420000000000 R
(45.627000) vcan0 00000002#3092420000000000 R
(45.628000) vcan0 00000003#9492420000000000 R
(45.629000) vcan0 00000004#F892420000000000 R
(45.630000) vcan0 00000005#5C93420000000000 R
(45.631000) vcan0 00000006#C093420000000000 R
(45.632000) vcan0 00000001#2494420000000000 R
(45.633000) vcan0 00000002#8894420000000000 R
(45.634000) vcan0 00000003#EC94420000000000 R
(45.635000) vcan0 00000004#5095420000000000 R
(45.636000) vcan0 00000005#B495420000000000 R
(45.637000) vcan0 00000006#1896420000000000 R
(45.638000) vcan0 00000001#7C96420000000000 R
(45.639000) vcan0 00000002#E096420000000000 R
(45.640000) vcan0 00000003#4497420000000000 R
(45.641000) vcan0 00000004#A897420000000000 R
(45.642000) vcan0 00000005#0C98420000000000 R
(45.643000) vcan0 00000006#7098420000000000 R
(45.644000) vcan0 00000001#D498420000000000 R
(45.645000) vcan0 00000002#3899420000000000 R
(45.646000) vcan0 00000003#9C99420000000000 R
(45.647000) vcan0 00000004#009A420000000000 R
(45.648000) vcan0 00000005#649A420000000000 R
(45.649000) vcan0 00000006#C89A420000000000 R
(45.650000) vcan0 00000001#2C9B420000000000 R
(45.651000) vcan0 00000002#909B420000000000 R
(45.652000) vcan0 00000003#F49B420000000000 R
(45.653000) vcan0 00000004#589C420000000000 R
(45.654000) vcan0 00000005#BC9C420000000000 R
(45.655000) vcan0 00000006#209D420000000000 R
(45.656000) vcan0 00000001#849D420000000000 R
(45.657000) vcan0 00000002#E89D420000000000 R
(45.658000) vcan0 00000003#4C9E420000000000 R
(45.659000) vcan0 00000004#B09E420000000000 R
(45.660000) vcan0 00000005#149F420000000000 R
(45.661000) vcan0 00000006#789F420000000000 R
(45.662000) vcan0 00000001#DC9F420000000000 R
(45.663000) vcan0 00000002#40A0420000000000 R
(45.664000) vcan0 00000003#A4A0420000000000 R
(45.665000) vcan0 00000004#08A1420000000000 R
(45.666000) vcan0 00000005#6CA1420000000000 R
(45.667000) vcan0 00000006#D0A1420000000000 R
(45.668000) vcan0 00000001#34A2420000000000 R
(45.669000) vcan0 00000002#98A2420000000000 R
(45.670000) vcan0 00000003#FCA2420000000000 R
(45.671000) vcan0 00000004#60A3420000000000 R
(45.672000) vcan0 00000005#C4A3420000000000 R
(45.673000) vcan0 00000006#28A4420000000000 R
(45.674000) vcan0 00000001#8CA4420000000000 R
(45.675000) vcan0 00000002#F0A4420000000000 R
(45.676000) vcan0 00000003#54A5420000000000 R
(45.677000) vcan0 00000004#B8A5420000000000 R
(45.678000) vcan0 00000005#1CA6420000000000 R
(45.679000) vcan0 00000006#80A6420000000000 R
(45.680000) vcan0 00000001#E4A6420000000000 R
(45.681000) vcan0 00000002#48A7420000000000 R
(45.682000) vcan0 00000003#ACA7420000000000 R
(45.683000) vcan0 00000004#10A8420000000000 R
(45.684000) vcan0 00000005#74A8420000000000 R
(45.685000) vcan0 00000006#D8A8420000000000 R
(45.686000) vcan0 00000001#3CA9420000000000 R
(45.687000) vcan0 00000002#A0A9420000000000 R
(45.688000) vcan0 00000003#04AA420000000000 R
(45.689000) vcan0 00000004#68AA420000000000 R
(45.690000) vcan0 00000005#CCAA420000000000 R
(45.691000) vcan0 00000006#30AB420000000000 R
(45.692000) vcan0 00000001#94AB420000000000 R
(45.693000) vcan0 00000002#F8AB420000000000 R
(45.694000) vcan0 00000003#5CAC420000000000 R
(45.695000) vcan0 00000004#C0AC420000000000 R
(45.696000) vcan0 00000005#24AD420000000000 R
(45.697000) vcan0 00000006#88AD420000000000 R
(45.698000) vcan0 00000001#ECAD420000000000 R
(45.699000) vcan0 00000002#50AE420000000000 R
(45.700000) vcan0 00000003#B4AE420000000000 R
(45.701000) vcan0 00000004#18AF420000000000 R
(45.702000) vcan0 00000005#7CAF420000000000 R
(45.703000) vcan0 00000006#E0AF420000000000 R
(45.704000) vcan0 00000001#44B0420000000000 R
(45.705000) vcan0 00000002#A8B0420000000000 R
(45.706000) vcan0 00000003#0CB1420000000000 R
(45.707000) vcan0 00000004#70B1420000000000 R
(45.708000) vcan0 00000005#D4B1420000000000 R
(45.709000) vcan0 00000006#38B2420000000000 R
(45.710000) vcan0 00000001#9CB2420000000000 R
(45.711000) vcan0 00000002#00B3420000000000 R
(45.712000) vcan0 00000003#64B3420000000000 R
(45.713000) vcan0 00000004#C8B3420000000000 R
(45.714000) vcan0 00000005#2CB4420000000000 R
(45.715000) vcan0 00000006#90B4420000000000 R
(45.716000) vcan0 00000001#F4B4420000000000 R
(45.717000) vcan0 00000002#58B5420000000000 R
(45.718000) vcan0 00000003#BCB5420000000000 R
(45.719000) vcan0 00000004#20B6420000000000 R
(45.720000) vcan0 00000005#84B6420000000000 R
(45.721000) vcan0 00000006#E8B6420000000000 R
(45.722000) vcan0 00000001#4CB7420000000000 R
(45.723000) vcan0 00000002#B0B7420000000000 R
(45.724000) vcan0 00000003#14B8420000000000 R
(45.725000) vcan0 00000004#78B8420000000000 R
(45.726000) vcan0 00000005#DCB8420000000000 R
(45.727000) vcan0 00000006#40B9420000000000 R
(45.728000) vcan0 00000001#A4B9420000000000 R
(45.729000) vcan0 00000002#08BA420000000000 R
(45.730000) vcan0 00000003#6CBA420000000000 R
(45.731000) vcan0 00000004#D0BA420000000000 R
(45.732000) vcan0 00000005#34BB420000000000 R
(45.733000) vcan0 00000006#98BB420000000000 R
(45.734000) vcan0 00000001#FCBB420000000000 R
(45.735000) vcan0 00000002#60BC420000000000 R
(45.736000) vcan0 00000003#C4BC420000000000 R
(45.737000) vcan0 00000004#28BD420000000000 R
(45.738000) vcan0 00000005#8CBD420000000000 R
(45.739000) vcan0 00000006#F0BD420000000000 R
(45.740000) vcan0 00000001#54BE420000000000 R
(45.741000) vcan0 00000002#B8BE420000000000 R
(45.742000) vcan0 00000003#1CBF420000000000 R
(45.743000) vcan0 00000004#80BF420000000000 R
(45.744000) vcan0 00000005#E4BF420000000000 R
(45.745000) vcan0 00000006#48C0420000000000 R
(45.746000) vcan0 00000001#ACC0420000000000 R
(45.747000) vcan0 00000002#10C1420000000000 R
(45.748000) vcan0 00000003#74C1420000000000 R
(45.749000) vcan0 00000004#D8C1420000000000 R
(45.750000) vcan0 00000005#3CC2420000000000 R
(45.751000) vcan0 00000006#A0C2420000000000 R
(45.752000) vcan0 00000001#04C3420000000000 R
(45.753000) vcan0 00000002#68C3420000000000 R
(45.754000) vcan0 00000003#CCC3420000000000 R
(45.755000) vcan0 00000004#30C4420000000000 R
(45.756000) vcan0 00000005#94C4420000000000 R
(45.757000) vcan0 00000006#F8C4420000000000 R
