(2203090.501000) vcan0 00000001#53A957 R
(2203090.745000) vcan0 00000002#54AA58 R
(2203090.981000) vcan0 00000001#005559 R
(2203091.219000) vcan0 00000002#01565A R
(2203091.455000) vcan0 00000001#02575B R
(2203098.618000) vcan0 00000001#207579 R
(2203098.861000) vcan0 00000002#21767A R
(2203099.097000) vcan0 00000001#22777B R
(2203099.335000) vcan0 00000002#23787C R
(2203099.571000) vcan0 00000001#24797D R
(2203099.815000) vcan0 00000002#257A7E R
(2203100.050000) vcan0 00000001#267B7F R
(2203100.292000) vcan0 00000002#277C80 R
(2203100.528000) vcan0 00000001#287D81 R
(2203100.771000) vcan0 00000002#297E82 R
(2203101.007000) vcan0 00000001#2A7F83 R
(2203101.249000) vcan0 00000002#2B8084 R
(2203101.485000) vcan0 00000001#2C8185 R
(2203101.729000) vcan0 00000002#2D8286 R
(2203101.964000) vcan0 00000001#2E8387 R
(2203102.201000) vcan0 00000002#2F8488 R
(2203102.441000) vcan0 00000001#308589 R
(2203102.685000) vcan0 00000002#31868A R
(2203102.921000) vcan0 00000001#32878B R
(2203103.157000) vcan0 00000002#33888C R
(2203103.398000) vcan0 00000001#34898D R
(2203103.642000) vcan0 00000002#358A8E R
(2203103.878000) vcan0 00000001#368B8F R
(2203104.113000) vcan0 00000002#378C90 R
(2203104.352000) vcan0 00000001#388D91 R
(2203104.587000) vcan0 00000002#398E92 R
(2203104.831000) vcan0 00000001#3A8F93 R
(2203105.067000) vcan0 00000002#3B9094 R
(2203105.309000) vcan0 00000001#3C9195 R
(2203105.544000) vcan0 00000002#3D9296 R
(2203105.788000) vcan0 00000001#3E9397 R
(2203106.024000) vcan0 00000002#3F9498 R
(2203106.266000) vcan0 00000001#409599 R
(2203106.501000) vcan0 00000002#41969A R
(2203106.745000) vcan0 00000001#42979B R
(2203106.981000) vcan0 00000002#43989C R
(2203107.219000) vcan0 00000001#44999D R
(2203107.455000) vcan0 00000002#459A9E R
(2203107.699000) vcan0 00000001#469B9F R
(2203107.934000) vcan0 00000002#479CA0 R
(2203108.170000) vcan0 00000001#489DA1 R
(2203108.412000) vcan0 00000002#499EA2 R
(2203108.656000) vcan0 00000001#4A9FA3 R
(2203108.892000) vcan0 00000002#4BA0A4 R
(2203109.128000) vcan0 00000001#4CA1A5 R
(2203109.365000) vcan0 00000002#4DA2A6 R
(2203109.601000) vcan0 00000001#4EA3A7 R
(2203109.845000) vcan0 00000002#4FA4A8 R
(2203110.081000) vcan0 00000001#50A5A9 R
(2203110.319000) vcan0 00000002#51A6AA R
(2203110.555000) vcan0 00000001#52A7AB R
(2203110.798000) vcan0 00000002#53A8AC R
(2203111.034000) vcan0 00000001#54A9AD R
(2203111.276000) vcan0 00000002#00AAAE R
(2203111.511000) vcan0 00000001#0155AF R
(2203111.755000) vcan0 00000002#0256B0 R
(2203111.991000) vcan0 00000001#0357B1 R
(2203112.233000) vcan0 00000002#0458B2 R
(2203112.468000) vcan0 00000001#0559B3 R
(2203112.712000) vcan0 00000002#065AB4 R
(2203112.948000) vcan0 00000001#075BB5 R
(2203113.184000) vcan0 00000002#085CB6 R
(2203113.425000) vcan0 00000001#095DB7 R
(2203113.669000) vcan0 00000002#0A5EB8 R
(2203113.905000) vcan0 00000001#0B5FB9 R
(2203114.140000) vcan0 00000002#0C60BA R
(2203114.382000) vcan0 00000001#0D61BB R
(2203114.618000) vcan0 00000002#0E62BC R
(2203114.861000) vcan0 00000001#0F63BD R
(2203115.097000) vcan0 00000002#1064BE R
(2203115.335000) vcan0 00000001#1165BF R
(2203115.571000) vcan0 00000002#1266C0 R
(2203115.815000) vcan0 00000001#1367C1 R
(2203116.050000) vcan0 00000002#1468C2 R
(2203116.292000) vcan0 00000001#1569C3 R
(2203116.528000) vcan0 00000002#166AC4 R
(2203116.771000) vcan0 00000001#176BC5 R
(2203117.007000) vcan0 00000002#186CC6 R
(2203117.249000) vcan0 00000001#196DC7 R
(2203117.485000) vcan0 00000002#1A6EC8 R
(2203117.729000) vcan0 00000001#1B6FC9 R
(2203117.964000) vcan0 00000002#1C70CA R
(2203118.201000) vcan0 00000001#1D71CB R
(2203118.441000) vcan0 00000002#1E72CC R
(2203118.685000) vcan0 00000001#1F73CD R
(2203118.921000) vcan0 00000002#2074CE R
(2203119.157000) vcan0 00000001#2175CF R
(2203119.398000) vcan0 00000002#2276D0 R
(2203119.642000) vcan0 00000001#2377D1 R
(2203119.878000) vcan0 00000002#2478D2 R
(2203120.114000) vcan0 00000001#2579D3 R
(2203120.352000) vcan0 00000002#267AD4 R
(2203120.587000) vcan0 00000001#277BD5 R
(2203120.831000) vcan0 00000002#287CD6 R
(2203121.067000) vcan0 00000001#297DD7 R
(2203121.308000) vcan0 00000002#2A7ED8 R
(2203121.544000) vcan0 00000001#2B7FD9 R
(2203121.788000) vcan0 00000002#2C80DA R
(2203122.023000) vcan0 00000001#2D81DB R
(2203122.265000) vcan0 00000002#2E82DC R
(2203122.501000) vcan0 00000001#2F83DD R
(2203122.745000) vcan0 00000002#3084DE R
(2203122.981000) vcan0 00000001#3185DF R
(2203123.219000) vcan0 00000002#3286E0 R
(2203123.455000) vcan0 00000001#3387E1 R
(2203123.699000) vcan0 00000002#3488E2 R
(2203123.935000) vcan0 00000001#3589E3 R
(2203124.170000) vcan0 00000002#368AE4 R
(2203124.412000) vcan0 00000001#378BE5 R
(2203124.656000) vcan0 00000002#388CE6 R
(2203124.892000) vcan0 00000001#398DE7 R
(2203125.128000) vcan0 00000002#3A8EE8 R
(2203125.365000) vcan0 00000001#3B8FE9 R
(2203125.601000) vcan0 00000002#3C90EA R
(2203125.845000) vcan0 00000001#3D91EB R
(2203126.081000) vcan0 00000002#3E92EC R
(2203126.319000) vcan0 00000001#3F93ED R
(2203126.555000) vcan0 00000002#4094EE R
(2203126.798000) vcan0 00000001#4195EF R
(2203127.034000) vcan0 00000002#4296F0 R
(2203127.276000) vcan0 00000001#4397F1 R
(2203127.511000) vcan0 00000002#4498F2 R
(2203127.755000) vcan0 00000001#4599F3 R
(2203127.991000) vcan0 00000002#469AF4 R
(2203128.233000) vcan0 00000001#479BF5 R
(2203128.468000) vcan0 00000002#489CF6 R
(2203128.712000) vcan0 00000001#499DF7 R
(2203128.948000) vcan0 00000002#4A9EF8 R
(2203129.184000) vcan0 00000001#4B9FF9 R
(2203129.425000) vcan0 00000002#4CA0FA R
(2203129.669000) vcan0 00000001#4DA1FB R
(2203129.905000) vcan0 00000002#4EA2FC R
(2203130.140000) vcan0 00000001#4FA3FD R
(2203130.382000) vcan0 00000002#50A4FE R
(2203130.618000) vcan0 00000001#51A5FF R
(2203130.861000) vcan0 00000002#52A600 R
(2203131.097000) vcan0 00000001#53A701 R
(2203131.335000) vcan0 00000002#54A802 R
(2203131.571000) vcan0 00000001#00A903 R
(2203131.815000) vcan0 00000002#01AA04 R
(2203132.050000) vcan0 00000001#025505 R
(2203132.292000) vcan0 00000002#035606 R
(2203132.528000) vcan0 00000001#045707 R
(2203132.771000) vcan0 00000002#055808 R
(2203133.007000) vcan0 00000001#065909 R
(2203133.249000) vcan0 00000002#075A0A R
(2203133.485000) vcan0 00000001#085B0B R
(2203133.729000) vcan0 00000002#095C0C R
(2203133.964000) vcan0 00000001#0A5D0D R
(2203134.201000) vcan0 00000002#0B5E0E R
(2203134.441000) vcan0 00000001#0C5F0F R
(2203134.685000) vcan0 00000002#0D6010 R
(2203134.921000) vcan0 00000001#0E6111 R
(2203135.157000) vcan0 00000002#0F6212 R
(2203135.398000) vcan0 00000001#106313 R
(2203135.642000) vcan0 00000002#116414 R
(2203135.877000) vcan0 00000001#126515 R
(2203136.113000) vcan0 00000002#136616 R
(2203136.351000) vcan0 00000001#146717 R
(2203136.587000) vcan0 00000002#156818 R
(2203136.831000) vcan0 00000001#166919 R
(2203137.067000) vcan0 00000002#176A1A R
(2203137.308000) vcan0 00000001#186B1B R
(2203137.544000) vcan0 00000002#196C1C R
(2203137.788000) vcan0 00000001#1A6D1D R
(2203138.024000) vcan0 00000002#1B6E1E R
(2203138.265000) vcan0 00000001#1C6F1F R
(2203138.501000) vcan0 00000002#1D7020 R
(2203138.745000) vcan0 00000001#1E7121 R
(2203138.981000) vcan0 00000002#1F7222 R
(2203139.219000) vcan0 00000001#207323 R
(2203139.455000) vcan0 00000002#217424 R
(2203139.698000) vcan0 00000001#227525 R
(2203139.934000) vcan0 00000002#237626 R
(2203140.170000) vcan0 00000001#247727 R
(2203140.412000) vcan0 00000002#257828 R
(2203140.656000) vcan0 00000001#267929 R
(2203140.891000) vcan0 00000002#277A2A R
(2203141.127000) vcan0 00000001#287B2B R
(2203141.366000) vcan0 00000002#297C2C R
(2203141.601000) vcan0 00000001#2A7D2D R
(2203141.845000) vcan0 00000002#2B7E2E R
(2203142.081000) vcan0 00000001#2C7F2F R
(2203142.318000) vcan0 00000002#2D8030 R
(2203142.554000) vcan0 00000001#2E8131 R
(2203142.798000) vcan0 00000002#2F8232 R
(2203143.034000) vcan0 00000001#308333 R
(2203143.276000) vcan0 00000002#318434 R
(2203143.511000) vcan0 00000001#328535 R
(2203143.755000) vcan0 00000002#338636 R
(2203143.991000) vcan0 00000001#348737 R
(2203144.233000) vcan0 00000002#358838 R
(2203144.468000) vcan0 00000001#368939 R
(2203144.712000) vcan0 00000002#378A3A R
(2203144.948000) vcan0 00000001#388B3B R
(2203145.184000) vcan0 00000002#398C3C R
(2203145.425000) vcan0 00000001#3A8D3D R
(2203145.669000) vcan0 00000002#3B8E3E R
(2203145.905000) vcan0 00000001#3C8F3F R
(2203146.140000) vcan0 00000002#3D9040 R
(2203146.382000) vcan0 00000001#3E9141 R
(2203146.618000) vcan0 00000002#3F9242 R
(2203146.862000) vcan0 00000001#409343 R
(2203147.097000) vcan0 00000002#419444 R
(2203147.335000) vcan0 00000001#429545 R
(2203147.571000) vcan0 00000002#439646 R
(2203147.815000) vcan0 00000001#449747 R
(2203148.051000) vcan0 00000002#459848 R
(2203148.293000) vcan0 00000001#469949 R
(2203148.529000) vcan0 00000002#479A4A R
(2203148.772000) vcan0 00000001#489B4B R
(2203149.008000) vcan0 00000002#499C4C R
(2203149.249000) vcan0 00000001#4A9D4D R
(2203149.485000) vcan0 00000002#4B9E4E R
(2203149.729000) vcan0 00000001#4C9F4F R
(2203149.964000) vcan0 00000002#4DA050 R
(2203150.201000) vcan0 00000001#4EA151 R
(2203150.441000) vcan0 00000002#4FA252 R
(2203150.685000) vcan0 00000001#50A353 R
(2203150.921000) vcan0 00000002#51A454 R
(2203151.157000) vcan0 00000001#52A555 R
(2203151.398000) vcan0 00000002#53A656 R
(2203151.642000) vcan0 00000001#54A757 R
(2203151.878000) vcan0 00000002#00A858 R
(2203152.114000) vcan0 00000001#01A959 R
(2203152.352000) vcan0 00000002#02AA5A R
(2203152.587000) vcan0 00000001#03555B R
(2203152.831000) vcan0 00000002#04565C R
(2203153.067000) vcan0 00000001#05575D R
(2203153.309000) vcan0 00000002#06585E R
(2203153.544000) vcan0 00000001#07595F R
(2203153.788000) vcan0 00000002#085A60 R
(2203154.024000) vcan0 00000001#095B61 R
(2203154.266000) vcan0 00000002#0A5C62 R
(2203154.501000) vcan0 00000001#0B5D63 R
(2203154.745000) vcan0 00000002#0C5E64 R
(2203154.981000) vcan0 00000001#0D5F65 R
(2203155.219000) vcan0 00000002#0E6066 R
(2203155.455000) vcan0 00000001#0F6167 R
(2203155.699000) vcan0 00000002#106268 R
(2203155.934000) vcan0 00000001#116369 R
(2203156.170000) vcan0 00000002#12646A R
(2203156.412000) vcan0 00000001#13656B R
(2203156.656000) vcan0 00000002#14666C R
(2203156.892000) vcan0 00000001#15676D R
(2203157.128000) vcan0 00000002#16686E R
(2203157.365000) vcan0 00000001#17696F R
(2203157.601000) vcan0 00000002#186A70 R
(2203157.845000) vcan0 00000001#196B71 R
(2203158.081000) vcan0 00000002#1A6C72 R
(2203158.319000) vcan0 00000001#1B6D73 R
(2203158.555000) vcan0 00000002#1C6E74 R
(2203158.798000) vcan0 00000001#1D6F75 R
(2203159.034000) vcan0 00000002#1E7076 R
(2203159.276000) vcan0 00000001#1F7177 R
(2203159.511000) vcan0 00000002#207278 R
(2203159.755000) vcan0 00000001#217379 R
(2203159.991000) vcan0 00000002#22747A R
(2203160.233000) vcan0 00000001#23757B R
(2203160.468000) vcan0 00000002#24767C R
(2203160.712000) vcan0 00000001#25777D R
(2203160.948000) vcan0 00000002#26787E R
(2203161.184000) vcan0 00000001#27797F R
(2203161.425000) vcan0 00000002#287A80 R
(2203161.669000) vcan0 00000001#297B81 R
(2203161.905000) vcan0 00000002#2A7C82 R
(2203162.140000) vcan0 00000001#2B7D83 R
(2203162.382000) vcan0 00000002#2C7E84 R
(2203162.618000) vcan0 00000001#2D7F85 R
(2203162.861000) vcan0 00000002#2E8086 R
(2203163.097000) vcan0 00000001#2F8187 R
(2203163.335000) vcan0 00000002#308288 R
(2203163.571000) vcan0 00000001#318389 R
(2203163.815000) vcan0 00000002#32848A R
(2203164.050000) vcan0 00000001#33858B R
(2203164.292000) vcan0 00000002#34868C R
(2203164.528000) vcan0 00000001#35878D R
(2203164.771000) vcan0 00000002#36888E R
(2203165.007000) vcan0 00000001#37898F R
(2203165.249000) vcan0 00000002#388A90 R
(2203165.485000) vcan0 00000001#398B91 R
(2203165.729000) vcan0 00000002#3A8C92 R
(2203165.964000) vcan0 00000001#3B8D93 R
(2203166.201000) vcan0 00000002#3C8E94 R
(2203166.441000) vcan0 00000001#3D8F95 R
(2203166.685000) vcan0 00000002#3E9096 R
(2203166.921000) vcan0 00000001#3F9197 R
(2203167.157000) vcan0 00000002#409298 R
(2203167.398000) vcan0 00000001#419399 R
(2203167.642000) vcan0 00000002#42949A R
(2203167.878000) vcan0 00000001#43959B R
(2203168.113000) vcan0 00000002#44969C R
(2203168.352000) vcan0 00000001#45979D R
(2203168.587000) vcan0 00000002#46989E R
(2203168.831000) vcan0 00000001#47999F R
(2203169.067000) vcan0 00000002#489AA0 R
(2203169.309000) vcan0 00000001#499BA1 R
(2203169.544000) vcan0 00000002#4A9CA2 R
(2203169.788000) vcan0 00000001#4B9DA3 R
(2203170.024000) vcan0 00000002#4C9EA4 R
(2203170.266000) vcan0 00000001#4D9FA5 R
(2203170.501000) vcan0 00000002#4EA0A6 R
(2203170.745000) vcan0 00000001#4FA1A7 R
(2203170.981000) vcan0 00000002#50A2A8 R
(2203171.219000) vcan0 00000001#51A3A9 R
(2203171.455000) vcan0 00000002#52A4AA R
(2203171.699000) vcan0 00000001#53A5AB R
(2203171.934000) vcan0 00000002#54A6AC R
(2203172.170000) vcan0 00000001#00A7AD R
(2203172.412000) vcan0 00000002#01A8AE R
(2203172.656000) vcan0 00000001#02A9AF R
(2203172.892000) vcan0 00000002#03AAB0 R
(2203173.128000) vcan0 00000001#0455B1 R
(2203173.365000) vcan0 00000002#0556B2 R
(2203173.601000) vcan0 00000001#0657B3 R
(2203173.845000) vcan0 00000002#0758B4 R
(2203174.081000) vcan0 00000001#0859B5 R
(2203174.319000) vcan0 00000002#095AB6 R
(2203174.554000) vcan0 00000001#0A5BB7 R
(2203174.798000) vcan0 00000002#0B5CB8 R
(2203175.034000) vcan0 00000001#0C5DB9 R
(2203175.276000) vcan0 00000002#0D5EBA R
(2203175.512000) vcan0 00000001#0E5FBB R
(2203175.755000) vcan0 00000002#0F60BC R
(2203175.991000) vcan0 00000001#1061BD R
(2203176.233000) vcan0 00000002#1162BE R
(2203176.469000) vcan0 00000001#1263BF R
(2203176.713000) vcan0 00000002#1364C0 R
(2203176.948000) vcan0 00000001#1465C1 R
(2203177.184000) vcan0 00000002#1566C2 R
(2203177.425000) vcan0 00000001#1667C3 R
(2203177.669000) vcan0 00000002#1768C4 R
(2203177.905000) vcan0 00000001#1869C5 R
(2203178.140000) vcan0 00000002#196AC6 R
(2203178.382000) vcan0 00000001#1A6BC7 R
(2203178.618000) vcan0 00000002#1B6CC8 R
(2203178.861000) vcan0 00000001#1C6DC9 R
(2203179.097000) vcan0 00000002#1D6ECA R
(2203179.335000) vcan0 00000001#1E6FCB R
(2203179.571000) vcan0 00000002#1F70CC R
(2203179.815000) vcan0 00000001#2071CD R
(2203180.050000) vcan0 00000002#2172CE R
(2203180.292000) vcan0 00000001#2273CF R
(2203180.528000) vcan0 00000002#2374D0 R
(2203180.771000) vcan0 00000001#2475D1 R
(2203181.007000) vcan0 00000002#2576D2 R
(2203181.249000) vcan0 00000001#2677D3 R
(2203181.485000) vcan0 00000002#2778D4 R
(2203181.729000) vcan0 00000001#2879D5 R
(2203181.964000) vcan0 00000002#297AD6 R
(2203182.201000) vcan0 00000001#2A7BD7 R
(2203182.441000) vcan0 00000002#2B7CD8 R
(2203182.685000) vcan0 00000001#2C7DD9 R
(2203182.921000) vcan0 00000002#2D7EDA R
(2203183.157000) vcan0 00000001#2E7FDB R
(2203183.398000) vcan0 00000002#2F80DC R
(2203183.642000) vcan0 00000001#3081DD R
(2203183.878000) vcan0 00000002#3182DE R
(2203184.114000) vcan0 00000001#3283DF R
(2203184.352000) vcan0 00000002#3384E0 R
(2203184.587000) vcan0 00000001#3485E1 R
(2203184.831000) vcan0 00000002#3586E2 R
(2203185.067000) vcan0 00000001#3687E3 R
(2203185.308000) vcan0 00000002#3788E4 R
(2203185.544000) vcan0 00000001#3889E5 R
(2203185.788000) vcan0 00000002#398AE6 R
(2203186.023000) vcan0 00000001#3A8BE7 R
(2203186.265000) vcan0 00000002#3B8CE8 R
(2203186.501000) vcan0 00000001#3C8DE9 R
(2203186.745000) vcan0 00000002#3D8EEA R
(2203186.981000) vcan0 00000001#3E8FEB R
(2203187.219000) vcan0 00000002#3F90EC R
(2203187.455000) vcan0 00000001#4091ED R
(2203187.699000) vcan0 00000002#4192EE R
(2203187.935000) vcan0 00000001#4293EF R
(2203188.170000) vcan0 00000002#4394F0 R
(2203188.412000) vcan0 00000001#4495F1 R
(2203188.656000) vcan0 00000002#4596F2 R
(2203188.892000) vcan0 00000001#4697F3 R
(2203189.128000) vcan0 00000002#4798F4 R
(2203189.365000) vcan0 00000001#4899F5 R
(2203189.601000) vcan0 00000002#499AF6 R
(2203189.845000) vcan0 00000001#4A9BF7 R
(2203190.081000) vcan0 00000002#4B9CF8 R
(2203190.319000) vcan0 00000001#4C9DF9 R
(2203190.555000) vcan0 00000002#4D9EFA R
(2203190.798000) vcan0 00000001#4E9FFB R
(2203191.034000) vcan0 00000002#4FA0FC R
(2203191.276000) vcan0 00000001#50A1FD R
(2203191.511000) vcan0 00000002#51A2FE R
(2203191.755000) vcan0 00000001#52A3FF R
(2203191.991000) vcan0 00000002#53A400 R
(2203192.233000) vcan0 00000001#54A501 R
(2203192.468000) vcan0 00000002#00A602 R
(2203192.712000) vcan0 00000001#01A703 R
(2203192.948000) vcan0 00000002#02A804 R
(2203193.184000) vcan0 00000001#03A905 R
(2203193.425000) vcan0 00000002#04AA06 R
(2203193.669000) vcan0 00000001#055507 R
(2203193.905000) vcan0 00000002#065608 R
(2203194.140000) vcan0 00000001#075709 R
(2203194.382000) vcan0 00000002#08580A R
(2203194.618000) vcan0 00000001#09590B R
(2203194.861000) vcan0 00000002#0A5A0C R
(2203195.097000) vcan0 00000001#0B5B0D R
(2203195.335000) vcan0 00000002#0C5C0E R
(2203195.571000) vcan0 00000001#0D5D0F R
(2203195.815000) vcan0 00000002#0E5E10 R
(2203196.050000) vcan0 00000001#0F5F11 R
(2203196.292000) vcan0 00000002#106012 R
(2203196.528000) vcan0 00000001#116113 R
(2203196.771000) vcan0 00000002#126214 R
(2203197.007000) vcan0 00000001#136315 R
(2203197.249000) vcan0 00000002#146416 R
(2203197.485000) vcan0 00000001#156517 R
(2203197.729000) vcan0 00000002#166618 R
(2203197.964000) vcan0 00000001#176719 R
(2203198.201000) vcan0 00000002#18681A R
(2203198.441000) vcan0 00000001#19691B R
(2203198.685000) vcan0 00000002#1A6A1C R
(2203198.921000) vcan0 00000001#1B6B1D R
(2203199.157000) vcan0 00000002#1C6C1E R
(2203199.398000) vcan0 00000001#1D6D1F R
(2203199.642000) vcan0 00000002#1E6E20 R
(2203199.878000) vcan0 00000001#1F6F21 R
(2203200.113000) vcan0 00000002#207022 R
(2203200.352000) vcan0 00000001#217123 R
(2203200.587000) vcan0 00000002#227224 R
(2203200.831000) vcan0 00000001#237325 R
(2203201.067000) vcan0 00000002#247426 R
(2203201.309000) vcan0 00000001#257527 R
(2203201.544000) vcan0 00000002#267628 R
(2203201.788000) vcan0 00000001#277729 R
(2203202.024000) vcan0 00000002#28782A R
(2203202.266000) vcan0 00000001#29792B R
(2203202.501000) vcan0 00000002#2A7A2C R
(2203202.745000) vcan0 00000001#2B7B2D R
(2203202.981000) vcan0 00000002#2C7C2E R
(2203203.219000) vcan0 00000001#2D7D2F R
(2203203.455000) vcan0 00000002#2E7E30 R
(2203203.699000) vcan0 00000001#2F7F31 R
(2203203.934000) vcan0 00000002#308032 R
(2203204.170000) vcan0 00000001#318133 R
(2203204.412000) vcan0 00000002#328234 R
(2203204.656000) vcan0 00000001#338335 R
(2203204.892000) vcan0 00000002#348436 R
(2203205.128000) vcan0 00000001#358537 R
(2203205.365000) vcan0 00000002#368638 R
(2203205.601000) vcan0 00000001#378739 R
(2203205.845000) vcan0 00000002#38883A R
(2203206.081000) vcan0 00000001#39893B R
(2203206.319000) vcan0 00000002#3A8A3C R
(2203206.555000) vcan0 00000001#3B8B3D R
(2203206.798000) vcan0 00000002#3C8C3E R
(2203207.034000) vcan0 00000001#3D8D3F R
(2203207.276000) vcan0 00000002#3E8E40 R
(2203207.511000) vcan0 00000001#3F8F41 R
(2203207.755000) vcan0 00000002#409042 R
(2203207.991000) vcan0 00000001#419143 R
(2203208.233000) vcan0 00000002#429244 R
(2203208.468000) vcan0 00000001#439345 R
(2203208.712000) vcan0 00000002#449446 R
(2203208.948000) vcan0 00000001#459547 R
(2203209.184000) vcan0 00000002#469648 R
(2203209.425000) vcan0 00000001#479749 R
(2203209.669000) vcan0 00000002#48984A R
(2203209.905000) vcan0 00000001#49994B R
(2203210.140000) vcan0 00000002#4A9A4C R
(2203210.382000) vcan0 00000001#4B9B4D R
(2203210.618000) vcan0 00000002#4C9C4E R
(2203210.861000) vcan0 00000001#4D9D4F R
(2203211.097000) vcan0 00000002#4E9E50 R
(2203211.335000) vcan0 00000001#4F9F51 R
(2203211.571000) vcan0 00000002#50A052 R
(2203211.815000) vcan0 00000001#51A153 R
(2203212.050000) vcan0 00000002#52A254 R
(2203212.292000) vcan0 00000001#53A355 R
(2203212.528000) vcan0 00000002#54A456 R
(2203212.771000) vcan0 00000001#00A557 R
(2203213.007000) vcan0 00000002#01A658 R
(2203213.249000) vcan0 00000001#02A759 R
(2203213.485000) vcan0 00000002#03A85A R
(2203213.729000) vcan0 00000001#04A95B R
(2203213.964000) vcan0 00000002#05AA5C R
(2203214.201000) vcan0 00000001#06555D R
(2203214.441000) vcan0 00000002#07565E R
(2203214.685000) vcan0 00000001#08575F R
(2203214.921000) vcan0 00000002#095860 R
(2203215.157000) vcan0 00000001#0A5961 R
(2203215.398000) vcan0 00000002#0B5A62 R
(2203215.642000) vcan0 00000001#0C5B63 R
(2203215.878000) vcan0 00000002#0D5C64 R
(2203216.113000) vcan0 00000001#0E5D65 R
(2203216.352000) vcan0 00000002#0F5E66 R
(2203216.587000) vcan0 00000001#105F67 R
(2203216.831000) vcan0 00000002#116068 R
(2203217.067000) vcan0 00000001#126169 R
(2203217.309000) vcan0 00000002#13626A R
(2203217.544000) vcan0 00000001#14636B R
(2203217.788000) vcan0 00000002#15646C R
(2203218.024000) vcan0 00000001#16656D R
(2203218.266000) vcan0 00000002#17666E R
(2203218.501000) vcan0 00000001#18676F R
(2203218.745000) vcan0 00000002#196870 R
(2203218.981000) vcan0 00000001#1A6971 R
(2203219.219000) vcan0 00000002#1B6A72 R
(2203219.455000) vcan0 00000001#1C6B73 R
(2203219.699000) vcan0 00000002#1D6C74 R
(2203219.934000) vcan0 00000001#1E6D75 R
(2203220.170000) vcan0 00000002#1F6E76 R
(2203220.412000) vcan0 00000001#206F77 R
(2203220.656000) vcan0 00000002#217078 R
(2203220.892000) vcan0 00000001#227179 R
(2203221.128000) vcan0 00000002#23727A R
(2203221.365000) vcan0 00000001#24737B R
(2203221.601000) vcan0 00000002#25747C R
(2203221.845000) vcan0 00000001#26757D R
(2203222.081000) vcan0 00000002#27767E R
(2203222.319000) vcan0 00000001#28777F R
(2203222.555000) vcan0 00000002#297880 R
(2203222.798000) vcan0 00000001#2A7981 R
(2203223.034000) vcan0 00000002#2B7A82 R
(2203223.276000) vcan0 00000001#2C7B83 R
(2203223.511000) vcan0 00000002#2D7C84 R
(2203223.755000) vcan0 00000001#2E7D85 R
(2203223.991000) vcan0 00000002#2F7E86 R
(2203224.233000) vcan0 00000001#307F87 R
(2203224.468000) vcan0 00000002#318088 R
(2203224.712000) vcan0 00000001#328189 R
(2203224.948000) vcan0 00000002#33828A R
(2203225.184000) vcan0 00000001#34838B R
(2203225.425000) vcan0 00000002#35848C R
(2203225.669000) vcan0 00000001#36858D R
(2203225.905000) vcan0 00000002#37868E R
(2203226.140000) vcan0 00000001#38878F R
(2203226.382000) vcan0 00000002#398890 R
(2203226.618000) vcan0 00000001#3A8991 R
(2203226.861000) vcan0 00000002#3B8A92 R
(2203227.097000) vcan0 00000001#3C8B93 R
(2203227.335000) vcan0 00000002#3D8C94 R
(2203227.571000) vcan0 00000001#3E8D95 R
(2203227.815000) vcan0 00000002#3F8E96 R
(2203228.050000) vcan0 00000001#408F97 R
(2203228.292000) vcan0 00000002#419098 R
(2203228.528000) vcan0 00000001#429199 R
(2203228.771000) vcan0 00000002#43929A R
(2203229.007000) vcan0 00000001#44939B R
(2203229.249000) vcan0 00000002#45949C R
(2203229.485000) vcan0 00000001#46959D R
(2203229.729000) vcan0 00000002#47969E R
(2203229.964000) vcan0 00000001#48979F R
(2203230.201000) vcan0 00000002#4998A0 R
(2203230.441000) vcan0 00000001#4A99A1 R
(2203230.685000) vcan0 00000002#4B9AA2 R
(2203230.921000) vcan0 00000001#4C9BA3 R
(2203231.157000) vcan0 00000002#4D9CA4 R
(2203231.398000) vcan0 00000001#4E9DA5 R
(2203231.642000) vcan0 00000002#4F9EA6 R
(2203231.878000) vcan0 00000001#509FA7 R
(2203232.113000) vcan0 00000002#51A0A8 R
(2203232.352000) vcan0 00000001#52A1A9 R
(2203232.587000) vcan0 00000002#53A2AA R
(2203232.831000) vcan0 00000001#54A3AB R
(2203233.067000) vcan0 00000002#00A4AC R
(2203233.309000) vcan0 00000001#01A5AD R
(2203233.544000) vcan0 00000002#02A6AE R
(2203233.788000) vcan0 00000001#03A7AF R
(2203234.024000) vcan0 00000002#04A8B0 R
(2203234.266000) vcan0 00000001#05A9B1 R
(2203234.501000) vcan0 00000002#06AAB2 R
(2203234.745000) vcan0 00000001#0755B3 R
(2203234.981000) vcan0 00000002#0856B4 R
(2203235.219000) vcan0 00000001#0957B5 R
(2203235.455000) vcan0 00000002#0A58B6 R
(2203235.699000) vcan0 00000001#0B59B7 R
(2203235.934000) vcan0 00000002#0C5AB8 R
(2203236.170000) vcan0 00000001#0D5BB9 R
(2203236.412000) vcan0 00000002#0E5CBA R
(2203236.656000) vcan0 00000001#0F5DBB R
(2203236.892000) vcan0 00000002#105EBC R
(2203237.128000) vcan0 00000001#115FBD R
(2203237.365000) vcan0 00000002#1260BE R
(2203237.601000) vcan0 00000001#1361BF R
(2203237.845000) vcan0 00000002#1462C0 R
(2203238.081000) vcan0 00000001#1563C1 R
(2203238.319000) vcan0 00000002#1664C2 R
(2203238.555000) vcan0 00000001#1765C3 R
(2203238.798000) vcan0 00000002#1866C4 R
(2203239.034000) vcan0 00000001#1967C5 R
(2203239.276000) vcan0 00000002#1A68C6 R
(2203239.511000) vcan0 00000001#1B69C7 R
(2203239.755000) vcan0 00000002#1C6AC8 R
(2203239.991000) vcan0 00000001#1D6BC9 R
(2203240.233000) vcan0 00000002#1E6CCA R
(2203240.468000) vcan0 00000001#1F6DCB R
(2203240.712000) vcan0 00000002#206ECC R
(2203240.948000) vcan0 00000001#216FCD R
(2203241.184000) vcan0 00000002#2270CE R
(2203241.425000) vcan0 00000001#2371CF R
(2203241.669000) vcan0 00000002#2472D0 R
(2203241.905000) vcan0 00000001#2573D1 R
(2203242.140000) vcan0 00000002#2674D2 R
(2203242.382000) vcan0 00000001#2775D3 R
(2203242.618000) vcan0 00000002#2876D4 R
(2203242.861000) vcan0 00000001#2977D5 R
(2203243.097000) vcan0 00000002#2A78D6 R
(2203243.335000) vcan0 00000001#2B79D7 R
(2203243.571000) vcan0 00000002#2C7AD8 R
(2203243.815000) vcan0 00000001#2D7BD9 R
(2203244.050000) vcan0 00000002#2E7CDA R
(2203244.292000) vcan0 00000001#2F7DDB R
(2203244.528000) vcan0 00000002#307EDC R
(2203244.771000) vcan0 00000001#317FDD R
(2203245.007000) vcan0 00000002#3280DE R
(2203245.249000) vcan0 00000001#3381DF R
(2203245.485000) vcan0 00000002#3482E0 R
(2203245.729000) vcan0 00000001#3583E1 R
(2203245.964000) vcan0 00000002#3684E2 R
(2203246.201000) vcan0 00000001#3785E3 R
(2203246.441000) vcan0 00000002#3886E4 R
(2203246.685000) vcan0 00000001#3987E5 R
(2203246.921000) vcan0 00000002#3A88E6 R
(2203247.157000) vcan0 00000001#3B89E7 R
(2203247.398000) vcan0 00000002#3C8AE8 R
(2203247.642000) vcan0 00000001#3D8BE9 R
(2203247.878000) vcan0 00000002#3E8CEA R
(2203248.114000) vcan0 00000001#3F8DEB R
(2203248.352000) vcan0 00000002#408EEC R
(2203248.587000) vcan0 00000001#418FED R
(2203248.831000) vcan0 00000002#4290EE R
(2203249.067000) vcan0 00000001#4391EF R
(2203249.308000) vcan0 00000002#4492F0 R
(2203249.544000) vcan0 00000001#4593F1 R
(2203249.788000) vcan0 00000002#4694F2 R
(2203250.023000) vcan0 00000001#4795F3 R
(2203250.265000) vcan0 00000002#4896F4 R
(2203250.501000) vcan0 00000001#4997F5 R
(2203250.745000) vcan0 00000002#4A98F6 R
(2203250.981000) vcan0 00000001#4B99F7 R
(2203251.219000) vcan0 00000002#4C9AF8 R
(2203251.455000) vcan0 00000001#4D9BF9 R
(2203251.699000) vcan0 00000002#4E9CFA R
(2203251.935000) vcan0 00000001#4F9DFB R
(2203252.170000) vcan0 00000002#509EFC R
(2203252.412000) vcan0 00000001#519FFD R
(2203252.656000) vcan0 00000002#52A0FE R
(2203252.892000) vcan0 00000001#53A1FF R
(2203253.128000) vcan0 00000002#54A200 R
(2203253.365000) vcan0 00000001#00A301 R
(2203253.601000) vcan0 00000002#01A402 R
(2203253.845000) vcan0 00000001#02A503 R
(2203254.081000) vcan0 00000002#03A604 R
(2203254.319000) vcan0 00000001#04A705 R
(2203254.555000) vcan0 00000002#05A806 R
(2203254.798000) vcan0 00000001#06A907 R
(2203255.034000) vcan0 00000002#07AA08 R
(2203255.276000) vcan0 00000001#085509 R
(2203255.511000) vcan0 00000002#09560A R
(2203255.755000) vcan0 00000001#0A570B R
(2203255.991000) vcan0 00000002#0B580C R
(2203256.233000) vcan0 00000001#0C590D R
(2203256.468000) vcan0 00000002#0D5A0E R
(2203256.712000) vcan0 00000001#0E5B0F R
(2203256.948000) vcan0 00000002#0F5C10 R
(2203257.184000) vcan0 00000001#105D11 R
(2203257.425000) vcan0 00000002#115E12 R
(2203257.669000) vcan0 00000001#125F13 R
(2203257.905000) vcan0 00000002#136014 R
(2203258.140000) vcan0 00000001#146115 R
(2203258.382000) vcan0 00000002#156216 R
(2203258.618000) vcan0 00000001#166317 R
(2203258.861000) vcan0 00000002#176418 R
(2203259.097000) vcan0 00000001#186519 R
(2203259.335000) vcan0 00000002#19661A R
(2203259.571000) vcan0 00000001#1A671B R
(2203259.815000) vcan0 00000002#1B681C R
(2203260.050000) vcan0 00000001#1C691D R
(2203260.292000) vcan0 00000002#1D6A1E R
(2203260.528000) vcan0 00000001#1E6B1F R
(2203260.771000) vcan0 00000002#1F6C20 R
(2203261.007000) vcan0 00000001#206D21 R
(2203261.249000) vcan0 00000002#216E22 R
(2203261.485000) vcan0 00000001#226F23 R
(2203261.729000) vcan0 00000002#237024 R
(2203261.964000) vcan0 00000001#247125 R
(2203262.201000) vcan0 00000002#257226 R
(2203262.441000) vcan0 00000001#267327 R
(2203262.685000) vcan0 00000002#277428 R
(2203262.921000) vcan0 00000001#287529 R
(2203263.157000) vcan0 00000002#29762A R
(2203263.398000) vcan0 00000001#2A772B R
(2203263.642000) vcan0 00000002#2B782C R
(2203263.878000) vcan0 00000001#2C792D R
(2203264.113000) vcan0 00000002#2D7A2E R
(2203264.352000) vcan0 00000001#2E7B2F R
(2203264.587000) vcan0 00000002#2F7C30 R
(2203264.831000) vcan0 00000001#307D31 R
(2203265.067000) vcan0 00000002#317E32 R
(2203265.309000) vcan0 00000001#327F33 R
(2203265.544000) vcan0 00000002#338034 R
(2203265.788000) vcan0 00000001#348135 R
(2203266.024000) vcan0 00000002#358236 R
(2203266.266000) vcan0 00000001#368337 R
(2203266.501000) vcan0 00000002#378438 R
(2203266.745000) vcan0 00000001#388539 R
(2203266.981000) vcan0 00000002#39863A R
(2203267.219000) vcan0 00000001#3A873B R
(2203267.455000) vcan0 00000002#3B883C R
(2203267.699000) vcan0 00000001#3C893D R
(2203267.934000) vcan0 00000002#3D8A3E R
(2203268.170000) vcan0 00000001#3E8B3F R
(2203268.412000) vcan0 00000002#3F8C40 R
(2203268.656000) vcan0 00000001#408D41 R
(2203268.892000) vcan0 00000002#418E42 R
(2203269.128000) vcan0 00000001#428F43 R
(2203269.365000) vcan0 00000002#439044 R
(2203269.601000) vcan0 00000001#449145 R
(2203269.845000) vcan0 00000002#459246 R
(2203270.081000) vcan0 00000001#469347 R
(2203270.319000) vcan0 00000002#479448 R
(2203270.555000) vcan0 00000001#489549 R
(2203270.798000) vcan0 00000002#49964A R
(2203271.034000) vcan0 00000001#4A974B R
(2203271.276000) vcan0 00000002#4B984C R
(2203271.511000) vcan0 00000001#4C994D R
(2203271.755000) vcan0 00000002#4D9A4E R
(2203271.991000) vcan0 00000001#4E9B4F R
(2203272.233000) vcan0 00000002#4F9C50 R
(2203272.468000) vcan0 00000001#509D51 R
(2203272.712000) vcan0 00000002#519E52 R
(2203272.948000) vcan0 00000001#529F53 R
(2203273.184000) vcan0 00000002#53A054 R
(2203273.425000) vcan0 00000001#54A155 R
(2203273.669000) vcan0 00000002#00A256 R
(2203273.905000) vcan0 00000001#01A357 R
(2203274.140000) vcan0 00000002#02A458 R
(2203274.382000) vcan0 00000001#03A559 R
(2203274.618000) vcan0 00000002#04A65A R
(2203274.861000) vcan0 00000001#05A75B R
(2203275.097000) vcan0 00000002#06A85C R
(2203275.335000) vcan0 00000001#07A95D R
(2203275.571000) vcan0 00000002#08AA5E R
(2203275.815000) vcan0 00000001#09555F R
(2203276.050000) vcan0 00000002#0A5660 R
(2203276.292000) vcan0 00000001#0B5761 R
(2203276.528000) vcan0 00000002#0C5862 R
(2203276.771000) vcan0 00000001#0D5963 R
(2203277.007000) vcan0 00000002#0E5A64 R
(2203277.249000) vcan0 00000001#0F5B65 R
(2203277.485000) vcan0 00000002#105C66 R
(2203277.729000) vcan0 00000001#115D67 R
(2203277.964000) vcan0 00000002#125E68 R
(2203278.201000) vcan0 00000001#135F69 R
(2203278.441000) vcan0 00000002#14606A R
(2203278.685000) vcan0 00000001#15616B R
(2203278.921000) vcan0 00000002#16626C R
(2203279.157000) vcan0 00000001#17636D R
(2203279.398000) vcan0 00000002#18646E R
(2203279.642000) vcan0 00000001#19656F R
(2203279.878000) vcan0 00000002#1A6670 R
(2203280.113000) vcan0 00000001#1B6771 R
(2203280.352000) vcan0 00000002#1C6872 R
(2203280.587000) vcan0 00000001#1D6973 R
(2203280.831000) vcan0 00000002#1E6A74 R
(2203281.067000) vcan0 00000001#1F6B75 R
(2203281.309000) vcan0 00000002#206C76 R
(2203281.544000) vcan0 00000001#216D77 R
(2203281.788000) vcan0 00000002#226E78 R
(2203282.024000) vcan0 00000001#236F79 R
(2203282.266000) vcan0 00000002#24707A R
(2203282.501000) vcan0 00000001#25717B R
(2203282.745000) vcan0 00000002#26727C R
(2203282.981000) vcan0 00000001#27737D R
(2203283.219000) vcan0 00000002#28747E R
(2203283.455000) vcan0 00000001#29757F R
(2203283.699000) vcan0 00000002#2A7680 R
(2203283.934000) vcan0 00000001#2B7781 R
(2203284.170000) vcan0 00000002#2C7882 R
(2203284.412000) vcan0 00000001#2D7983 R
(2203284.656000) vcan0 00000002#2E7A84 R
(2203284.892000) vcan0 00000001#2F7B85 R
(2203285.128000) vcan0 00000002#307C86 R
(2203285.365000) vcan0 00000001#317D87 R
(2203285.601000) vcan0 00000002#327E88 R
(2203285.845000) vcan0 00000001#337F89 R
(2203286.081000) vcan0 00000002#34808A R
(2203286.319000) vcan0 00000001#35818B R
(2203286.555000) vcan0 00000002#36828C R
(2203286.798000) vcan0 00000001#37838D R
(2203287.034000) vcan0 00000002#38848E R
(2203287.276000) vcan0 00000001#39858F R
(2203287.511000) vcan0 00000002#3A8690 R
(2203287.755000) vcan0 00000001#3B8791 R
(2203287.991000) vcan0 00000002#3C8892 R
(2203288.233000) vcan0 00000001#3D8993 R
(2203288.468000) vcan0 00000002#3E8A94 R
(2203288.712000) vcan0 00000001#3F8B95 R
(2203288.948000) vcan0 00000002#408C96 R
(2203289.184000) vcan0 00000001#418D97 R
(2203289.425000) vcan0 00000002#428E98 R
(2203289.669000) vcan0 00000001#438F99 R
(2203289.905000) vcan0 00000002#44909A R
(2203290.140000) vcan0 00000001#45919B R
(2203290.382000) vcan0 00000002#46929C R
(2203290.618000) vcan0 00000001#47939D R
(2203290.861000) vcan0 00000002#48949E R
(2203291.097000) vcan0 00000001#49959F R
(2203291.335000) vcan0 00000002#4A96A0 R
(2203291.571000) vcan0 00000001#4B97A1 R
(2203291.815000) vcan0 00000002#4C98A2 R
(2203292.050000) vcan0 00000001#4D99A3 R
(2203292.292000) vcan0 00000002#4E9AA4 R
(2203292.528000) vcan0 00000001#4F9BA5 R
(2203292.771000) vcan0 00000002#509CA6 R
(2203293.007000) vcan0 00000001#519DA7 R
(2203293.249000) vcan0 00000002#529EA8 R
(2203293.485000) vcan0 00000001#539FA9 R
(2203293.729000) vcan0 00000002#54A0AA R
(2203293.964000) vcan0 00000001#00A1AB R
(2203294.201000) vcan0 00000002#01A2AC R
(2203294.441000) vcan0 00000001#02A3AD R
(2203294.685000) vcan0 00000002#03A4AE R
(2203294.921000) vcan0 00000001#04A5AF R
(2203295.157000) vcan0 00000002#05A6B0 R
(2203295.398000) vcan0 00000001#06A7B1 R
(2203295.642000) vcan0 00000002#07A8B2 R
(2203295.877000) vcan0 00000001#08A9B3 R
(2203296.113000) vcan0 00000002#09AAB4 R
(2203296.351000) vcan0 00000001#0A55B5 R
(2203296.587000) vcan0 00000002#0B56B6 R
(2203296.831000) vcan0 00000001#0C57B7 R
(2203297.067000) vcan0 00000002#0D58B8 R
(2203297.308000) vcan0 00000001#0E59B9 R
(2203297.544000) vcan0 00000002#0F5ABA R
(2203297.788000) vcan0 00000001#105BBB R
(2203298.023000) vcan0 00000002#115CBC R
(2203298.265000) vcan0 00000001#125DBD R
(2203298.501000) vcan0 00000002#135EBE R
(2203298.745000) vcan0 00000001#145FBF R
(2203298.981000) vcan0 00000002#1560C0 R
(2203299.219000) vcan0 00000001#1661C1 R
(2203299.455000) vcan0 00000002#1762C2 R
(2203299.699000) vcan0 00000001#1863C3 R
(2203299.935000) vcan0 00000002#1964C4 R
(2203300.170000) vcan0 00000001#1A65C5 R
(2203300.412000) vcan0 00000002#1B66C6 R
(2203300.656000) vcan0 00000001#1C67C7 R
(2203300.892000) vcan0 00000002#1D68C8 R
(2203301.127000) vcan0 00000001#1E69C9 R
(2203301.365000) vcan0 00000002#1F6ACA R
(2203301.601000) vcan0 00000001#206BCB R
(2203301.845000) vcan0 00000002#216CCC R
(2203302.081000) vcan0 00000001#226DCD R
(2203302.319000) vcan0 00000002#236ECE R
(2203302.555000) vcan0 00000001#246FCF R
(2203302.798000) vcan0 00000002#2570D0 R
(2203303.034000) vcan0 00000001#2671D1 R
(2203303.276000) vcan0 00000002#2772D2 R
(2203303.511000) vcan0 00000001#2873D3 R
(2203303.755000) vcan0 00000002#2974D4 R
(2203303.991000) vcan0 00000001#2A75D5 R
(2203304.233000) vcan0 00000002#2B76D6 R
(2203304.468000) vcan0 00000001#2C77D7 R
(2203304.712000) vcan0 00000002#2D78D8 R
(2203304.948000) vcan0 00000001#2E79D9 R
(2203305.184000) vcan0 00000002#2F7ADA R
(2203305.425000) vcan0 00000001#307BDB R
(2203305.669000) vcan0 00000002#317CDC R
(2203305.905000) vcan0 00000001#327DDD R
(2203306.140000) vcan0 00000002#337EDE R
(2203306.382000) vcan0 00000001#347FDF R
(2203306.618000) vcan0 00000002#3580E0 R
(2203306.861000) vcan0 00000001#3681E1 R
(2203307.097000) vcan0 00000002#3782E2 R
(2203307.335000) vcan0 00000001#3883E3 R
(2203307.571000) vcan0 00000002#3984E4 R
(2203307.815000) vcan0 00000001#3A85E5 R
(2203308.050000) vcan0 00000002#3B86E6 R
(2203308.292000) vcan0 00000001#3C87E7 R
(2203308.528000) vcan0 00000002#3D88E8 R
(2203308.771000) vcan0 00000001#3E89E9 R
(2203309.007000) vcan0 00000002#3F8AEA R
(2203309.249000) vcan0 00000001#408BEB R
(2203309.485000) vcan0 00000002#418CEC R
(2203309.729000) vcan0 00000001#428DED R
(2203309.964000) vcan0 00000002#438EEE R
(2203310.201000) vcan0 00000001#448FEF R
(2203310.441000) vcan0 00000002#4590F0 R
(2203310.685000) vcan0 00000001#4691F1 R
(2203310.921000) vcan0 00000002#4792F2 R
(2203311.157000) vcan0 00000001#4893F3 R
(2203311.398000) vcan0 00000002#4994F4 R
(2203311.642000) vcan0 00000001#4A95F5 R
(2203311.878000) vcan0 00000002#4B96F6 R
(2203312.114000) vcan0 00000001#4C97F7 R
(2203312.352000) vcan0 00000002#4D98F8 R
(2203312.587000) vcan0 00000001#4E99F9 R
(2203312.831000) vcan0 00000002#4F9AFA R
(2203313.067000) vcan0 00000001#509BFB R
(2203313.308000) vcan0 00000002#519CFC R
(2203313.544000) vcan0 00000001#529DFD R
(2203313.788000) vcan0 00000002#539EFE R
(2203314.023000) vcan0 00000001#549FFF R
(2203314.265000) vcan0 00000002#00A000 R
(2203314.501000) vcan0 00000001#01A101 R
(2203314.745000) vcan0 00000002#02A202 R
(2203314.981000) vcan0 00000001#03A303 R
(2203315.219000) vcan0 00000002#04A404 R
(2203315.455000) vcan0 00000001#05A505 R
(2203315.699000) vcan0 00000002#06A606 R
(2203315.935000) vcan0 00000001#07A707 R
(2203316.170000) vcan0 00000002#08A808 R
(2203316.412000) vcan0 00000001#09A909 R
(2203316.656000) vcan0 00000002#0AAA0A R
(2203316.892000) vcan0 00000001#0B550B R
(2203317.128000) vcan0 00000002#0C560C R
(2203317.365000) vcan0 00000001#0D570D R
(2203317.601000) vcan0 00000002#0E580E R
(2203317.845000) vcan0 00000001#0F590F R
(2203318.081000) vcan0 00000002#105A10 R
(2203318.319000) vcan0 00000001#115B11 R
(2203318.555000) vcan0 00000002#125C12 R
(2203318.798000) vcan0 00000001#135D13 R
(2203319.034000) vcan0 00000002#145E14 R
(2203319.276000) vcan0 00000001#155F15 R
(2203319.511000) vcan0 00000002#166016 R
(2203319.755000) vcan0 00000001#176117 R
(2203319.991000) vcan0 00000002#186218 R
(2203320.233000) vcan0 00000001#196319 R
(2203320.468000) vcan0 00000002#1A641A R
(2203320.712000) vcan0 00000001#1B651B R
(2203320.948000) vcan0 00000002#1C661C R
(2203321.184000) vcan0 00000001#1D671D R
(2203321.425000) vcan0 00000002#1E681E R
(2203321.669000) vcan0 00000001#1F691F R
(2203321.905000) vcan0 00000002#206A20 R
(2203322.140000) vcan0 00000001#216B21 R
(2203322.382000) vcan0 00000002#226C22 R
(2203322.618000) vcan0 00000001#236D23 R
(2203322.861000) vcan0 00000002#246E24 R
(2203323.097000) vcan0 00000001#256F25 R
(2203323.335000) vcan0 00000002#267026 R
(2203323.571000) vcan0 00000001#277127 R
(2203323.815000) vcan0 00000002#287228 R
(2203324.050000) vcan0 00000001#297329 R
(2203324.292000) vcan0 00000002#2A742A R
(2203324.528000) vcan0 00000001#2B752B R
(2203324.771000) vcan0 00000002#2C762C R
(2203325.007000) vcan0 00000001#2D772D R
(2203325.249000) vcan0 00000002#2E782E R
(2203325.485000) vcan0 00000001#2F792F R
(2203325.729000) vcan0 00000002#307A30 R
(2203325.964000) vcan0 00000001#317B31 R
(2203326.201000) vcan0 00000002#327C32 R
(2203326.441000) vcan0 00000001#337D33 R
(2203326.685000) vcan0 00000002#347E34 R
(2203326.921000) vcan0 00000001#357F35 R
(2203327.157000) vcan0 00000002#368036 R
(2203327.398000) vcan0 00000001#378137 R
(2203327.642000) vcan0 00000002#388238 R
(2203327.878000) vcan0 00000001#398339 R
(2203328.113000) vcan0 00000002#3A843A R
(2203328.352000) vcan0 00000001#3B853B R
(2203328.587000) vcan0 00000002#3C863C R
(2203328.831000) vcan0 00000001#3D873D R
(2203329.067000) vcan0 00000002#3E883E R
(2203329.309000) vcan0 00000001#3F893F R
(2203329.544000) vcan0 00000002#408A40 R
(2203329.788000) vcan0 00000001#418B41 R
(2203330.024000) vcan0 00000002#428C42 R
(2203330.266000) vcan0 00000001#438D43 R
(2203330.501000) vcan0 00000002#448E44 R
(2203330.745000) vcan0 00000001#458F45 R
(2203330.981000) vcan0 00000002#469046 R
(2203331.219000) vcan0 00000001#479147 R
(2203331.455000) vcan0 00000002#489248 R
(2203331.699000) vcan0 00000001#499349 R
(2203331.934000) vcan0 00000002#4A944A R
(2203332.170000) vcan0 00000001#4B954B R
(2203332.412000) vcan0 00000002#4C964C R
(2203332.656000) vcan0 00000001#4D974D R
(2203332.892000) vcan0 00000002#4E984E R
(2203333.128000) vcan0 00000001#4F994F R
(2203333.365000) vcan0 00000002#509A50 R
(2203333.601000) vcan0 00000001#519B51 R
(2203333.845000) vcan0 00000002#529C52 R
(2203334.081000) vcan0 00000001#539D53 R
(2203334.319000) vcan0 00000002#549E54 R
(2203334.555000) vcan0 00000001#009F55 R
(2203334.798000) vcan0 00000002#01A056 R
(2203335.034000) vcan0 00000001#02A157 R
(2203335.276000) vcan0 00000002#03A258 R
(2203335.511000) vcan0 00000001#04A359 R
(2203335.755000) vcan0 00000002#05A45A R
(2203335.991000) vcan0 00000001#06A55B R
(2203336.233000) vcan0 00000002#07A65C R
(2203336.468000) vcan0 00000001#08A75D R
(2203336.712000) vcan0 00000002#09A85E R
(2203336.948000) vcan0 00000001#0AA95F R
(2203337.184000) vcan0 00000002#0BAA60 R
(2203337.425000) vcan0 00000001#0C5561 R
(2203337.669000) vcan0 00000002#0D5662 R
(2203337.905000) vcan0 00000001#0E5763 R
(2203338.140000) vcan0 00000002#0F5864 R
(2203338.382000) vcan0 00000001#105965 R
(2203338.618000) vcan0 00000002#115A66 R
(2203338.861000) vcan0 00000001#125B67 R
(2203339.097000) vcan0 00000002#135C68 R
(2203339.335000) vcan0 00000001#145D69 R
(2203339.571000) vcan0 00000002#155E6A R
(2203339.815000) vcan0 00000001#165F6B R
(2203340.050000) vcan0 00000002#17606C R
(2203340.292000) vcan0 00000001#18616D R
(2203340.528000) vcan0 00000002#19626E R
(2203340.771000) vcan0 00000001#1A636F R
(2203341.007000) vcan0 00000002#1B6470 R
(2203341.249000) vcan0 00000001#1C6571 R
(2203341.485000) vcan0 00000002#1D6672 R
(2203341.729000) vcan0 00000001#1E6773 R
(2203341.964000) vcan0 00000002#1F6874 R
(2203342.201000) vcan0 00000001#206975 R
(2203342.441000) vcan0 00000002#216A76 R
(2203342.685000) vcan0 00000001#226B77 R
(2203342.921000) vcan0 00000002#236C78 R
(2203343.157000) vcan0 00000001#246D79 R
(2203343.398000) vcan0 00000002#256E7A R
(2203343.642000) vcan0 00000001#266F7B R
(2203343.878000) vcan0 00000002#27707C R
(2203344.114000) vcan0 00000001#28717D R
(2203344.352000) vcan0 00000002#29727E R
(2203344.587000) vcan0 00000001#2A737F R
(2203344.831000) vcan0 00000002#2B7480 R
(2203345.067000) vcan0 00000001#2C7581 R
(2203345.308000) vcan0 00000002#2D7682 R
(2203345.544000) vcan0 00000001#2E7783 R
(2203345.788000) vcan0 00000002#2F7884 R
(2203346.023000) vcan0 00000001#307985 R
(2203346.265000) vcan0 00000002#317A86 R
(2203346.501000) vcan0 00000001#327B87 R
(2203346.745000) vcan0 00000002#337C88 R
(2203346.981000) vcan0 00000001#347D89 R
(2203347.219000) vcan0 00000002#357E8A R
(2203347.455000) vcan0 00000001#367F8B R
(2203347.699000) vcan0 00000002#37808C R
(2203347.935000) vcan0 00000001#38818D R
(2203348.170000) vcan0 00000002#39828E R
(2203348.412000) vcan0 00000001#3A838F R
(2203348.656000) vcan0 00000002#3B8490 R
(2203348.892000) vcan0 00000001#3C8591 R
(2203349.128000) vcan0 00000002#3D8692 R
(2203349.365000) vcan0 00000001#3E8793 R
(2203349.601000) vcan0 00000002#3F8894 R
(2203349.845000) vcan0 00000001#408995 R
(2203350.081000) vcan0 00000002#418A96 R
(2203350.319000) vcan0 00000001#428B97 R
(2203350.555000) vcan0 00000002#438C98 R
(2203350.798000) vcan0 00000001#448D99 R
(2203351.034000) vcan0 00000002#458E9A R
(2203351.276000) vcan0 00000001#468F9B R
(2203351.511000) vcan0 00000002#47909C R
(2203351.755000) vcan0 00000001#48919D R
(2203351.991000) vcan0 00000002#49929E R
(2203352.233000) vcan0 00000001#4A939F R
(2203352.468000) vcan0 00000002#4B94A0 R
(2203352.712000) vcan0 00000001#4C95A1 R
(2203352.948000) vcan0 00000002#4D96A2 R
(2203353.184000) vcan0 00000001#4E97A3 R
(2203353.425000) vcan0 00000002#4F98A4 R
(2203353.669000) vcan0 00000001#5099A5 R
(2203353.905000) vcan0 00000002#519AA6 R
(2203354.140000) vcan0 00000001#529BA7 R
(2203354.382000) vcan0 00000002#539CA8 R
(2203354.618000) vcan0 00000001#549DA9 R
(2203354.861000) vcan0 00000002#009EAA R
(2203355.097000) vcan0 00000001#019FAB R
(2203355.335000) vcan0 00000002#02A0AC R
(2203355.571000) vcan0 00000001#03A1AD R
(2203355.815000) vcan0 00000002#04A2AE R
(2203356.050000) vcan0 00000001#05A3AF R
(2203356.292000) vcan0 00000002#06A4B0 R
(2203356.528000) vcan0 00000001#07A5B1 R
(2203356.771000) vcan0 00000002#08A6B2 R
(2203357.007000) vcan0 00000001#09A7B3 R
(2203357.249000) vcan0 00000002#0AA8B4 R
(2203357.485000) vcan0 00000001#0BA9B5 R
(2203357.729000) vcan0 00000002#0CAAB6 R
(2203357.964000) vcan0 00000001#0D55B7 R
(2203358.201000) vcan0 00000002#0E56B8 R
(2203358.441000) vcan0 00000001#0F57B9 R
(2203358.685000) vcan0 00000002#1058BA R
(2203358.921000) vcan0 00000001#1159BB R
(2203359.157000) vcan0 00000002#125ABC R
(2203359.398000) vcan0 00000001#135BBD R
(2203359.642000) vcan0 00000002#145CBE R
(2203359.877000) vcan0 00000001#155DBF R
(2203360.113000) vcan0 00000002#165EC0 R
(2203360.351000) vcan0 00000001#175FC1 R
(2203360.587000) vcan0 00000002#1860C2 R
(2203360.831000) vcan0 00000001#1961C3 R
(2203361.067000) vcan0 00000002#1A62C4 R
(2203361.308000) vcan0 00000001#1B63C5 R
(2203361.544000) vcan0 00000002#1C64C6 R
(2203361.788000) vcan0 00000001#1D65C7 R
(2203362.024000) vcan0 00000002#1E66C8 R
(2203362.265000) vcan0 00000001#1F67C9 R
(2203362.501000) vcan0 00000002#2068CA R
(2203362.745000) vcan0 00000001#2169CB R
(2203362.981000) vcan0 00000002#226ACC R
(2203363.219000) vcan0 00000001#236BCD R
(2203363.455000) vcan0 00000002#246CCE R
(2203363.698000) vcan0 00000001#256DCF R
(2203363.934000) vcan0 00000002#266ED0 R
(2203364.170000) vcan0 00000001#276FD1 R
(2203364.412000) vcan0 00000002#2870D2 R
(2203364.656000) vcan0 00000001#2971D3 R
(2203364.891000) vcan0 00000002#2A72D4 R
(2203365.127000) vcan0 00000001#2B73D5 R
(2203365.366000) vcan0 00000002#2C74D6 R
(2203365.601000) vcan0 00000001#2D75D7 R
(2203365.845000) vcan0 00000002#2E76D8 R
(2203366.081000) vcan0 00000001#2F77D9 R
(2203366.318000) vcan0 00000002#3078DA R
(2203366.554000) vcan0 00000001#3179DB R
(2203366.798000) vcan0 00000002#327ADC R
(2203367.034000) vcan0 00000001#337BDD R
(2203367.276000) vcan0 00000002#347CDE R
(2203367.511000) vcan0 00000001#357DDF R
(2203367.755000) vcan0 00000002#367EE0 R
(2203367.991000) vcan0 00000001#377FE1 R
(2203368.233000) vcan0 00000002#3880E2 R
(2203368.468000) vcan0 00000001#3981E3 R
(2203368.712000) vcan0 00000002#3A82E4 R
(2203368.948000) vcan0 00000001#3B83E5 R
(2203369.184000) vcan0 00000002#3C84E6 R
(2203369.425000) vcan0 00000001#3D85E7 R
(2203369.669000) vcan0 00000002#3E86E8 R
(2203369.905000) vcan0 00000001#3F87E9 R
(2203370.140000) vcan0 00000002#4088EA R
(2203370.382000) vcan0 00000001#4189EB R
(2203370.618000) vcan0 00000002#428AEC R
(2203370.862000) vcan0 00000001#438BED R
(2203371.097000) vcan0 00000002#448CEE R
(2203371.335000) vcan0 00000001#458DEF R
(2203371.571000) vcan0 00000002#468EF0 R
(2203371.815000) vcan0 00000001#478FF1 R
(2203372.051000) vcan0 00000002#4890F2 R
(2203372.293000) vcan0 00000001#4991F3 R
(2203372.529000) vcan0 00000002#4A92F4 R
(2203372.772000) vcan0 00000001#4B93F5 R
(2203373.008000) vcan0 00000002#4C94F6 R
(2203373.249000) vcan0 00000001#4D95F7 R
(2203373.485000) vcan0 00000002#4E96F8 R
(2203373.729000) vcan0 00000001#4F97F9 R
(2203373.964000) vcan0 00000002#5098FA R
(2203374.201000) vcan0 00000001#5199FB R
(2203374.441000) vcan0 00000002#529AFC R
(2203374.685000) vcan0 00000001#539BFD R
(2203374.921000) vcan0 00000002#549CFE R
(2203375.157000) vcan0 00000001#009DFF R
(2203375.398000) vcan0 00000002#019E00 R
(2203375.642000) vcan0 00000001#029F01 R
(2203375.878000) vcan0 00000002#03A002 R
(2203376.113000) vcan0 00000001#04A103 R
(2203376.352000) vcan0 00000002#05A204 R
(2203376.587000) vcan0 00000001#06A305 R
(2203376.831000) vcan0 00000002#07A406 R
(2203377.067000) vcan0 00000001#08A507 R
(2203377.308000) vcan0 00000002#09A608 R
(2203377.544000) vcan0 00000001#0AA709 R
(2203377.788000) vcan0 00000002#0BA80A R
(2203378.023000) vcan0 00000001#0CA90B R
(2203378.265000) vcan0 00000002#0DAA0C R
(2203378.501000) vcan0 00000001#0E550D R
(2203378.745000) vcan0 00000002#0F560E R
(2203378.981000) vcan0 00000001#10570F R
(2203379.219000) vcan0 00000002#115810 R
(2203379.455000) vcan0 00000001#125911 R
(2203379.698000) vcan0 00000002#135A12 R
(2203379.934000) vcan0 00000001#145B13 R
(2203380.170000) vcan0 00000002#155C14 R
(2203380.412000) vcan0 00000001#165D15 R
(2203380.656000) vcan0 00000002#175E16 R
(2203380.892000) vcan0 00000001#185F17 R
(2203381.127000) vcan0 00000002#196018 R
(2203381.365000) vcan0 00000001#1A6119 R
(2203381.601000) vcan0 00000002#1B621A R
(2203381.845000) vcan0 00000001#1C631B R
(2203382.081000) vcan0 00000002#1D641C R
(2203382.319000) vcan0 00000001#1E651D R
(2203382.555000) vcan0 00000002#1F661E R
(2203382.798000) vcan0 00000001#20671F R
(2203383.034000) vcan0 00000002#216820 R
(2203383.276000) vcan0 00000001#226921 R
(2203383.511000) vcan0 00000002#236A22 R
(2203383.755000) vcan0 00000001#246B23 R
(2203383.991000) vcan0 00000002#256C24 R
(2203384.233000) vcan0 00000001#266D25 R
(2203384.468000) vcan0 00000002#276E26 R
(2203384.712000) vcan0 00000001#286F27 R
(2203384.948000) vcan0 00000002#297028 R
(2203385.184000) vcan0 00000001#2A7129 R
(2203385.425000) vcan0 00000002#2B722A R
(2203385.669000) vcan0 00000001#2C732B R
(2203385.905000) vcan0 00000002#2D742C R
(2203386.140000) vcan0 00000001#2E752D R
(2203386.382000) vcan0 00000002#2F762E R
(2203386.618000) vcan0 00000001#30772F R
(2203386.861000) vcan0 00000002#317830 R
(2203387.097000) vcan0 00000001#327931 R
(2203387.335000) vcan0 00000002#337A32 R
(2203387.571000) vcan0 00000001#347B33 R
(2203387.815000) vcan0 00000002#357C34 R
(2203388.050000) vcan0 00000001#367D35 R
(2203388.292000) vcan0 00000002#377E36 R
(2203388.528000) vcan0 00000001#387F37 R
(2203388.771000) vcan0 00000002#398038 R
(2203389.007000) vcan0 00000001#3A8139 R
(2203389.249000) vcan0 00000002#3B823A R
(2203389.485000) vcan0 00000001#3C833B R
(2203389.729000) vcan0 00000002#3D843C R
(2203389.964000) vcan0 00000001#3E853D R
(2203390.201000) vcan0 00000002#3F863E R
(2203390.441000) vcan0 00000001#40873F R
(2203390.685000) vcan0 00000002#418840 R
(2203390.921000) vcan0 00000001#428941 R
(2203391.157000) vcan0 00000002#438A42 R
(2203391.398000) vcan0 00000001#448B43 R
(2203391.642000) vcan0 00000002#458C44 R
(2203391.878000) vcan0 00000001#468D45 R
(2203392.113000) vcan0 00000002#478E46 R
(2203392.352000) vcan0 00000001#488F47 R
(2203392.587000) vcan0 00000002#499048 R
(2203392.831000) vcan0 00000001#4A9149 R
(2203393.067000) vcan0 00000002#4B924A R
(2203393.309000) vcan0 00000001#4C934B R
(2203393.544000) vcan0 00000002#4D944C R
(2203393.788000) vcan0 00000001#4E954D R
(2203394.024000) vcan0 00000002#4F964E R
(2203394.266000) vcan0 00000001#50974F R
(2203394.501000) vcan0 00000002#519850 R
(2203394.745000) vcan0 00000001#529951 R
(2203394.981000) vcan0 00000002#539A52 R
(2203395.219000) vcan0 00000001#549B53 R
(2203395.455000) vcan0 00000002#009C54 R
(2203395.699000) vcan0 00000001#019D55 R
(2203395.934000) vcan0 00000002#029E56 R
(2203396.170000) vcan0 00000001#039F57 R
(2203396.412000) vcan0 00000002#04A058 R
(2203396.656000) vcan0 00000001#05A159 R
(2203396.892000) vcan0 00000002#06A25A R
(2203397.128000) vcan0 00000001#07A35B R
(2203397.365000) vcan0 00000002#08A45C R
(2203397.601000) vcan0 00000001#09A55D R
(2203397.845000) vcan0 00000002#0AA65E R
(2203398.081000) vcan0 00000001#0BA75F R
(2203398.319000) vcan0 00000002#0CA860 R
(2203398.555000) vcan0 00000001#0DA961 R
(2203398.798000) vcan0 00000002#0EAA62 R
(2203399.034000) vcan0 00000001#0F5563 R
(2203399.276000) vcan0 00000002#105664 R
(2203399.511000) vcan0 00000001#115765 R
(2203399.755000) vcan0 00000002#125866 R
(2203399.991000) vcan0 00000001#135967 R
(2203400.233000) vcan0 00000002#145A68 R
(2203400.468000) vcan0 00000001#155B69 R
(2203400.712000) vcan0 00000002#165C6A R
(2203400.948000) vcan0 00000001#175D6B R
(2203401.184000) vcan0 00000002#185E6C R
(2203401.425000) vcan0 00000001#195F6D R
(2203401.669000) vcan0 00000002#1A606E R
(2203401.905000) vcan0 00000001#1B616F R
(2203402.140000) vcan0 00000002#1C6270 R
(2203402.382000) vcan0 00000001#1D6371 R
(2203402.618000) vcan0 00000002#1E6472 R
(2203402.861000) vcan0 00000001#1F6573 R
(2203403.097000) vcan0 00000002#206674 R
(2203403.335000) vcan0 00000001#216775 R
(2203403.571000) vcan0 00000002#226876 R
(2203403.815000) vcan0 00000001#236977 R
(2203404.050000) vcan0 00000002#246A78 R
(2203404.292000) vcan0 00000001#256B79 R
(2203404.528000) vcan0 00000002#266C7A R
(2203404.771000) vcan0 00000001#276D7B R
(2203405.007000) vcan0 00000002#286E7C R
(2203405.249000) vcan0 00000001#296F7D R
(2203405.485000) vcan0 00000002#2A707E R
(2203405.729000) vcan0 00000001#2B717F R
(2203405.964000) vcan0 00000002#2C7280 R
(2203406.201000) vcan0 00000001#2D7381 R
(2203406.441000) vcan0 00000002#2E7482 R
(2203406.685000) vcan0 00000001#2F7583 R
(2203406.921000) vcan0 00000002#307684 R
(2203407.157000) vcan0 00000001#317785 R
(2203407.398000) vcan0 00000002#327886 R
(2203407.642000) vcan0 00000001#337987 R
(2203407.878000) vcan0 00000002#347A88 R
(2203408.114000) vcan0 00000001#357B89 R
(2203408.352000) vcan0 00000002#367C8A R
(2203408.587000) vcan0 00000001#377D8B R
(2203408.831000) vcan0 00000002#387E8C R
(2203409.067000) vcan0 00000001#397F8D R
(2203409.308000) vcan0 00000002#3A808E R
(2203409.544000) vcan0 00000001#3B818F R
(2203409.788000) vcan0 00000002#3C8290 R
(2203410.023000) vcan0 00000001#3D8391 R
(2203410.265000) vcan0 00000002#3E8492 R
(2203410.501000) vcan0 00000001#3F8593 R
(2203410.745000) vcan0 00000002#408694 R
(2203410.981000) vcan0 00000001#418795 R
(2203411.219000) vcan0 00000002#428896 R
(2203411.455000) vcan0 00000001#438997 R
(2203411.699000) vcan0 00000002#448A98 R
(2203411.935000) vcan0 00000001#458B99 R
(2203412.170000) vcan0 00000002#468C9A R
(2203412.412000) vcan0 00000001#478D9B R
(2203412.656000) vcan0 00000002#488E9C R
(2203412.892000) vcan0 00000001#498F9D R
(2203413.128000) vcan0 00000002#4A909E R
(2203413.365000) vcan0 00000001#4B919F R
(2203413.601000) vcan0 00000002#4C92A0 R
(2203413.845000) vcan0 00000001#4D93A1 R
(2203414.081000) vcan0 00000002#4E94A2 R
(2203414.319000) vcan0 00000001#4F95A3 R
(2203414.555000) vcan0 00000002#5096A4 R
(2203414.798000) vcan0 00000001#5197A5 R
(2203415.034000) vcan0 00000002#5298A6 R
(2203415.276000) vcan0 00000001#5399A7 R
(2203415.511000) vcan0 00000002#549AA8 R
(2203415.755000) vcan0 00000001#009BA9 R
(2203415.991000) vcan0 00000002#019CAA R
(2203416.233000) vcan0 00000001#029DAB R
(2203416.468000) vcan0 00000002#039EAC R
(2203416.712000) vcan0 00000001#049FAD R
(2203416.948000) vcan0 00000002#05A0AE R
(2203417.184000) vcan0 00000001#06A1AF R
(2203417.425000) vcan0 00000002#07A2B0 R
(2203417.669000) vcan0 00000001#08A3B1 R
(2203417.905000) vcan0 00000002#09A4B2 R
(2203418.140000) vcan0 00000001#0AA5B3 R
(2203418.382000) vcan0 00000002#0BA6B4 R
(2203418.618000) vcan0 00000001#0CA7B5 R
(2203418.861000) vcan0 00000002#0DA8B6 R
(2203419.097000) vcan0 00000001#0EA9B7 R
(2203419.335000) vcan0 00000002#0FAAB8 R
(2203419.571000) vcan0 00000001#1055B9 R
(2203419.815000) vcan0 00000002#1156BA R
(2203420.050000) vcan0 00000001#1257BB R
(2203420.292000) vcan0 00000002#1358BC R
(2203420.528000) vcan0 00000001#1459BD R
(2203420.771000) vcan0 00000002#155ABE R
(2203421.007000) vcan0 00000001#165BBF R
(2203421.249000) vcan0 00000002#175CC0 R
(2203421.485000) vcan0 00000001#185DC1 R
(2203421.729000) vcan0 00000002#195EC2 R
(2203421.964000) vcan0 00000001#1A5FC3 R
(2203422.201000) vcan0 00000002#1B60C4 R
(2203422.441000) vcan0 00000001#1C61C5 R
(2203422.685000) vcan0 00000002#1D62C6 R
(2203422.921000) vcan0 00000001#1E63C7 R
(2203423.157000) vcan0 00000002#1F64C8 R
(2203423.398000) vcan0 00000001#2065C9 R
(2203423.642000) vcan0 00000002#2166CA R
(2203423.877000) vcan0 00000001#2267CB R
(2203424.113000) vcan0 00000002#2368CC R
(2203424.351000) vcan0 00000001#2469CD R
(2203424.587000) vcan0 00000002#256ACE R
(2203424.831000) vcan0 00000001#266BCF R
(2203425.067000) vcan0 00000002#276CD0 R
(2203425.308000) vcan0 00000001#286DD1 R
(2203425.544000) vcan0 00000002#296ED2 R
(2203425.788000) vcan0 00000001#2A6FD3 R
(2203426.024000) vcan0 00000002#2B70D4 R
(2203426.265000) vcan0 00000001#2C71D5 R
(2203426.501000) vcan0 00000002#2D72D6 R
(2203426.745000) vcan0 00000001#2E73D7 R
(2203426.981000) vcan0 00000002#2F74D8 R
(2203427.219000) vcan0 00000001#3075D9 R
(2203427.455000) vcan0 00000002#3176DA R
(2203427.698000) vcan0 00000001#3277DB R
(2203427.934000) vcan0 00000002#3378DC R
(2203428.170000) vcan0 00000001#3479DD R
(2203428.412000) vcan0 00000002#357ADE R
(2203428.656000) vcan0 00000001#367BDF R
(2203428.891000) vcan0 00000002#377CE0 R
(2203429.127000) vcan0 00000001#387DE1 R
(2203429.366000) vcan0 00000002#397EE2 R
(2203429.601000) vcan0 00000001#3A7FE3 R
(2203429.845000) vcan0 00000002#3B80E4 R
(2203430.081000) vcan0 00000001#3C81E5 R
(2203430.318000) vcan0 00000002#3D82E6 R
(2203430.554000) vcan0 00000001#3E83E7 R
(2203430.798000) vcan0 00000002#3F84E8 R
(2203431.034000) vcan0 00000001#4085E9 R
(2203431.276000) vcan0 00000002#4186EA R
(2203431.511000) vcan0 00000001#4287EB R
(2203431.755000) vcan0 00000002#4388EC R
(2203431.991000) vcan0 00000001#4489ED R
(2203432.233000) vcan0 00000002#458AEE R
(2203432.468000) vcan0 00000001#468BEF R
(2203432.712000) vcan0 00000002#478CF0 R
(2203432.948000) vcan0 00000001#488DF1 R
(2203433.184000) vcan0 00000002#498EF2 R
(2203433.425000) vcan0 00000001#4A8FF3 R
(2203433.669000) vcan0 00000002#4B90F4 R
(2203433.905000) vcan0 00000001#4C91F5 R
(2203434.140000) vcan0 00000002#4D92F6 R
(2203434.382000) vcan0 00000001#4E93F7 R
(2203434.618000) vcan0 00000002#4F94F8 R
(2203434.862000) vcan0 00000001#5095F9 R
(2203435.097000) vcan0 00000002#5196FA R
(2203435.335000) vcan0 00000001#5297FB R
(2203435.571000) vcan0 00000002#5398FC R
(2203435.815000) vcan0 00000001#5499FD R
(2203436.051000) vcan0 00000002#009AFE R
(2203436.293000) vcan0 00000001#019BFF R
(2203436.529000) vcan0 00000002#029C00 R
(2203436.772000) vcan0 00000001#039D01 R
(2203437.008000) vcan0 00000002#049E02 R
(2203437.249000) vcan0 00000001#059F03 R
(2203437.485000) vcan0 00000002#06A004 R
(2203437.729000) vcan0 00000001#07A105 R
(2203437.964000) vcan0 00000002#08A206 R
(2203438.201000) vcan0 00000001#09A307 R
(2203438.441000) vcan0 00000002#0AA408 R
(2203438.685000) vcan0 00000001#0BA509 R
(2203438.921000) vcan0 00000002#0CA60A R
(2203439.157000) vcan0 00000001#0DA70B R
(2203439.398000) vcan0 00000002#0EA80C R
(2203439.642000) vcan0 00000001#0FA90D R
(2203439.878000) vcan0 00000002#10AA0E R
(2203440.114000) vcan0 00000001#11550F R
(2203440.352000) vcan0 00000002#125610 R
(2203440.587000) vcan0 00000001#135711 R
(2203440.831000) vcan0 00000002#145812 R
(2203441.067000) vcan0 00000001#155913 R
(2203441.309000) vcan0 00000002#165A14 R
(2203441.544000) vcan0 00000001#175B15 R
(2203441.788000) vcan0 00000002#185C16 R
(2203442.024000) vcan0 00000001#195D17 R
(2203442.266000) vcan0 00000002#1A5E18 R
(2203442.501000) vcan0 00000001#1B5F19 R
(2203442.745000) vcan0 00000002#1C601A R
(2203442.981000) vcan0 00000001#1D611B R
(2203443.219000) vcan0 00000002#1E621C R
(2203443.455000) vcan0 00000001#1F631D R
(2203443.699000) vcan0 00000002#20641E R
(2203443.934000) vcan0 00000001#21651F R
(2203444.170000) vcan0 00000002#226620 R
(2203444.412000) vcan0 00000001#236721 R
(2203444.656000) vcan0 00000002#246822 R
(2203444.892000) vcan0 00000001#256923 R
(2203445.128000) vcan0 00000002#266A24 R
(2203445.365000) vcan0 00000001#276B25 R
(2203445.601000) vcan0 00000002#286C26 R
(2203445.845000) vcan0 00000001#296D27 R
(2203446.081000) vcan0 00000002#2A6E28 R
(2203446.319000) vcan0 00000001#2B6F29 R
(2203446.555000) vcan0 00000002#2C702A R
(2203446.798000) vcan0 00000001#2D712B R
(2203447.034000) vcan0 00000002#2E722C R
(2203447.276000) vcan0 00000001#2F732D R
(2203447.511000) vcan0 00000002#30742E R
(2203447.755000) vcan0 00000001#31752F R
(2203447.991000) vcan0 00000002#327630 R
(2203448.233000) vcan0 00000001#337731 R
(2203448.468000) vcan0 00000002#347832 R
(2203448.712000) vcan0 00000001#357933 R
(2203448.948000) vcan0 00000002#367A34 R
(2203449.184000) vcan0 00000001#377B35 R
(2203449.425000) vcan0 00000002#387C36 R
(2203449.669000) vcan0 00000001#397D37 R
(2203449.905000) vcan0 00000002#3A7E38 R
(2203450.140000) vcan0 00000001#3B7F39 R
(2203450.382000) vcan0 00000002#3C803A R
(2203450.618000) vcan0 00000001#3D813B R
(2203450.861000) vcan0 00000002#3E823C R
(2203451.097000) vcan0 00000001#3F833D R
(2203451.335000) vcan0 00000002#40843E R
(2203451.571000) vcan0 00000001#41853F R
(2203451.815000) vcan0 00000002#428640 R
(2203452.050000) vcan0 00000001#438741 R
(2203452.292000) vcan0 00000002#448842 R
(2203452.528000) vcan0 00000001#458943 R
(2203452.771000) vcan0 00000002#468A44 R
(2203453.007000) vcan0 00000001#478B45 R
(2203453.249000) vcan0 00000002#488C46 R
(2203453.485000) vcan0 00000001#498D47 R
(2203453.729000) vcan0 00000002#4A8E48 R
(2203453.964000) vcan0 00000001#4B8F49 R
(2203454.201000) vcan0 00000002#4C904A R
(2203454.441000) vcan0 00000001#4D914B R
(2203454.685000) vcan0 00000002#4E924C R
(2203454.921000) vcan0 00000001#4F934D R
(2203455.157000) vcan0 00000002#50944E R
(2203455.398000) vcan0 00000001#51954F R
(2203455.642000) vcan0 00000002#529650 R
(2203455.878000) vcan0 00000001#539751 R
(2203456.113000) vcan0 00000002#549852 R
(2203456.352000) vcan0 00000001#009953 R
(2203456.587000) vcan0 00000002#019A54 R
(2203456.831000) vcan0 00000001#029B55 R
(2203457.067000) vcan0 00000002#039C56 R
(2203457.309000) vcan0 00000001#049D57 R
(2203457.544000) vcan0 00000002#059E58 R
(2203457.788000) vcan0 00000001#069F59 R
(2203458.024000) vcan0 00000002#07A05A R
(2203458.266000) vcan0 00000001#08A15B R
(2203458.501000) vcan0 00000002#09A25C R
(2203458.745000) vcan0 00000001#0AA35D R
(2203458.981000) vcan0 00000002#0BA45E R
(2203459.219000) vcan0 00000001#0CA55F R
(2203459.455000) vcan0 00000002#0DA660 R
(2203459.699000) vcan0 00000001#0EA761 R
(2203459.934000) vcan0 00000002#0FA862 R
(2203460.170000) vcan0 00000001#10A963 R
(2203460.412000) vcan0 00000002#11AA64 R
(2203460.656000) vcan0 00000001#125565 R
(2203460.891000) vcan0 00000002#135666 R
(2203461.127000) vcan0 00000001#145767 R
(2203461.365000) vcan0 00000002#155868 R
(2203461.601000) vcan0 00000001#165969 R
(2203461.845000) vcan0 00000002#175A6A R
(2203462.081000) vcan0 00000001#185B6B R
(2203462.319000) vcan0 00000002#195C6C R
(2203462.555000) vcan0 00000001#1A5D6D R
(2203462.798000) vcan0 00000002#1B5E6E R
(2203463.034000) vcan0 00000001#1C5F6F R
(2203463.276000) vcan0 00000002#1D6070 R
(2203463.511000) vcan0 00000001#1E6171 R
(2203463.755000) vcan0 00000002#1F6272 R
(2203463.991000) vcan0 00000001#206373 R
(2203464.233000) vcan0 00000002#216474 R
(2203464.468000) vcan0 00000001#226575 R
(2203464.712000) vcan0 00000002#236676 R
(2203464.948000) vcan0 00000001#246777 R
(2203465.184000) vcan0 00000002#256878 R
(2203465.425000) vcan0 00000001#266979 R
(2203465.669000) vcan0 00000002#276A7A R
(2203465.905000) vcan0 00000001#286B7B R
(2203466.140000) vcan0 00000002#296C7C R
(2203466.382000) vcan0 00000001#2A6D7D R
(2203466.618000) vcan0 00000002#2B6E7E R
(2203466.861000) vcan0 00000001#2C6F7F R
(2203467.097000) vcan0 00000002#2D7080 R
(2203467.335000) vcan0 00000001#2E7181 R
(2203467.571000) vcan0 00000002#2F7282 R
(2203467.815000) vcan0 00000001#307383 R
(2203468.050000) vcan0 00000002#317484 R
(2203468.292000) vcan0 00000001#327585 R
(2203468.528000) vcan0 00000002#337686 R
(2203468.771000) vcan0 00000001#347787 R
(2203469.007000) vcan0 00000002#357888 R
(2203469.249000) vcan0 00000001#367989 R
(2203469.485000) vcan0 00000002#377A8A R
(2203469.729000) vcan0 00000001#387B8B R
(2203469.964000) vcan0 00000002#397C8C R
(2203470.201000) vcan0 00000001#3A7D8D R
(2203470.441000) vcan0 00000002#3B7E8E R
(2203470.685000) vcan0 00000001#3C7F8F R
(2203470.921000) vcan0 00000002#3D8090 R
(2203471.157000) vcan0 00000001#3E8191 R
(2203471.398000) vcan0 00000002#3F8292 R
(2203471.642000) vcan0 00000001#408393 R
(2203471.878000) vcan0 00000002#418494 R
(2203472.114000) vcan0 00000001#428595 R
(2203472.352000) vcan0 00000002#438696 R
(2203472.587000) vcan0 00000001#448797 R
(2203472.831000) vcan0 00000002#458898 R
(2203473.067000) vcan0 00000001#468999 R
(2203473.308000) vcan0 00000002#478A9A R
(2203473.544000) vcan0 00000001#488B9B R
(2203473.788000) vcan0 00000002#498C9C R
(2203474.023000) vcan0 00000001#4A8D9D R
(2203474.265000) vcan0 00000002#4B8E9E R
(2203474.501000) vcan0 00000001#4C8F9F R
(2203474.745000) vcan0 00000002#4D90A0 R
(2203474.981000) vcan0 00000001#4E91A1 R
(2203475.219000) vcan0 00000002#4F92A2 R
(2203475.455000) vcan0 00000001#5093A3 R
(2203475.699000) vcan0 00000002#5194A4 R
(2203475.935000) vcan0 00000001#5295A5 R
(2203476.170000) vcan0 00000002#5396A6 R
(2203476.412000) vcan0 00000001#5497A7 R
(2203476.656000) vcan0 00000002#0098A8 R
(2203476.892000) vcan0 00000001#0199A9 R
(2203477.128000) vcan0 00000002#029AAA R
(2203477.365000) vcan0 00000001#039BAB R
(2203477.601000) vcan0 00000002#049CAC R
(2203477.845000) vcan0 00000001#059DAD R
(2203478.081000) vcan0 00000002#069EAE R
(2203478.319000) vcan0 00000001#079FAF R
(2203478.555000) vcan0 00000002#08A0B0 R
(2203478.798000) vcan0 00000001#09A1B1 R
(2203479.034000) vcan0 00000002#0AA2B2 R
(2203479.276000) vcan0 00000001#0BA3B3 R
(2203479.511000) vcan0 00000002#0CA4B4 R
(2203479.755000) vcan0 00000001#0DA5B5 R
(2203479.991000) vcan0 00000002#0EA6B6 R
(2203480.233000) vcan0 00000001#0FA7B7 R
(2203480.468000) vcan0 00000002#10A8B8 R
(2203480.712000) vcan0 00000001#11A9B9 R
(2203480.948000) vcan0 00000002#12AABA R
(2203481.184000) vcan0 00000001#1355BB R
(2203481.425000) vcan0 00000002#1456BC R
(2203481.669000) vcan0 00000001#1557BD R
(2203481.905000) vcan0 00000002#1658BE R
(2203482.140000) vcan0 00000001#1759BF R
(2203482.382000) vcan0 00000002#185AC0 R
(2203482.618000) vcan0 00000001#195BC1 R
(2203482.861000) vcan0 00000002#1A5CC2 R
(2203483.097000) vcan0 00000001#1B5DC3 R
(2203483.335000) vcan0 00000002#1C5EC4 R
(2203483.571000) vcan0 00000001#1D5FC5 R
(2203483.815000) vcan0 00000002#1E60C6 R
(2203484.050000) vcan0 00000001#1F61C7 R
(2203484.292000) vcan0 00000002#2062C8 R
(2203484.528000) vcan0 00000001#2163C9 R
(2203484.771000) vcan0 00000002#2264CA R
(2203485.007000) vcan0 00000001#2365CB R
(2203485.249000) vcan0 00000002#2466CC R
(2203485.485000) vcan0 00000001#2567CD R
(2203485.729000) vcan0 00000002#2668CE R
(2203485.964000) vcan0 00000001#2769CF R
(2203486.201000) vcan0 00000002#286AD0 R
(2203486.441000) vcan0 00000001#296BD1 R
(2203486.685000) vcan0 00000002#2A6CD2 R
(2203486.921000) vcan0 00000001#2B6DD3 R
(2203487.157000) vcan0 00000002#2C6ED4 R
(2203487.398000) vcan0 00000001#2D6FD5 R
(2203487.642000) vcan0 00000002#2E70D6 R
(2203487.878000) vcan0 00000001#2F71D7 R
(2203488.113000) vcan0 00000002#3072D8 R
(2203488.352000) vcan0 00000001#3173D9 R
(2203488.587000) vcan0 00000002#3274DA R
(2203488.831000) vcan0 00000001#3375DB R
(2203489.067000) vcan0 00000002#3476DC R
(2203489.309000) vcan0 00000001#3577DD R
(2203489.544000) vcan0 00000002#3678DE R
(2203489.788000) vcan0 00000001#3779DF R
(2203490.024000) vcan0 00000002#387AE0 R
(2203490.266000) vcan0 00000001#397BE1 R
(2203490.501000) vcan0 00000002#3A7CE2 R
(2203490.745000) vcan0 00000001#3B7DE3 R
(2203490.981000) vcan0 00000002#3C7EE4 R
(2203491.219000) vcan0 00000001#3D7FE5 R
(2203491.455000) vcan0 00000002#3E80E6 R
(2203491.699000) vcan0 00000001#3F81E7 R
(2203491.934000) vcan0 00000002#4082E8 R
(2203492.170000) vcan0 00000001#4183E9 R
(2203492.412000) vcan0 00000002#4284EA R
(2203492.656000) vcan0 00000001#4385EB R
(2203492.892000) vcan0 00000002#4486EC R
(2203493.128000) vcan0 00000001#4587ED R
(2203493.365000) vcan0 00000002#4688EE R
(2203493.601000) vcan0 00000001#4789EF R
(2203493.845000) vcan0 00000002#488AF0 R
(2203494.081000) vcan0 00000001#498BF1 R
(2203494.319000) vcan0 00000002#4A8CF2 R
(2203494.555000) vcan0 00000001#4B8DF3 R
(2203494.798000) vcan0 00000002#4C8EF4 R
(2203495.034000) vcan0 00000001#4D8FF5 R
(2203495.276000) vcan0 00000002#4E90F6 R
(2203495.511000) vcan0 00000001#4F91F7 R
(2203495.755000) vcan0 00000002#5092F8 R
(2203495.991000) vcan0 00000001#5193F9 R
(2203496.233000) vcan0 00000002#5294FA R
(2203496.468000) vcan0 00000001#5395FB R
(2203496.712000) vcan0 00000002#5496FC R
(2203496.948000) vcan0 00000001#0097FD R
(2203497.184000) vcan0 00000002#0198FE R
(2203497.425000) vcan0 00000001#0299FF R
(2203497.669000) vcan0 00000002#039A00 R
(2203497.905000) vcan0 00000001#049B01 R
(2203498.140000) vcan0 00000002#059C02 R
(2203498.382000) vcan0 00000001#069D03 R
(2203498.618000) vcan0 00000002#079E04 R
(2203498.861000) vcan0 00000001#089F05 R
(2203499.097000) vcan0 00000002#09A006 R
(2203499.335000) vcan0 00000001#0AA107 R
(2203499.571000) vcan0 00000002#0BA208 R
(2203499.815000) vcan0 00000001#0CA309 R
(2203500.050000) vcan0 00000002#0DA40A R
(2203500.292000) vcan0 00000001#0EA50B R
(2203500.528000) vcan0 00000002#0FA60C R
(2203500.771000) vcan0 00000001#10A70D R
(2203501.007000) vcan0 00000002#11A80E R
(2203501.249000) vcan0 00000001#12A90F R
(2203501.485000) vcan0 00000002#13AA10 R
(2203501.729000) vcan0 00000001#145511 R
(2203501.964000) vcan0 00000002#155612 R
(2203502.201000) vcan0 00000001#165713 R
(2203502.441000) vcan0 00000002#175814 R
(2203502.685000) vcan0 00000001#185915 R
(2203502.921000) vcan0 00000002#195A16 R
(2203503.157000) vcan0 00000001#1A5B17 R
(2203503.398000) vcan0 00000002#1B5C18 R
(2203503.642000) vcan0 00000001#1C5D19 R
(2203503.878000) vcan0 00000002#1D5E1A R
(2203504.113000) vcan0 00000001#1E5F1B R
(2203504.352000) vcan0 00000002#1F601C R
(2203504.587000) vcan0 00000001#20611D R
(2203504.831000) vcan0 00000002#21621E R
(2203505.067000) vcan0 00000001#22631F R
(2203505.309000) vcan0 00000002#236420 R
(2203505.544000) vcan0 00000001#246521 R
(2203505.788000) vcan0 00000002#256622 R
(2203506.024000) vcan0 00000001#266723 R
(2203506.266000) vcan0 00000002#276824 R
(2203506.501000) vcan0 00000001#286925 R
(2203506.745000) vcan0 00000002#296A26 R
(2203506.981000) vcan0 00000001#2A6B27 R
(2203507.219000) vcan0 00000002#2B6C28 R
(2203507.455000) vcan0 00000001#2C6D29 R
(2203507.699000) vcan0 00000002#2D6E2A R
(2203507.934000) vcan0 00000001#2E6F2B R
(2203508.170000) vcan0 00000002#2F702C R
(2203508.412000) vcan0 00000001#30712D R
(2203508.656000) vcan0 00000002#31722E R
(2203508.892000) vcan0 00000001#32732F R
(2203509.128000) vcan0 00000002#337430 R
(2203509.365000) vcan0 00000001#347531 R
(2203509.601000) vcan0 00000002#357632 R
(2203509.845000) vcan0 00000001#367733 R
(2203510.081000) vcan0 00000002#377834 R
(2203510.319000) vcan0 00000001#387935 R
(2203510.555000) vcan0 00000002#397A36 R
(2203510.798000) vcan0 00000001#3A7B37 R
(2203511.034000) vcan0 00000002#3B7C38 R
(2203511.276000) vcan0 00000001#3C7D39 R
(2203511.511000) vcan0 00000002#3D7E3A R
(2203511.755000) vcan0 00000001#3E7F3B R
(2203511.991000) vcan0 00000002#3F803C R
(2203512.233000) vcan0 00000001#40813D R
(2203512.468000) vcan0 00000002#41823E R
(2203512.712000) vcan0 00000001#42833F R
(2203512.948000) vcan0 00000002#438440 R
(2203513.184000) vcan0 00000001#448541 R
(2203513.425000) vcan0 00000002#458642 R
(2203513.669000) vcan0 00000001#468743 R
(2203513.905000) vcan0 00000002#478844 R
(2203514.140000) vcan0 00000001#488945 R
(2203514.382000) vcan0 00000002#498A46 R
(2203514.618000) vcan0 00000001#4A8B47 R
(2203514.861000) vcan0 00000002#4B8C48 R
(2203515.097000) vcan0 00000001#4C8D49 R
(2203515.335000) vcan0 00000002#4D8E4A R
(2203515.571000) vcan0 00000001#4E8F4B R
(2203515.815000) vcan0 00000002#4F904C R
(2203516.050000) vcan0 00000001#50914D R
(2203516.292000) vcan0 00000002#51924E R
(2203516.528000) vcan0 00000001#52934F R
(2203516.771000) vcan0 00000002#539450 R
(2203517.007000) vcan0 00000001#549551 R
(2203517.249000) vcan0 00000002#009652 R
(2203517.485000) vcan0 00000001#019753 R
(2203517.729000) vcan0 00000002#029854 R
(2203517.964000) vcan0 00000001#039955 R
(2203518.201000) vcan0 00000002#049A56 R
(2203518.441000) vcan0 00000001#059B57 R
(2203518.685000) vcan0 00000002#069C58 R
(2203518.921000) vcan0 00000001#079D59 R
(2203519.157000) vcan0 00000002#089E5A R
(2203519.398000) vcan0 00000001#099F5B R
(2203519.642000) vcan0 00000002#0AA05C R
(2203519.877000) vcan0 00000001#0BA15D R
(2203520.113000) vcan0 00000002#0CA25E R
(2203520.351000) vcan0 00000001#0DA35F R
(2203520.587000) vcan0 00000002#0EA460 R
(2203520.831000) vcan0 00000001#0FA561 R
(2203521.067000) vcan0 00000002#10A662 R
(2203521.308000) vcan0 00000001#11A763 R
(2203521.544000) vcan0 00000002#12A864 R
(2203521.788000) vcan0 00000001#13A965 R
(2203522.024000) vcan0 00000002#14AA66 R
(2203522.265000) vcan0 00000001#155567 R
(2203522.501000) vcan0 00000002#165668 R
(2203522.745000) vcan0 00000001#175769 R
(2203522.981000) vcan0 00000002#18586A R
(2203523.219000) vcan0 00000001#19596B R
(2203523.455000) vcan0 00000002#1A5A6C R
(2203523.698000) vcan0 00000001#1B5B6D R
(2203523.934000) vcan0 00000002#1C5C6E R
(2203524.170000) vcan0 00000001#1D5D6F R
(2203524.412000) vcan0 00000002#1E5E70 R
(2203524.656000) vcan0 00000001#1F5F71 R
(2203524.891000) vcan0 00000002#206072 R
(2203525.127000) vcan0 00000001#216173 R
(2203525.366000) vcan0 00000002#226274 R
(2203525.601000) vcan0 00000001#236375 R
(2203525.845000) vcan0 00000002#246476 R
(2203526.081000) vcan0 00000001#256577 R
(2203526.319000) vcan0 00000002#266678 R
(2203526.554000) vcan0 00000001#276779 R
(2203526.798000) vcan0 00000002#28687A R
(2203527.034000) vcan0 00000001#29697B R
(2203527.276000) vcan0 00000002#2A6A7C R
(2203527.512000) vcan0 00000001#2B6B7D R
(2203527.755000) vcan0 00000002#2C6C7E R
(2203527.991000) vcan0 00000001#2D6D7F R
(2203528.233000) vcan0 00000002#2E6E80 R
(2203528.469000) vcan0 00000001#2F6F81 R
(2203528.713000) vcan0 00000002#307082 R
(2203528.948000) vcan0 00000001#317183 R
(2203529.184000) vcan0 00000002#327284 R
(2203529.425000) vcan0 00000001#337385 R
(2203529.669000) vcan0 00000002#347486 R
(2203529.905000) vcan0 00000001#357587 R
(2203530.140000) vcan0 00000002#367688 R
(2203530.382000) vcan0 00000001#377789 R
(2203530.618000) vcan0 00000002#38788A R
(2203530.861000) vcan0 00000001#39798B R
(2203531.097000) vcan0 00000002#3A7A8C R
(2203531.335000) vcan0 00000001#3B7B8D R
(2203531.571000) vcan0 00000002#3C7C8E R
(2203531.815000) vcan0 00000001#3D7D8F R
(2203532.050000) vcan0 00000002#3E7E90 R
(2203532.292000) vcan0 00000001#3F7F91 R
(2203532.528000) vcan0 00000002#408092 R
(2203532.772000) vcan0 00000001#418193 R
(2203533.007000) vcan0 00000002#428294 R
(2203533.249000) vcan0 00000001#438395 R
(2203533.485000) vcan0 00000002#448496 R
(2203533.729000) vcan0 00000001#458597 R
(2203533.965000) vcan0 00000002#468698 R
(2203534.201000) vcan0 00000001#478799 R
(2203534.441000) vcan0 00000002#48889A R
(2203534.685000) vcan0 00000001#49899B R
(2203534.921000) vcan0 00000002#4A8A9C R
(2203535.157000) vcan0 00000001#4B8B9D R
(2203535.398000) vcan0 00000002#4C8C9E R
(2203535.642000) vcan0 00000001#4D8D9F R
(2203535.878000) vcan0 00000002#4E8EA0 R
(2203536.114000) vcan0 00000001#4F8FA1 R
(2203536.352000) vcan0 00000002#5090A2 R
(2203536.587000) vcan0 00000001#5191A3 R
(2203536.831000) vcan0 00000002#5292A4 R
(2203537.067000) vcan0 00000001#5393A5 R
(2203537.309000) vcan0 00000002#5494A6 R
(2203537.544000) vcan0 00000001#0095A7 R
(2203537.788000) vcan0 00000002#0196A8 R
(2203538.024000) vcan0 00000001#0297A9 R
(2203538.266000) vcan0 00000002#0398AA R
(2203538.501000) vcan0 00000001#0499AB R
(2203538.745000) vcan0 00000002#059AAC R
(2203538.981000) vcan0 00000001#069BAD R
(2203539.219000) vcan0 00000002#079CAE R
(2203539.455000) vcan0 00000001#089DAF R
(2203539.699000) vcan0 00000002#099EB0 R
(2203539.934000) vcan0 00000001#0A9FB1 R
(2203540.170000) vcan0 00000002#0BA0B2 R
(2203540.412000) vcan0 00000001#0CA1B3 R
(2203540.656000) vcan0 00000002#0DA2B4 R
(2203540.892000) vcan0 00000001#0EA3B5 R
(2203541.128000) vcan0 00000002#0FA4B6 R
(2203541.365000) vcan0 00000001#10A5B7 R
(2203541.601000) vcan0 00000002#11A6B8 R
(2203541.845000) vcan0 00000001#12A7B9 R
(2203542.081000) vcan0 00000002#13A8BA R
(2203542.319000) vcan0 00000001#14A9BB R
(2203542.555000) vcan0 00000002#15AABC R
(2203542.798000) vcan0 00000001#1655BD R
(2203543.034000) vcan0 00000002#1756BE R
(2203543.276000) vcan0 00000001#1857BF R
(2203543.511000) vcan0 00000002#1958C0 R
(2203543.755000) vcan0 00000001#1A59C1 R
(2203543.991000) vcan0 00000002#1B5AC2 R
(2203544.233000) vcan0 00000001#1C5BC3 R
(2203544.468000) vcan0 00000002#1D5CC4 R
(2203544.712000) vcan0 00000001#1E5DC5 R
(2203544.948000) vcan0 00000002#1F5EC6 R
(2203545.184000) vcan0 00000001#205FC7 R
(2203545.425000) vcan0 00000002#2160C8 R
(2203545.669000) vcan0 00000001#2261C9 R
(2203545.905000) vcan0 00000002#2362CA R
(2203546.140000) vcan0 00000001#2463CB R
(2203546.382000) vcan0 00000002#2564CC R
(2203546.618000) vcan0 00000001#2665CD R
(2203546.861000) vcan0 00000002#2766CE R
(2203547.097000) vcan0 00000001#2867CF R
(2203547.335000) vcan0 00000002#2968D0 R
(2203547.571000) vcan0 00000001#2A69D1 R
(2203547.815000) vcan0 00000002#2B6AD2 R
(2203548.050000) vcan0 00000001#2C6BD3 R
(2203548.292000) vcan0 00000002#2D6CD4 R
(2203548.528000) vcan0 00000001#2E6DD5 R
(2203548.771000) vcan0 00000002#2F6ED6 R
(2203549.007000) vcan0 00000001#306FD7 R
(2203549.249000) vcan0 00000002#3170D8 R
(2203549.485000) vcan0 00000001#3271D9 R
(2203549.729000) vcan0 00000002#3372DA R
(2203549.964000) vcan0 00000001#3473DB R
(2203550.201000) vcan0 00000002#3574DC R
(2203550.441000) vcan0 00000001#3675DD R
(2203550.685000) vcan0 00000002#3776DE R
(2203550.921000) vcan0 00000001#3877DF R
(2203551.157000) vcan0 00000002#3978E0 R
(2203551.398000) vcan0 00000001#3A79E1 R
(2203551.642000) vcan0 00000002#3B7AE2 R
(2203551.878000) vcan0 00000001#3C7BE3 R
(2203552.113000) vcan0 00000002#3D7CE4 R
(2203552.352000) vcan0 00000001#3E7DE5 R
(2203552.587000) vcan0 00000002#3F7EE6 R
(2203552.831000) vcan0 00000001#407FE7 R
(2203553.067000) vcan0 00000002#4180E8 R
(2203553.309000) vcan0 00000001#4281E9 R
(2203553.544000) vcan0 00000002#4382EA R
(2203553.788000) vcan0 00000001#4483EB R
(2203554.024000) vcan0 00000002#4584EC R
(2203554.266000) vcan0 00000001#4685ED R
(2203554.501000) vcan0 00000002#4786EE R
(2203554.745000) vcan0 00000001#4887EF R
(2203554.981000) vcan0 00000002#4988F0 R
(2203555.219000) vcan0 00000001#4A89F1 R
(2203555.455000) vcan0 00000002#4B8AF2 R
(2203555.699000) vcan0 00000001#4C8BF3 R
(2203555.934000) vcan0 00000002#4D8CF4 R
(2203556.170000) vcan0 00000001#4E8DF5 R
(2203556.412000) vcan0 00000002#4F8EF6 R
(2203556.656000) vcan0 00000001#508FF7 R
(2203556.892000) vcan0 00000002#5190F8 R
(2203557.128000) vcan0 00000001#5291F9 R
(2203557.365000) vcan0 00000002#5392FA R
(2203557.601000) vcan0 00000001#5493FB R
(2203557.845000) vcan0 00000002#0094FC R
(2203558.081000) vcan0 00000001#0195FD R
(2203558.319000) vcan0 00000002#0296FE R
(2203558.555000) vcan0 00000001#0397FF R
(2203558.798000) vcan0 00000002#049800 R
(2203559.034000) vcan0 00000001#059901 R
(2203559.276000) vcan0 00000002#069A02 R
(2203559.511000) vcan0 00000001#079B03 R
(2203559.755000) vcan0 00000002#089C04 R
(2203559.991000) vcan0 00000001#099D05 R
(2203560.233000) vcan0 00000002#0A9E06 R
(2203560.468000) vcan0 00000001#0B9F07 R
(2203560.712000) vcan0 00000002#0CA008 R
(2203560.948000) vcan0 00000001#0DA109 R
(2203561.184000) vcan0 00000002#0EA20A R
(2203561.425000) vcan0 00000001#0FA30B R
(2203561.669000) vcan0 00000002#10A40C R
(2203561.905000) vcan0 00000001#11A50D R
(2203562.140000) vcan0 00000002#12A60E R
(2203562.382000) vcan0 00000001#13A70F R
(2203562.618000) vcan0 00000002#14A810 R
(2203562.861000) vcan0 00000001#15A911 R
(2203563.097000) vcan0 00000002#16AA12 R
(2203563.335000) vcan0 00000001#175513 R
(2203563.571000) vcan0 00000002#185614 R
(2203563.815000) vcan0 00000001#195715 R
(2203564.050000) vcan0 00000002#1A5816 R
(2203564.292000) vcan0 00000001#1B5917 R
(2203564.528000) vcan0 00000002#1C5A18 R
(2203564.771000) vcan0 00000001#1D5B19 R
(2203565.007000) vcan0 00000002#1E5C1A R
(2203565.249000) vcan0 00000001#1F5D1B R
(2203565.485000) vcan0 00000002#205E1C R
(2203565.729000) vcan0 00000001#215F1D R
(2203565.964000) vcan0 00000002#22601E R
(2203566.201000) vcan0 00000001#23611F R
(2203566.441000) vcan0 00000002#246220 R
(2203566.685000) vcan0 00000001#256321 R
(2203566.921000) vcan0 00000002#266422 R
(2203567.157000) vcan0 00000001#276523 R
(2203567.398000) vcan0 00000002#286624 R
(2203567.642000) vcan0 00000001#296725 R
(2203567.878000) vcan0 00000002#2A6826 R
(2203568.113000) vcan0 00000001#2B6927 R
(2203568.352000) vcan0 00000002#2C6A28 R
(2203568.587000) vcan0 00000001#2D6B29 R
(2203568.831000) vcan0 00000002#2E6C2A R
(2203569.067000) vcan0 00000001#2F6D2B R
(2203569.309000) vcan0 00000002#306E2C R
(2203569.544000) vcan0 00000001#316F2D R
(2203569.788000) vcan0 00000002#32702E R
(2203570.024000) vcan0 00000001#33712F R
(2203570.266000) vcan0 00000002#347230 R
(2203570.501000) vcan0 00000001#357331 R
(2203570.745000) vcan0 00000002#367432 R
(2203570.981000) vcan0 00000001#377533 R
(2203571.219000) vcan0 00000002#387634 R
(2203571.455000) vcan0 00000001#397735 R
(2203571.699000) vcan0 00000002#3A7836 R
(2203571.934000) vcan0 00000001#3B7937 R
(2203572.170000) vcan0 00000002#3C7A38 R
(2203572.412000) vcan0 00000001#3D7B39 R
(2203572.656000) vcan0 00000002#3E7C3A R
(2203572.892000) vcan0 00000001#3F7D3B R
(2203573.128000) vcan0 00000002#407E3C R
(2203573.365000) vcan0 00000001#417F3D R
(2203573.601000) vcan0 00000002#42803E R
(2203573.845000) vcan0 00000001#43813F R
(2203574.081000) vcan0 00000002#448240 R
(2203574.319000) vcan0 00000001#458341 R
(2203574.555000) vcan0 00000002#468442 R
(2203574.798000) vcan0 00000001#478543 R
(2203575.034000) vcan0 00000002#488644 R
(2203575.276000) vcan0 00000001#498745 R
(2203575.511000) vcan0 00000002#4A8846 R
(2203575.755000) vcan0 00000001#4B8947 R
(2203575.991000) vcan0 00000002#4C8A48 R
(2203576.233000) vcan0 00000001#4D8B49 R
(2203576.468000) vcan0 00000002#4E8C4A R
(2203576.712000) vcan0 00000001#4F8D4B R
(2203576.948000) vcan0 00000002#508E4C R
(2203577.184000) vcan0 00000001#518F4D R
(2203577.425000) vcan0 00000002#52904E R
(2203577.669000) vcan0 00000001#53914F R
(2203577.905000) vcan0 00000002#549250 R
(2203578.140000) vcan0 00000001#009351 R
(2203578.382000) vcan0 00000002#019452 R
(2203578.618000) vcan0 00000001#029553 R
(2203578.861000) vcan0 00000002#039654 R
(2203579.097000) vcan0 00000001#049755 R
(2203579.335000) vcan0 00000002#059856 R
(2203579.571000) vcan0 00000001#069957 R
(2203579.815000) vcan0 00000002#079A58 R
(2203580.050000) vcan0 00000001#089B59 R
(2203580.292000) vcan0 00000002#099C5A R
(2203580.528000) vcan0 00000001#0A9D5B R
(2203580.772000) vcan0 00000002#0B9E5C R
(2203581.007000) vcan0 00000001#0C9F5D R
(2203581.249000) vcan0 00000002#0DA05E R
(2203581.485000) vcan0 00000001#0EA15F R
(2203581.729000) vcan0 00000002#0FA260 R
(2203581.965000) vcan0 00000001#10A361 R
(2203582.201000) vcan0 00000002#11A462 R
(2203582.441000) vcan0 00000001#12A563 R
(2203582.685000) vcan0 00000002#13A664 R
(2203582.921000) vcan0 00000001#14A765 R
(2203583.157000) vcan0 00000002#15A866 R
(2203583.398000) vcan0 00000001#16A967 R
(2203583.642000) vcan0 00000002#17AA68 R
(2203583.878000) vcan0 00000001#185569 R
(2203584.113000) vcan0 00000002#19566A R
(2203584.352000) vcan0 00000001#1A576B R
(2203584.587000) vcan0 00000002#1B586C R
(2203584.831000) vcan0 00000001#1C596D R
(2203585.067000) vcan0 00000002#1D5A6E R
(2203585.309000) vcan0 00000001#1E5B6F R
(2203585.545000) vcan0 00000002#1F5C70 R
(2203585.788000) vcan0 00000001#205D71 R
(2203586.024000) vcan0 00000002#215E72 R
(2203586.265000) vcan0 00000001#225F73 R
(2203586.501000) vcan0 00000002#236074 R
(2203586.745000) vcan0 00000001#246175 R
(2203586.981000) vcan0 00000002#256276 R
(2203587.219000) vcan0 00000001#266377 R
(2203587.455000) vcan0 00000002#276478 R
(2203587.698000) vcan0 00000001#286579 R
(2203587.934000) vcan0 00000002#29667A R
(2203588.170000) vcan0 00000001#2A677B R
(2203588.412000) vcan0 00000002#2B687C R
(2203588.656000) vcan0 00000001#2C697D R
(2203588.891000) vcan0 00000002#2D6A7E R
(2203589.127000) vcan0 00000001#2E6B7F R
(2203589.366000) vcan0 00000002#2F6C80 R
(2203589.601000) vcan0 00000001#306D81 R
(2203589.845000) vcan0 00000002#316E82 R
(2203590.081000) vcan0 00000001#326F83 R
(2203590.318000) vcan0 00000002#337084 R
(2203590.554000) vcan0 00000001#347185 R
(2203590.798000) vcan0 00000002#357286 R
(2203591.034000) vcan0 00000001#367387 R
(2203591.276000) vcan0 00000002#377488 R
(2203591.511000) vcan0 00000001#387589 R
(2203591.755000) vcan0 00000002#39768A R
(2203591.991000) vcan0 00000001#3A778B R
(2203592.233000) vcan0 00000002#3B788C R
(2203592.468000) vcan0 00000001#3C798D R
(2203592.712000) vcan0 00000002#3D7A8E R
(2203592.948000) vcan0 00000001#3E7B8F R
(2203593.184000) vcan0 00000002#3F7C90 R
(2203593.425000) vcan0 00000001#407D91 R
(2203593.669000) vcan0 00000002#417E92 R
(2203593.905000) vcan0 00000001#427F93 R
(2203594.140000) vcan0 00000002#438094 R
(2203594.382000) vcan0 00000001#448195 R
(2203594.618000) vcan0 00000002#458296 R
(2203594.862000) vcan0 00000001#468397 R
(2203595.097000) vcan0 00000002#478498 R
(2203595.335000) vcan0 00000001#488599 R
(2203595.571000) vcan0 00000002#49869A R
(2203595.815000) vcan0 00000001#4A879B R
(2203596.051000) vcan0 00000002#4B889C R
(2203596.293000) vcan0 00000001#4C899D R
(2203596.529000) vcan0 00000002#4D8A9E R
(2203596.772000) vcan0 00000001#4E8B9F R
(2203597.008000) vcan0 00000002#4F8CA0 R
(2203597.249000) vcan0 00000001#508DA1 R
(2203597.485000) vcan0 00000002#518EA2 R
(2203597.729000) vcan0 00000001#528FA3 R
(2203597.964000) vcan0 00000002#5390A4 R
(2203598.201000) vcan0 00000001#5491A5 R
(2203598.441000) vcan0 00000002#0092A6 R
(2203598.685000) vcan0 00000001#0193A7 R
(2203598.921000) vcan0 00000002#0294A8 R
(2203599.157000) vcan0 00000001#0395A9 R
(2203599.398000) vcan0 00000002#0496AA R
(2203599.642000) vcan0 00000001#0597AB R
(2203599.878000) vcan0 00000002#0698AC R
(2203600.113000) vcan0 00000001#0799AD R
(2203600.352000) vcan0 00000002#089AAE R
(2203600.587000) vcan0 00000001#099BAF R
(2203600.831000) vcan0 00000002#0A9CB0 R
(2203601.067000) vcan0 00000001#0B9DB1 R
(2203601.308000) vcan0 00000002#0C9EB2 R
(2203601.544000) vcan0 00000001#0D9FB3 R
(2203601.788000) vcan0 00000002#0EA0B4 R
(2203602.023000) vcan0 00000001#0FA1B5 R
(2203602.265000) vcan0 00000002#10A2B6 R
(2203602.501000) vcan0 00000001#11A3B7 R
(2203602.745000) vcan0 00000002#12A4B8 R
(2203602.981000) vcan0 00000001#13A5B9 R
(2203603.219000) vcan0 00000002#14A6BA R
(2203603.455000) vcan0 00000001#15A7BB R
(2203603.699000) vcan0 00000002#16A8BC R
(2203603.934000) vcan0 00000001#17A9BD R
(2203604.170000) vcan0 00000002#18AABE R
(2203604.412000) vcan0 00000001#1955BF R
(2203604.656000) vcan0 00000002#1A56C0 R
(2203604.891000) vcan0 00000001#1B57C1 R
(2203605.127000) vcan0 00000002#1C58C2 R
(2203605.366000) vcan0 00000001#1D59C3 R
(2203605.601000) vcan0 00000002#1E5AC4 R
(2203605.845000) vcan0 00000001#1F5BC5 R
(2203606.081000) vcan0 00000002#205CC6 R
(2203606.319000) vcan0 00000001#215DC7 R
(2203606.554000) vcan0 00000002#225EC8 R
(2203606.798000) vcan0 00000001#235FC9 R
(2203607.034000) vcan0 00000002#2460CA R
(2203607.276000) vcan0 00000001#2561CB R
(2203607.512000) vcan0 00000002#2662CC R
(2203607.755000) vcan0 00000001#2763CD R
(2203607.991000) vcan0 00000002#2864CE R
(2203608.233000) vcan0 00000001#2965CF R
(2203608.469000) vcan0 00000002#2A66D0 R
(2203608.713000) vcan0 00000001#2B67D1 R
(2203608.948000) vcan0 00000002#2C68D2 R
(2203609.184000) vcan0 00000001#2D69D3 R
(2203609.425000) vcan0 00000002#2E6AD4 R
(2203609.669000) vcan0 00000001#2F6BD5 R
(2203609.905000) vcan0 00000002#306CD6 R
(2203610.140000) vcan0 00000001#316DD7 R
(2203610.382000) vcan0 00000002#326ED8 R
(2203610.618000) vcan0 00000001#336FD9 R
(2203610.861000) vcan0 00000002#3470DA R
(2203611.097000) vcan0 00000001#3571DB R
(2203611.335000) vcan0 00000002#3672DC R
(2203611.571000) vcan0 00000001#3773DD R
(2203611.815000) vcan0 00000002#3874DE R
(2203612.050000) vcan0 00000001#3975DF R
(2203612.292000) vcan0 00000002#3A76E0 R
(2203612.528000) vcan0 00000001#3B77E1 R
(2203612.771000) vcan0 00000002#3C78E2 R
(2203613.007000) vcan0 00000001#3D79E3 R
(2203613.249000) vcan0 00000002#3E7AE4 R
(2203613.485000) vcan0 00000001#3F7BE5 R
(2203613.729000) vcan0 00000002#407CE6 R
(2203613.964000) vcan0 00000001#417DE7 R
(2203614.201000) vcan0 00000002#427EE8 R
(2203614.441000) vcan0 00000001#437FE9 R
(2203614.685000) vcan0 00000002#4480EA R
(2203614.921000) vcan0 00000001#4581EB R
(2203615.157000) vcan0 00000002#4682EC R
(2203615.398000) vcan0 00000001#4783ED R
(2203615.642000) vcan0 00000002#4884EE R
(2203615.878000) vcan0 00000001#4985EF R
(2203616.113000) vcan0 00000002#4A86F0 R
(2203616.352000) vcan0 00000001#4B87F1 R
(2203616.587000) vcan0 00000002#4C88F2 R
(2203616.831000) vcan0 00000001#4D89F3 R
(2203617.067000) vcan0 00000002#4E8AF4 R
(2203617.309000) vcan0 00000001#4F8BF5 R
(2203617.544000) vcan0 00000002#508CF6 R
(2203617.788000) vcan0 00000001#518DF7 R
(2203618.024000) vcan0 00000002#528EF8 R
(2203618.266000) vcan0 00000001#538FF9 R
(2203618.501000) vcan0 00000002#5490FA R
(2203618.745000) vcan0 00000001#0091FB R
(2203618.981000) vcan0 00000002#0192FC R
(2203619.219000) vcan0 00000001#0293FD R
(2203619.455000) vcan0 00000002#0394FE R
(2203619.699000) vcan0 00000001#0495FF R
(2203619.934000) vcan0 00000002#059600 R
(2203620.170000) vcan0 00000001#069701 R
(2203620.412000) vcan0 00000002#079802 R
(2203620.656000) vcan0 00000001#089903 R
(2203620.892000) vcan0 00000002#099A04 R
(2203621.128000) vcan0 00000001#0A9B05 R
(2203621.365000) vcan0 00000002#0B9C06 R
(2203621.601000) vcan0 00000001#0C9D07 R
(2203621.845000) vcan0 00000002#0D9E08 R
(2203622.081000) vcan0 00000001#0E9F09 R
(2203622.319000) vcan0 00000002#0FA00A R
(2203622.555000) vcan0 00000001#10A10B R
(2203622.798000) vcan0 00000002#11A20C R
(2203623.034000) vcan0 00000001#12A30D R
(2203623.276000) vcan0 00000002#13A40E R
(2203623.511000) vcan0 00000001#14A50F R
(2203623.755000) vcan0 00000002#15A610 R
(2203623.991000) vcan0 00000001#16A711 R
(2203624.233000) vcan0 00000002#17A812 R
(2203624.468000) vcan0 00000001#18A913 R
(2203624.712000) vcan0 00000002#19AA14 R
(2203624.948000) vcan0 00000001#1A5515 R
(2203625.184000) vcan0 00000002#1B5616 R
(2203625.425000) vcan0 00000001#1C5717 R
(2203625.669000) vcan0 00000002#1D5818 R
(2203625.905000) vcan0 00000001#1E5919 R
(2203626.140000) vcan0 00000002#1F5A1A R
(2203626.382000) vcan0 00000001#205B1B R
(2203626.618000) vcan0 00000002#215C1C R
(2203626.861000) vcan0 00000001#225D1D R
(2203627.097000) vcan0 00000002#235E1E R
(2203627.335000) vcan0 00000001#245F1F R
(2203627.571000) vcan0 00000002#256020 R
(2203627.815000) vcan0 00000001#266121 R
(2203628.050000) vcan0 00000002#276222 R
(2203628.292000) vcan0 00000001#286323 R
(2203628.528000) vcan0 00000002#296424 R
(2203628.771000) vcan0 00000001#2A6525 R
(2203629.007000) vcan0 00000002#2B6626 R
(2203629.249000) vcan0 00000001#2C6727 R
(2203629.485000) vcan0 00000002#2D6828 R
(2203629.729000) vcan0 00000001#2E6929 R
(2203629.964000) vcan0 00000002#2F6A2A R
(2203630.201000) vcan0 00000001#306B2B R
(2203630.441000) vcan0 00000002#316C2C R
(2203630.685000) vcan0 00000001#326D2D R
(2203630.921000) vcan0 00000002#336E2E R
(2203631.157000) vcan0 00000001#346F2F R
(2203631.398000) vcan0 00000002#357030 R
(2203631.642000) vcan0 00000001#367131 R
(2203631.878000) vcan0 00000002#377232 R
(2203632.114000) vcan0 00000001#387333 R
(2203632.352000) vcan0 00000002#397434 R
(2203632.587000) vcan0 00000001#3A7535 R
(2203632.831000) vcan0 00000002#3B7636 R
(2203633.067000) vcan0 00000001#3C7737 R
(2203633.308000) vcan0 00000002#3D7838 R
(2203633.544000) vcan0 00000001#3E7939 R
(2203633.788000) vcan0 00000002#3F7A3A R
(2203634.023000) vcan0 00000001#407B3B R
(2203634.265000) vcan0 00000002#417C3C R
(2203634.501000) vcan0 00000001#427D3D R
(2203634.745000) vcan0 00000002#437E3E R
(2203634.981000) vcan0 00000001#447F3F R
(2203635.219000) vcan0 00000002#458040 R
(2203635.455000) vcan0 00000001#468141 R
(2203635.699000) vcan0 00000002#478242 R
(2203635.935000) vcan0 00000001#488343 R
(2203636.170000) vcan0 00000002#498444 R
(2203636.412000) vcan0 00000001#4A8545 R
(2203636.656000) vcan0 00000002#4B8646 R
(2203636.892000) vcan0 00000001#4C8747 R
(2203637.128000) vcan0 00000002#4D8848 R
(2203637.365000) vcan0 00000001#4E8949 R
(2203637.601000) vcan0 00000002#4F8A4A R
(2203637.845000) vcan0 00000001#508B4B R
(2203638.081000) vcan0 00000002#518C4C R
(2203638.319000) vcan0 00000001#528D4D R
(2203638.555000) vcan0 00000002#538E4E R
(2203638.798000) vcan0 00000001#548F4F R
(2203639.034000) vcan0 00000002#009050 R
(2203639.276000) vcan0 00000001#019151 R
(2203639.511000) vcan0 00000002#029252 R
(2203639.755000) vcan0 00000001#039353 R
(2203639.991000) vcan0 00000002#049454 R
(2203640.233000) vcan0 00000001#059555 R
(2203640.468000) vcan0 00000002#069656 R
(2203640.712000) vcan0 00000001#079757 R
(2203640.948000) vcan0 00000002#089858 R
(2203641.184000) vcan0 00000001#099959 R
(2203641.425000) vcan0 00000002#0A9A5A R
(2203641.669000) vcan0 00000001#0B9B5B R
(2203641.905000) vcan0 00000002#0C9C5C R
(2203642.140000) vcan0 00000001#0D9D5D R
(2203642.382000) vcan0 00000002#0E9E5E R
(2203642.618000) vcan0 00000001#0F9F5F R
(2203642.861000) vcan0 00000002#10A060 R
(2203643.097000) vcan0 00000001#11A161 R
(2203643.335000) vcan0 00000002#12A262 R
(2203643.571000) vcan0 00000001#13A363 R
(2203643.815000) vcan0 00000002#14A464 R
(2203644.050000) vcan0 00000001#15A565 R
(2203644.292000) vcan0 00000002#16A666 R
(2203644.528000) vcan0 00000001#17A767 R
(2203644.771000) vcan0 00000002#18A868 R
(2203645.007000) vcan0 00000001#19A969 R
(2203645.249000) vcan0 00000002#1AAA6A R
(2203645.485000) vcan0 00000001#1B556B R
(2203645.729000) vcan0 00000002#1C566C R
(2203645.964000) vcan0 00000001#1D576D R
(2203646.201000) vcan0 00000002#1E586E R
(2203646.441000) vcan0 00000001#1F596F R
(2203646.685000) vcan0 00000002#205A70 R
(2203646.921000) vcan0 00000001#215B71 R
(2203647.157000) vcan0 00000002#225C72 R
(2203647.398000) vcan0 00000001#235D73 R
(2203647.642000) vcan0 00000002#245E74 R
(2203647.877000) vcan0 00000001#255F75 R
(2203648.113000) vcan0 00000002#266076 R
(2203648.351000) vcan0 00000001#276177 R
(2203648.587000) vcan0 00000002#286278 R
(2203648.831000) vcan0 00000001#296379 R
(2203649.067000) vcan0 00000002#2A647A R
(2203649.308000) vcan0 00000001#2B657B R
(2203649.544000) vcan0 00000002#2C667C R
(2203649.788000) vcan0 00000001#2D677D R
(2203650.024000) vcan0 00000002#2E687E R
(2203650.265000) vcan0 00000001#2F697F R
(2203650.501000) vcan0 00000002#306A80 R
(2203650.745000) vcan0 00000001#316B81 R
(2203650.981000) vcan0 00000002#326C82 R
(2203651.219000) vcan0 00000001#336D83 R
(2203651.455000) vcan0 00000002#346E84 R
(2203651.698000) vcan0 00000001#356F85 R
(2203651.934000) vcan0 00000002#367086 R
(2203652.170000) vcan0 00000001#377187 R
(2203652.412000) vcan0 00000002#387288 R
(2203652.656000) vcan0 00000001#397389 R
(2203652.891000) vcan0 00000002#3A748A R
(2203653.127000) vcan0 00000001#3B758B R
(2203653.366000) vcan0 00000002#3C768C R
(2203653.601000) vcan0 00000001#3D778D R
(2203653.845000) vcan0 00000002#3E788E R
(2203654.081000) vcan0 00000001#3F798F R
(2203654.318000) vcan0 00000002#407A90 R
(2203654.554000) vcan0 00000001#417B91 R
(2203654.798000) vcan0 00000002#427C92 R
(2203655.034000) vcan0 00000001#437D93 R
(2203655.276000) vcan0 00000002#447E94 R
(2203655.511000) vcan0 00000001#457F95 R
(2203655.755000) vcan0 00000002#468096 R
(2203655.991000) vcan0 00000001#478197 R
(2203656.233000) vcan0 00000002#488298 R
(2203656.468000) vcan0 00000001#498399 R
(2203656.712000) vcan0 00000002#4A849A R
(2203656.948000) vcan0 00000001#4B859B R
(2203657.184000) vcan0 00000002#4C869C R
(2203657.425000) vcan0 00000001#4D879D R
(2203657.669000) vcan0 00000002#4E889E R
(2203657.905000) vcan0 00000001#4F899F R
(2203658.140000) vcan0 00000002#508AA0 R
(2203658.382000) vcan0 00000001#518BA1 R
(2203658.618000) vcan0 00000002#528CA2 R
(2203658.862000) vcan0 00000001#538DA3 R
(2203659.097000) vcan0 00000002#548EA4 R
(2203659.335000) vcan0 00000001#008FA5 R
(2203659.571000) vcan0 00000002#0190A6 R
(2203659.815000) vcan0 00000001#0291A7 R
(2203660.051000) vcan0 00000002#0392A8 R
(2203660.293000) vcan0 00000001#0493A9 R
(2203660.528000) vcan0 00000002#0594AA R
(2203660.772000) vcan0 00000001#0695AB R
(2203661.007000) vcan0 00000002#0796AC R
(2203661.249000) vcan0 00000001#0897AD R
(2203661.485000) vcan0 00000002#0998AE R
(2203661.729000) vcan0 00000001#0A99AF R
(2203661.965000) vcan0 00000002#0B9AB0 R
(2203662.201000) vcan0 00000001#0C9BB1 R
(2203662.441000) vcan0 00000002#0D9CB2 R
(2203662.685000) vcan0 00000001#0E9DB3 R
(2203662.921000) vcan0 00000002#0F9EB4 R
(2203663.157000) vcan0 00000001#109FB5 R
(2203663.398000) vcan0 00000002#11A0B6 R
(2203663.642000) vcan0 00000001#12A1B7 R
(2203663.878000) vcan0 00000002#13A2B8 R
(2203664.114000) vcan0 00000001#14A3B9 R
(2203664.352000) vcan0 00000002#15A4BA R
(2203664.587000) vcan0 00000001#16A5BB R
(2203664.831000) vcan0 00000002#17A6BC R
(2203665.067000) vcan0 00000001#18A7BD R
(2203665.308000) vcan0 00000002#19A8BE R
(2203665.544000) vcan0 00000001#1AA9BF R
(2203665.788000) vcan0 00000002#1BAAC0 R
(2203666.023000) vcan0 00000001#1C55C1 R
(2203666.265000) vcan0 00000002#1D56C2 R
(2203666.501000) vcan0 00000001#1E57C3 R
(2203666.745000) vcan0 00000002#1F58C4 R
(2203666.981000) vcan0 00000001#2059C5 R
(2203667.219000) vcan0 00000002#215AC6 R
(2203667.455000) vcan0 00000001#225BC7 R
(2203667.699000) vcan0 00000002#235CC8 R
(2203667.935000) vcan0 00000001#245DC9 R
(2203668.170000) vcan0 00000002#255ECA R
(2203668.412000) vcan0 00000001#265FCB R
(2203668.656000) vcan0 00000002#2760CC R
(2203668.892000) vcan0 00000001#2861CD R
(2203669.128000) vcan0 00000002#2962CE R
(2203669.365000) vcan0 00000001#2A63CF R
(2203669.601000) vcan0 00000002#2B64D0 R
(2203669.845000) vcan0 00000001#2C65D1 R
(2203670.081000) vcan0 00000002#2D66D2 R
(2203670.319000) vcan0 00000001#2E67D3 R
(2203670.555000) vcan0 00000002#2F68D4 R
(2203670.798000) vcan0 00000001#3069D5 R
(2203671.034000) vcan0 00000002#316AD6 R
(2203671.276000) vcan0 00000001#326BD7 R
(2203671.511000) vcan0 00000002#336CD8 R
(2203671.755000) vcan0 00000001#346DD9 R
(2203671.991000) vcan0 00000002#356EDA R
(2203672.233000) vcan0 00000001#366FDB R
(2203672.468000) vcan0 00000002#3770DC R
(2203672.712000) vcan0 00000001#3871DD R
(2203672.948000) vcan0 00000002#3972DE R
(2203673.184000) vcan0 00000001#3A73DF R
(2203673.425000) vcan0 00000002#3B74E0 R
(2203673.669000) vcan0 00000001#3C75E1 R
(2203673.905000) vcan0 00000002#3D76E2 R
(2203674.140000) vcan0 00000001#3E77E3 R
(2203674.382000) vcan0 00000002#3F78E4 R
(2203674.618000) vcan0 00000001#4079E5 R
(2203674.861000) vcan0 00000002#417AE6 R
(2203675.097000) vcan0 00000001#427BE7 R
(2203675.335000) vcan0 00000002#437CE8 R
(2203675.571000) vcan0 00000001#447DE9 R
(2203675.815000) vcan0 00000002#457EEA R
(2203676.050000) vcan0 00000001#467FEB R
(2203676.292000) vcan0 00000002#4780EC R
(2203676.528000) vcan0 00000001#4881ED R
(2203676.771000) vcan0 00000002#4982EE R
(2203677.007000) vcan0 00000001#4A83EF R
(2203677.249000) vcan0 00000002#4B84F0 R
(2203677.485000) vcan0 00000001#4C85F1 R
(2203677.729000) vcan0 00000002#4D86F2 R
(2203677.964000) vcan0 00000001#4E87F3 R
(2203678.201000) vcan0 00000002#4F88F4 R
(2203678.441000) vcan0 00000001#5089F5 R
(2203678.685000) vcan0 00000002#518AF6 R
(2203678.921000) vcan0 00000001#528BF7 R
(2203679.157000) vcan0 00000002#538CF8 R
(2203679.398000) vcan0 00000001#548DF9 R
(2203679.642000) vcan0 00000002#008EFA R
