(2.000000) vcan0 00000001#060000 R
(2.000000) vcan0 00000001#070000 R
(2.000000) vcan0 00000001#080000 R
(2.000000) vcan0 00000001#090000 R
(2.000000) vcan0 00000001#0A0000 R
(2.000000) vcan0 00000001#0E0000 R
(2.000000) vcan0 00000001#0F0000 R
(2.000000) vcan0 00000001#100000 R
(2.000000) vcan0 00000001#110000 R
(2.000000) vcan0 00000001#120000 R
(2.000000) vcan0 00000001#130000 R
(2.000000) vcan0 00000001#140000 R
(2.000000) vcan0 00000001#150000 R
(2.000000) vcan0 00000001#160000 R
(2.000000) vcan0 00000001#170000 R
(2.000000) vcan0 00000001#180000 R
(2.000000) vcan0 00000001#190000 R
(2.000000) vcan0 00000001#1A0000 R
(2.000000) vcan0 00000001#1B0000 R
(2.000000) vcan0 00000001#1C0000 R
(2.000000) vcan0 00000001#1D0000 R
(2.000000) vcan0 00000001#1E0000 R
(2.000000) vcan0 00000001#1F0000 R
(2.000000) vcan0 00000001#200000 R
(2.000000) vcan0 00000001#210000 R
(2.000000) vcan0 00000001#220000 R
(2.000000) vcan0 00000001#230000 R
(2.000000) vcan0 00000001#240000 R
(2.000000) vcan0 00000001#250000 R
(2.000000) vcan0 00000001#260000 R
(2.000000) vcan0 00000001#270000 R
(2.000000) vcan0 00000001#280000 R
(2.000000) vcan0 00000001#290000 R
(2.000000) vcan0 00000001#2A0000 R
(2.000000) vcan0 00000001#2B0000 R
(2.000000) vcan0 00000001#2C0000 R
(2.000000) vcan0 00000001#2D0000 R
(2.000000) vcan0 00000001#2E0000 R
(2.000000) vcan0 00000001#2F0000 R
(2.000000) vcan0 00000001#300000 R
(2.000000) vcan0 00000001#310000 R
(2.000000) vcan0 00000001#320000 R
(2.000000) vcan0 00000001#330000 R
(2.000000) vcan0 00000001#340000 R
(2.000000) vcan0 00000001#350000 R
(2.000000) vcan0 00000001#360000 R
(2.000000) vcan0 00000001#370000 R
(2.000000) vcan0 00000001#380000 R
(2.000000) vcan0 00000001#390000 R
(2.000000) vcan0 00000001#3A0000 R
(2.000000) vcan0 00000001#3B0000 R
(2.000000) vcan0 00000001#3C0000 R
(2.000000) vcan0 00000001#3D0000 R
(2.000000) vcan0 00000001#3E0000 R
(2.000000) vcan0 00000001#3F0000 R
(2.000000) vcan0 00000001#400000 R
(2.000000) vcan0 00000001#410000 R
(2.000000) vcan0 00000001#420000 R
(2.000000) vcan0 00000001#430000 R
(2.000000) vcan0 00000001#440000 R
(2.000000) vcan0 00000001#450000 R
(2.000000) vcan0 00000001#460000 R
(2.000000) vcan0 00000001#470000 R
(2.000000) vcan0 00000001#480000 R
(2.000000) vcan0 00000001#490000 R
(2.000000) vcan0 00000001#4A0000 R
(2.000000) vcan0 00000001#4B0000 R
(2.000000) vcan0 00000001#4C0000 R
(2.000000) vcan0 00000001#4D0000 R
(2.000000) vcan0 00000001#4E0000 R
(2.000000) vcan0 00000001#4F0000 R
(2.000000) vcan0 00000001#500000 R
(2.000000) vcan0 00000001#510000 R
(2.000000) vcan0 00000001#520000 R
(2.000000) vcan0 00000001#530000 R
(2.000000) vcan0 00000001#540000 R
(2.000000) vcan0 00000001#000000 R
(2.000000) vcan0 00000001#010000 R
(2.000000) vcan0 00000001#020000 R
(2.000000) vcan0 00000001#030000 R
(2.000000) vcan0 00000001#040000 R
(2.000000) vcan0 00000001#050000 R
(2.000000) vcan0 00000001#060000 R
(2.000000) vcan0 00000001#070000 R
(2.000000) vcan0 00000001#080000 R
(2.000000) vcan0 00000001#090000 R
(2.000000) vcan0 00000001#0A0000 R
(2.000000) vcan0 00000001#0B0000 R
(2.000000) vcan0 00000001#0C0000 R
(2.000000) vcan0 00000001#0D0000 R
(2.000000) vcan0 00000001#0E0000 R
(2.000000) vcan0 00000001#0F0000 R
(2.000000) vcan0 00000001#100000 R
(2.000000) vcan0 00000001#110000 R
(2.000000) vcan0 00000001#120000 R
(2.000000) vcan0 00000001#130000 R
(2.000000) vcan0 00000001#140000 R
(2.000000) vcan0 00000001#150000 R
(2.000000) vcan0 00000001#160000 R
(2.000000) vcan0 00000001#170000 R
(2.000000) vcan0 00000001#180000 R
(2.000000) vcan0 00000001#190000 R
(2.000000) vcan0 00000001#1A0000 R
(2.000000) vcan0 00000001#1B0000 R
(2.000000) vcan0 00000001#1C0000 R
(2.000000) vcan0 00000001#1D0000 R
(2.000000) vcan0 00000001#1E0000 R
(2.000000) vcan0 00000001#1F0000 R
(2.000000) vcan0 00000001#200000 R
(2.000000) vcan0 00000001#210000 R
(2.000000) vcan0 00000001#220000 R
(2.000000) vcan0 00000001#230000 R
(2.000000) vcan0 00000001#240000 R
(2.000000) vcan0 00000001#250000 R
(2.000000) vcan0 00000001#260000 R
(2.000000) vcan0 00000001#270000 R
(2.000000) vcan0 00000001#280000 R
(2.000000) vcan0 00000001#290000 R
(2.000000) vcan0 00000001#2A0000 R
(2.000000) vcan0 00000001#2B0000 R
(2.000000) vcan0 00000001#2C0000 R
(2.000000) vcan0 00000001#2D0000 R
(2.000000) vcan0 00000001#2E0000 R
(2.000000) vcan0 00000001#2F0000 R
(2.000000) vcan0 00000001#300000 R
(2.000000) vcan0 00000001#310000 R
(2.000000) vcan0 00000001#320000 R
(2.000000) vcan0 00000001#330000 R
(2.000000) vcan0 00000001#340000 R
(2.000000) vcan0 00000001#350000 R
(2.000000) vcan0 00000001#360000 R
(2.000000) vcan0 00000001#370000 R
(2.000000) vcan0 00000001#380000 R
(2.000000) vcan0 00000001#390000 R
(2.000000) vcan0 00000001#3A0000 R
(2.000000) vcan0 00000001#3B0000 R
(2.000000) vcan0 00000001#3C0000 R
(2.000000) vcan0 00000001#3D0000 R
(2.000000) vcan0 00000001#3E0000 R
(2.000000) vcan0 00000001#3F0000 R
(2.000000) vcan0 00000001#400000 R
(2.000000) vcan0 00000001#410000 R
(2.000000) vcan0 00000001#420000 R
(2.000000) vcan0 00000001#430000 R
(2.000000) vcan0 00000001#440000 R
(2.000000) vcan0 00000001#450000 R
(2.000000) vcan0 00000001#460000 R
(2.000000) vcan0 00000001#470000 R
(2.000000) vcan0 00000001#480000 R
(2.000000) vcan0 00000001#490000 R
(2.000000) vcan0 00000001#4A0000 R
(2.000000) vcan0 00000001#4B0000 R
(2.000000) vcan0 00000001#4C0000 R
(2.000000) vcan0 00000001#4D0000 R
(2.000000) vcan0 00000001#4E0000 R
(2.000000) vcan0 00000001#4F0000 R
(2.000000) vcan0 00000001#500000 R
(2.000000) vcan0 00000001#510000 R
(2.000000) vcan0 00000001#520000 R
(2.000000) vcan0 00000001#530000 R
(2.000000) vcan0 00000001#540000 R
(2.000000) vcan0 00000001#000000 R
(2.000000) vcan0 00000001#010000 R
(2.000000) vcan0 00000001#020000 R
(2.000000) vcan0 00000001#030000 R
(2.000000) vcan0 00000001#040000 R
(2.000000) vcan0 00000001#050000 R
(2.000000) vcan0 00000001#060000 R
(2.000000) vcan0 00000001#070000 R
(2.000000) vcan0 00000001#080000 R
(2.000000) vcan0 00000001#090000 R
(2.000000) vcan0 00000001#0A0000 R
(2.000000) vcan0 00000001#0B0000 R
(2.000000) vcan0 00000001#0C0000 R
(2.000000) vcan0 00000001#0D0000 R
(2.000000) vcan0 00000001#0E0000 R
(2.000000) vcan0 00000001#0F0000 R
(2.000000) vcan0 00000001#100000 R
(2.000000) vcan0 00000001#110000 R
(2.000000) vcan0 00000001#120000 R
(2.000000) vcan0 00000001#130000 R
(2.000000) vcan0 00000001#140000 R
(2.000000) vcan0 00000001#150000 R
(2.000000) vcan0 00000001#160000 R
(2.000000) vcan0 00000001#170000 R
(2.000000) vcan0 00000001#180000 R
(2.000000) vcan0 00000001#190000 R
(2.000000) vcan0 00000001#1A0000 R
(2.000000) vcan0 00000001#1B0000 R
(2.000000) vcan0 00000001#1C0000 R
(2.000000) vcan0 00000001#1D0000 R
(2.000000) vcan0 00000001#1E0000 R
(2.000000) vcan0 00000001#1F0000 R
(2.000000) vcan0 00000001#200000 R
(2.000000) vcan0 00000001#210000 R
(2.000000) vcan0 00000001#220000 R
(2.000000) vcan0 00000001#230000 R
(2.000000) vcan0 00000001#240000 R
(2.000000) vcan0 00000001#250000 R
(2.000000) vcan0 00000001#260000 R
(2.000000) vcan0 00000001#270000 R
(2.000000) vcan0 00000001#280000 R
(2.000000) vcan0 00000001#290000 R
(2.000000) vcan0 00000001#2A0000 R
(2.000000) vcan0 00000001#2B0000 R
(2.000000) vcan0 00000001#2C0000 R
(2.000000) vcan0 00000001#2D0000 R
(2.000000) vcan0 00000001#2E0000 R
(2.000000) vcan0 00000001#2F0000 R
(2.000000) vcan0 00000001#300000 R
(2.000000) vcan0 00000001#310000 R
(2.000000) vcan0 00000001#320000 R
(2.000000) vcan0 00000001#330000 R
(2.000000) vcan0 00000001#340000 R
(2.000000) vcan0 00000001#350000 R
(2.000000) vcan0 00000001#360000 R
(2.000000) vcan0 00000001#370000 R
(2.000000) vcan0 00000001#380000 R
(2.000000) vcan0 00000001#390000 R
(2.000000) vcan0 00000001#3A0000 R
(2.000000) vcan0 00000001#3B0000 R
(2.000000) vcan0 00000001#3C0000 R
(2.000000) vcan0 00000001#3D0000 R
(2.000000) vcan0 00000001#3E0000 R
(2.000000) vcan0 00000001#3F0000 R
(2.000000) vcan0 00000001#400000 R
(2.000000) vcan0 00000001#410000 R
(2.000000) vcan0 00000001#420000 R
(2.000000) vcan0 00000001#430000 R
(2.000000) vcan0 00000001#440000 R
(2.000000) vcan0 00000001#450000 R
(2.000000) vcan0 00000001#460000 R
(2.000000) vcan0 00000001#470000 R
(2.000000) vcan0 00000001#480000 R
(2.000000) vcan0 00000001#490000 R
(2.000000) vcan0 00000001#4A0000 R
(2.000000) vcan0 00000001#4B0000 R
(2.000000) vcan0 00000001#4C0000 R
(2.000000) vcan0 00000001#4D0000 R
(2.000000) vcan0 00000001#4E0000 R
(2.000000) vcan0 00000001#4F0000 R
(2.000000) vcan0 00000001#500000 R
(2.000000) vcan0 00000001#510000 R
(2.000000) vcan0 00000001#520000 R
(2.000000) vcan0 00000001#530000 R
(2.000000) vcan0 00000001#540000 R
(2.000000) vcan0 00000001#000000 R
(2.000000) vcan0 00000001#010000 R
(2.000000) vcan0 00000001#020000 R
(2.000000) vcan0 00000001#030000 R
(2.000000) vcan0 00000001#040000 R
(2.000000) vcan0 00000001#050000 R
(2.000000) vcan0 00000001#060000 R
(2.000000) vcan0 00000001#070000 R
(2.000000) vcan0 00000001#080000 R
(2.000000) vcan0 00000001#090000 R
(2.000000) vcan0 00000001#0A0000 R
(2.000000) vcan0 00000001#0B0000 R
(2.000000) vcan0 00000001#0C0000 R
(2.000000) vcan0 00000001#0D0000 R
(2.000000) vcan0 00000001#0E0000 R
(2.000000) vcan0 00000001#0F0000 R
(2.000000) vcan0 00000001#100000 R
(2.000000) vcan0 00000001#110000 R
(2.000000) vcan0 00000001#120000 R
(2.000000) vcan0 00000001#130000 R
(2.000000) vcan0 00000001#140000 R
(2.000000) vcan0 00000001#150000 R
(2.000000) vcan0 00000001#160000 R
(2.000000) vcan0 00000001#170000 R
(2.000000) vcan0 00000001#180000 R
(2.000000) vcan0 00000001#190000 R
(2.000000) vcan0 00000001#1A0000 R
(2.000000) vcan0 00000001#1B0000 R
(2.000000) vcan0 00000001#1C0000 R
(2.000000) vcan0 00000001#1D0000 R
(2.000000) vcan0 00000001#1E0000 R
(2.000000) vcan0 00000001#1F0000 R
(2.000000) vcan0 00000001#200000 R
(2.000000) vcan0 00000001#210000 R
(2.000000) vcan0 00000001#220000 R
(2.000000) vcan0 00000001#230000 R
(2.000000) vcan0 00000001#240000 R
(2.000000) vcan0 00000001#250000 R
(2.000000) vcan0 00000001#260000 R
(2.000000) vcan0 00000001#270000 R
(2.000000) vcan0 00000001#280000 R
(2.000000) vcan0 00000001#290000 R
(2.000000) vcan0 00000001#2A0000 R
(2.000000) vcan0 00000001#2B0000 R
(2.000000) vcan0 00000001#2C0000 R
(2.000000) vcan0 00000001#2D0000 R
(2.000000) vcan0 00000001#2E0000 R
(2.000000) vcan0 00000001#2F0000 R
(2.000000) vcan0 00000001#300000 R
(2.000000) vcan0 00000001#310000 R
(2.000000) vcan0 00000001#320000 R
(2.000000) vcan0 00000001#330000 R
(2.000000) vcan0 00000001#340000 R
(2.000000) vcan0 00000001#350000 R
(2.000000) vcan0 00000001#360000 R
(2.000000) vcan0 00000001#370000 R
(2.000000) vcan0 00000001#380000 R
(2.000000) vcan0 00000001#390000 R
(2.000000) vcan0 00000001#3A0000 R
(2.000000) vcan0 00000001#3B0000 R
(2.000000) vcan0 00000001#3C0000 R
(2.000000) vcan0 00000001#3D0000 R
(2.000000) vcan0 00000001#3E0000 R
(2.000000) vcan0 00000001#3F0000 R
(2.000000) vcan0 00000001#400000 R
(2.000000) vcan0 00000001#410000 R
(2.000000) vcan0 00000001#420000 R
(2.000000) vcan0 00000001#430000 R
(2.000000) vcan0 00000001#440000 R
(2.000000) vcan0 00000001#450000 R
(2.000000) vcan0 00000001#460000 R
(2.000000) vcan0 00000001#470000 R
(2.000000) vcan0 00000001#480000 R
(2.000000) vcan0 00000001#490000 R
(2.000000) vcan0 00000001#4A0000 R
(2.000000) vcan0 00000001#4B0000 R
(2.000000) vcan0 00000001#4C0000 R
(2.000000) vcan0 00000001#4D0000 R
(2.000000) vcan0 00000001#4E0000 R
(2.000000) vcan0 00000001#4F0000 R
(2.000000) vcan0 00000001#500000 R
(2.000000) vcan0 00000001#510000 R
(2.000000) vcan0 00000001#520000 R
(2.000000) vcan0 00000001#530000 R
(2.000000) vcan0 00000001#540000 R
(2.000000) vcan0 00000001#000000 R
(2.000000) vcan0 00000001#010000 R
(2.000000) vcan0 00000001#020000 R
(2.000000) vcan0 00000001#030000 R
(2.000000) vcan0 00000001#040000 R
(2.000000) vcan0 00000001#050000 R
(2.000000) vcan0 00000001#060000 R
(2.000000) vcan0 00000001#070000 R
(2.000000) vcan0 00000001#080000 R
(2.000000) vcan0 00000001#090000 R
(2.000000) vcan0 00000001#0A0000 R
(2.000000) vcan0 00000001#0B0000 R
(2.000000) vcan0 00000001#0C0000 R
(2.000000) vcan0 00000001#0D0000 R
(2.000000) vcan0 00000001#0E0000 R
(2.000000) vcan0 00000001#0F0000 R
(2.000000) vcan0 00000001#100000 R
(2.000000) vcan0 00000001#110000 R
(2.000000) vcan0 00000001#120000 R
(2.000000) vcan0 00000001#130000 R
(2.000000) vcan0 00000001#140000 R
(2.000000) vcan0 00000001#150000 R
(2.000000) vcan0 00000001#160000 R
(2.000000) vcan0 00000001#170000 R
(2.000000) vcan0 00000001#180000 R
(2.000000) vcan0 00000001#190000 R
(2.000000) vcan0 00000001#1A0000 R
(2.000000) vcan0 00000001#1B0000 R
(2.000000) vcan0 00000001#1C0000 R
(2.000000) vcan0 00000001#1D0000 R
(2.000000) vcan0 00000001#1E0000 R
(2.000000) vcan0 00000001#1F0000 R
(2.000000) vcan0 00000001#200000 R
(2.000000) vcan0 00000001#210000 R
(2.000000) vcan0 00000001#220000 R
(2.000000) vcan0 00000001#230000 R
(2.000000) vcan0 00000001#240000 R
(2.000000) vcan0 00000001#250000 R
(2.000000) vcan0 00000001#260000 R
(2.000000) vcan0 00000001#270000 R
(2.000000) vcan0 00000001#280000 R
(2.000000) vcan0 00000001#290000 R
(2.000000) vcan0 00000001#2A0000 R
(2.000000) vcan0 00000001#2B0000 R
(2.000000) vcan0 00000001#2C0000 R
(2.000000) vcan0 00000001#2D0000 R
(2.000000) vcan0 00000001#2E0000 R
(2.000000) vcan0 00000001#2F0000 R
(2.000000) vcan0 00000001#300000 R
(2.000000) vcan0 00000001#310000 R
(2.000000) vcan0 00000001#320000 R
(2.000000) vcan0 00000001#330000 R
(2.000000) vcan0 00000001#340000 R
(2.000000) vcan0 00000001#350000 R
(2.000000) vcan0 00000001#360000 R
(2.000000) vcan0 00000001#370000 R
(2.000000) vcan0 00000001#380000 R
(2.000000) vcan0 00000001#390000 R
(2.000000) vcan0 00000001#3A0000 R
(2.000000) vcan0 00000001#3B0000 R
(2.000000) vcan0 00000001#3C0000 R
(2.000000) vcan0 00000001#3D0000 R
(2.000000) vcan0 00000001#3E0000 R
(2.000000) vcan0 00000001#3F0000 R
(2.000000) vcan0 00000001#400000 R
(2.000000) vcan0 00000001#410000 R
(2.000000) vcan0 00000001#420000 R
(2.000000) vcan0 00000001#430000 R
(2.000000) vcan0 00000001#440000 R
(2.000000) vcan0 00000001#450000 R
(2.000000) vcan0 00000001#460000 R
(2.000000) vcan0 00000001#470000 R
(2.000000) vcan0 00000001#480000 R
(2.000000) vcan0 00000001#490000 R
(2.000000) vcan0 00000001#4A0000 R
(2.000000) vcan0 00000001#4B0000 R
(2.000000) vcan0 00000001#4C0000 R
(2.000000) vcan0 00000001#4D0000 R
(2.000000) vcan0 00000001#4E0000 R
(2.000000) vcan0 00000001#4F0000 R
(2.000000) vcan0 00000001#500000 R
(2.000000) vcan0 00000001#510000 R
(2.000000) vcan0 00000001#520000 R
(2.000000) vcan0 00000001#530000 R
(2.000000) vcan0 00000001#540000 R
(2.000000) vcan0 00000001#000000 R
(2.000000) vcan0 00000001#010000 R
(2.000000) vcan0 00000001#020000 R
(2.000000) vcan0 00000001#030000 R
(2.000000) vcan0 00000001#040000 R
(2.000000) vcan0 00000001#050000 R
(2.000000) vcan0 00000001#060000 R
(2.000000) vcan0 00000001#070000 R
(2.000000) vcan0 00000001#080000 R
(2.000000) vcan0 00000001#090000 R
(2.000000) vcan0 00000001#0A0000 R
(2.000000) vcan0 00000001#0B0000 R
(2.000000) vcan0 00000001#0C0000 R
(2.000000) vcan0 00000001#0D0000 R
(2.000000) vcan0 00000001#0E0000 R
(2.000000) vcan0 00000001#0F0000 R
(2.000000) vcan0 00000001#100000 R
(2.000000) vcan0 00000001#110000 R
(2.000000) vcan0 00000001#120000 R
(2.000000) vcan0 00000001#130000 R
(2.000000) vcan0 00000001#140000 R
(2.000000) vcan0 00000001#150000 R
(2.000000) vcan0 00000001#160000 R
(2.000000) vcan0 00000001#170000 R
(2.000000) vcan0 00000001#180000 R
(2.000000) vcan0 00000001#190000 R
(2.000000) vcan0 00000001#1A0000 R
(2.000000) vcan0 00000001#1B0000 R
(2.000000) vcan0 00000001#1C0000 R
(2.000000) vcan0 00000001#1D0000 R
(2.000000) vcan0 00000001#1E0000 R
(2.000000) vcan0 00000001#1F0000 R
(2.000000) vcan0 00000001#200000 R
(2.000000) vcan0 00000001#210000 R
(2.000000) vcan0 00000001#220000 R
(2.000000) vcan0 00000001#230000 R
(2.000000) vcan0 00000001#240000 R
(2.000000) vcan0 00000001#250000 R
(2.000000) vcan0 00000001#260000 R
(2.000000) vcan0 00000001#270000 R
(2.000000) vcan0 00000001#280000 R
(2.000000) vcan0 00000001#290000 R
(2.000000) vcan0 00000001#2A0000 R
(2.000000) vcan0 00000001#2B0000 R
(2.000000) vcan0 00000001#2C0000 R
(2.000000) vcan0 00000001#2D0000 R
(2.000000) vcan0 00000001#2E0000 R
(2.000000) vcan0 00000001#2F0000 R
(2.000000) vcan0 00000001#300000 R
(2.000000) vcan0 00000001#310000 R
(2.000000) vcan0 00000001#320000 R
(2.000000) vcan0 00000001#330000 R
(2.000000) vcan0 00000001#340000 R
(2.000000) vcan0 00000001#350000 R
(2.000000) vcan0 00000001#360000 R
(2.000000) vcan0 00000001#370000 R
(2.000000) vcan0 00000001#380000 R
(2.000000) vcan0 00000001#390000 R
(2.000000) vcan0 00000001#3A0000 R
(2.000000) vcan0 00000001#3B0000 R
(2.000000) vcan0 00000001#3C0000 R
(2.000000) vcan0 00000001#3D0000 R
(2.000000) vcan0 00000001#3E0000 R
(2.000000) vcan0 00000001#3F0000 R
(2.000000) vcan0 00000001#400000 R
(2.000000) vcan0 00000001#410000 R
(2.000000) vcan0 00000001#420000 R
(2.000000) vcan0 00000001#430000 R
(2.000000) vcan0 00000001#440000 R
(2.000000) vcan0 00000001#450000 R
(2.000000) vcan0 00000001#460000 R
(2.000000) vcan0 00000001#470000 R
(2.000000) vcan0 00000001#480000 R
(2.000000) vcan0 00000001#490000 R
(2.000000) vcan0 00000001#4A0000 R
(2.000000) vcan0 00000001#4B0000 R
(2.000000) vcan0 00000001#4C0000 R
(2.000000) vcan0 00000001#4D0000 R
(2.000000) vcan0 00000001#4E0000 R
(2.000000) vcan0 00000001#4F0000 R
(2.000000) vcan0 00000001#500000 R
(2.000000) vcan0 00000001#510000 R
(2.000000) vcan0 00000001#520000 R
(2.000000) vcan0 00000001#530000 R
(2.000000) vcan0 00000001#540000 R
(2.000000) vcan0 00000001#000000 R
(2.000000) vcan0 00000001#010000 R
(2.000000) vcan0 00000001#020000 R
(2.000000) vcan0 00000001#030000 R
(2.000000) vcan0 00000001#040000 R
(2.000000) vcan0 00000001#050000 R
(2.000000) vcan0 00000001#060000 R
(2.000000) vcan0 00000001#070000 R
(2.000000) vcan0 00000001#080000 R
(2.000000) vcan0 00000001#090000 R
(2.000000) vcan0 00000001#0A0000 R
(2.000000) vcan0 00000001#0B0000 R
(2.000000) vcan0 00000001#0C0000 R
(2.000000) vcan0 00000001#0D0000 R
(2.000000) vcan0 00000001#0E0000 R
(2.000000) vcan0 00000001#0F0000 R
(2.000000) vcan0 00000001#100000 R
(2.000000) vcan0 00000001#110000 R
(2.000000) vcan0 00000001#120000 R
(2.000000) vcan0 00000001#130000 R
(2.000000) vcan0 00000001#140000 R
(2.000000) vcan0 00000001#150000 R
(2.000000) vcan0 00000001#160000 R
(2.000000) vcan0 00000001#170000 R
(2.000000) vcan0 00000001#180000 R
(2.000000) vcan0 00000001#190000 R
(2.000000) vcan0 00000001#1A0000 R
(2.000000) vcan0 00000001#1B0000 R
(2.000000) vcan0 00000001#1C0000 R
(2.000000) vcan0 00000001#1D0000 R
(2.000000) vcan0 00000001#1E0000 R
(2.000000) vcan0 00000001#1F0000 R
(2.000000) vcan0 00000001#200000 R
(2.000000) vcan0 00000001#210000 R
(2.000000) vcan0 00000001#220000 R
(2.000000) vcan0 00000001#230000 R
(2.000000) vcan0 00000001#240000 R
(2.000000) vcan0 00000001#250000 R
(2.000000) vcan0 00000001#260000 R
(2.000000) vcan0 00000001#270000 R
(2.000000) vcan0 00000001#280000 R
(2.000000) vcan0 00000001#290000 R
(2.000000) vcan0 00000001#2A0000 R
(2.000000) vcan0 00000001#2B0000 R
(2.000000) vcan0 00000001#2C0000 R
(2.000000) vcan0 00000001#2D0000 R
(2.000000) vcan0 00000001#2E0000 R
(2.000000) vcan0 00000001#2F0000 R
(2.000000) vcan0 00000001#300000 R
(2.000000) vcan0 00000001#310000 R
(2.000000) vcan0 00000001#320000 R
(2.000000) vcan0 00000001#330000 R
(2.000000) vcan0 00000001#340000 R
(2.000000) vcan0 00000001#350000 R
(2.000000) vcan0 00000001#360000 R
(2.000000) vcan0 00000001#370000 R
(2.000000) vcan0 00000001#380000 R
(2.000000) vcan0 00000001#390000 R
(2.000000) vcan0 00000001#3A0000 R
(2.000000) vcan0 00000001#3B0000 R
(2.000000) vcan0 00000001#3C0000 R
(2.000000) vcan0 00000001#3D0000 R
(2.000000) vcan0 00000001#3E0000 R
(2.000000) vcan0 00000001#3F0000 R
(2.000000) vcan0 00000001#400000 R
(2.000000) vcan0 00000001#410000 R
(2.000000) vcan0 00000001#420000 R
(2.000000) vcan0 00000001#430000 R
(2.000000) vcan0 00000001#440000 R
(2.000000) vcan0 00000001#450000 R
(2.000000) vcan0 00000001#460000 R
(2.000000) vcan0 00000001#470000 R
(2.000000) vcan0 00000001#480000 R
(2.000000) vcan0 00000001#490000 R
(2.000000) vcan0 00000001#4A0000 R
(2.000000) vcan0 00000001#4B0000 R
(2.000000) vcan0 00000001#4C0000 R
(2.000000) vcan0 00000001#4D0000 R
(2.000000) vcan0 00000001#4E0000 R
(2.000000) vcan0 00000001#4F0000 R
(2.000000) vcan0 00000001#500000 R
(2.000000) vcan0 00000001#510000 R
(2.000000) vcan0 00000001#520000 R
(2.000000) vcan0 00000001#530000 R
(2.000000) vcan0 00000001#540000 R
(2.000000) vcan0 00000001#000000 R
(2.000000) vcan0 00000001#010000 R
(2.000000) vcan0 00000001#020000 R
(2.000000) vcan0 00000001#030000 R
(2.000000) vcan0 00000001#040000 R
(2.000000) vcan0 00000001#050000 R
(2.000000) vcan0 00000001#060000 R
(2.000000) vcan0 00000001#070000 R
(2.000000) vcan0 00000001#080000 R
(2.000000) vcan0 00000001#090000 R
(2.000000) vcan0 00000001#0A0000 R
(2.000000) vcan0 00000001#0B0000 R
(2.000000) vcan0 00000001#0C0000 R
(2.000000) vcan0 00000001#0D0000 R
(2.000000) vcan0 00000001#0E0000 R
(2.000000) vcan0 00000001#0F0000 R
(2.000000) vcan0 00000001#100000 R
(2.000000) vcan0 00000001#110000 R
(2.000000) vcan0 00000001#120000 R
(2.000000) vcan0 00000001#130000 R
(2.000000) vcan0 00000001#140000 R
(2.000000) vcan0 00000001#150000 R
(2.000000) vcan0 00000001#160000 R
(2.000000) vcan0 00000001#170000 R
(2.000000) vcan0 00000001#180000 R
(2.000000) vcan0 00000001#190000 R
(2.000000) vcan0 00000001#1A0000 R
(2.000000) vcan0 00000001#1B0000 R
(2.000000) vcan0 00000001#1C0000 R
(2.000000) vcan0 00000001#1D0000 R
(2.000000) vcan0 00000001#1E0000 R
(2.000000) vcan0 00000001#1F0000 R
(2.000000) vcan0 00000001#200000 R
(2.000000) vcan0 00000001#210000 R
(2.000000) vcan0 00000001#220000 R
(2.000000) vcan0 00000001#230000 R
(2.000000) vcan0 00000001#240000 R
(2.000000) vcan0 00000001#250000 R
(2.000000) vcan0 00000001#260000 R
(2.000000) vcan0 00000001#270000 R
(2.000000) vcan0 00000001#280000 R
(2.000000) vcan0 00000001#290000 R
(2.000000) vcan0 00000001#2A0000 R
(2.000000) vcan0 00000001#2B0000 R
(2.000000) vcan0 00000001#2C0000 R
(2.000000) vcan0 00000001#2D0000 R
(2.000000) vcan0 00000001#2E0000 R
(2.000000) vcan0 00000001#2F0000 R
(2.000000) vcan0 00000001#300000 R
(2.000000) vcan0 00000001#310000 R
(2.000000) vcan0 00000001#320000 R
(2.000000) vcan0 00000001#330000 R
(2.000000) vcan0 00000001#340000 R
(2.000000) vcan0 00000001#350000 R
(2.000000) vcan0 00000001#360000 R
(2.000000) vcan0 00000001#370000 R
(2.000000) vcan0 00000001#380000 R
(2.000000) vcan0 00000001#390000 R
(2.000000) vcan0 00000001#3A0000 R
(2.000000) vcan0 00000001#3B0000 R
(2.000000) vcan0 00000001#3C0000 R
(2.000000) vcan0 00000001#3D0000 R
(2.000000) vcan0 00000001#3E0000 R
(2.000000) vcan0 00000001#3F0000 R
(2.000000) vcan0 00000001#400000 R
(2.000000) vcan0 00000001#410000 R
(2.000000) vcan0 00000001#420000 R
(2.000000) vcan0 00000001#430000 R
(2.000000) vcan0 00000001#440000 R
(2.000000) vcan0 00000001#450000 R
(2.000000) vcan0 00000001#460000 R
(2.000000) vcan0 00000001#470000 R
(2.000000) vcan0 00000001#480000 R
(2.000000) vcan0 00000001#490000 R
(2.000000) vcan0 00000001#4A0000 R
(2.000000) vcan0 00000001#4B0000 R
(2.000000) vcan0 00000001#4C0000 R
(2.000000) vcan0 00000001#4D0000 R
(2.000000) vcan0 00000001#4E0000 R
(2.000000) vcan0 00000001#4F0000 R
(2.000000) vcan0 00000001#500000 R
(2.000000) vcan0 00000001#510000 R
(2.000000) vcan0 00000001#520000 R
(2.000000) vcan0 00000001#530000 R
(2.000000) vcan0 00000001#540000 R
(2.000000) vcan0 00000001#000000 R
(2.000000) vcan0 00000001#010000 R
(2.000000) vcan0 00000001#020000 R
(2.000000) vcan0 00000001#030000 R
(2.000000) vcan0 00000001#040000 R
(2.000000) vcan0 00000001#050000 R
(2.000000) vcan0 00000001#060000 R
(2.000000) vcan0 00000001#070000 R
(2.000000) vcan0 00000001#080000 R
(2.000000) vcan0 00000001#090000 R
(2.000000) vcan0 00000001#0A0000 R
(2.000000) vcan0 00000001#0B0000 R
(2.000000) vcan0 00000001#0C0000 R
(2.000000) vcan0 00000001#0D0000 R
(2.000000) vcan0 00000001#0E0000 R
(2.000000) vcan0 00000001#0F0000 R
(2.000000) vcan0 00000001#100000 R
(2.000000) vcan0 00000001#110000 R
(2.000000) vcan0 00000001#120000 R
(2.000000) vcan0 00000001#130000 R
(2.000000) vcan0 00000001#140000 R
(2.000000) vcan0 00000001#150000 R
(2.000000) vcan0 00000001#160000 R
(2.000000) vcan0 00000001#170000 R
(2.000000) vcan0 00000001#180000 R
(2.000000) vcan0 00000001#190000 R
(2.000000) vcan0 00000001#1A0000 R
(2.000000) vcan0 00000001#1B0000 R
(2.000000) vcan0 00000001#1C0000 R
(2.000000) vcan0 00000001#1D0000 R
(2.000000) vcan0 00000001#1E0000 R
(2.000000) vcan0 00000001#1F0000 R
(2.000000) vcan0 00000001#200000 R
(2.000000) vcan0 00000001#210000 R
(2.000000) vcan0 00000001#220000 R
(2.000000) vcan0 00000001#230000 R
(2.000000) vcan0 00000001#240000 R
(2.000000) vcan0 00000001#250000 R
(2.000000) vcan0 00000001#260000 R
(2.000000) vcan0 00000001#270000 R
(2.000000) vcan0 00000001#280000 R
(2.000000) vcan0 00000001#290000 R
(2.000000) vcan0 00000001#2A0000 R
