(118737.418000) vcan0 00000002#51A8FB R
(118737.662000) vcan0 00000001#52A9FC R
(118737.898000) vcan0 00000002#53AAFD R
(118738.134000) vcan0 00000001#5455FE R
(118738.375000) vcan0 00000002#0056AA R
(118745.535000) vcan0 00000002#1E74C8 R
(118745.779000) vcan0 00000001#1F75C9 R
(118746.014000) vcan0 00000002#2076CA R
(118746.255000) vcan0 00000001#2177CB R
(118746.491000) vcan0 00000002#2278CC R
(118746.735000) vcan0 00000001#2379CD R
(118746.971000) vcan0 00000002#247ACE R
(118747.212000) vcan0 00000001#257BCF R
(118747.448000) vcan0 00000002#267CD0 R
(118747.692000) vcan0 00000001#277DD1 R
(118747.928000) vcan0 00000002#287ED2 R
(118748.165000) vcan0 00000001#297FD3 R
(118748.405000) vcan0 00000002#2A80D4 R
(118748.649000) vcan0 00000001#2B81D5 R
(118748.884000) vcan0 00000002#2C82D6 R
(118749.120000) vcan0 00000001#2D83D7 R
(118749.362000) vcan0 00000002#2E84D8 R
(118749.605000) vcan0 00000001#2F85D9 R
(118749.841000) vcan0 00000002#3086DA R
(118750.076000) vcan0 00000001#3187DB R
(118750.314000) vcan0 00000002#3288DC R
(118750.550000) vcan0 00000001#3389DD R
(118750.794000) vcan0 00000002#348ADE R
(118751.030000) vcan0 00000001#358BDF R
(118751.272000) vcan0 00000002#368CE0 R
(118751.507000) vcan0 00000001#378DE1 R
(118751.751000) vcan0 00000002#388EE2 R
(118751.987000) vcan0 00000001#398FE3 R
(118752.229000) vcan0 00000002#3A90E4 R
(118752.464000) vcan0 00000001#3B91E5 R
(118752.709000) vcan0 00000002#3C92E6 R
(118752.944000) vcan0 00000001#3D93E7 R
(118753.182000) vcan0 00000002#3E94E8 R
(118753.418000) vcan0 00000001#3F95E9 R
(118753.662000) vcan0 00000002#4096EA R
(118753.898000) vcan0 00000001#4197EB R
(118754.134000) vcan0 00000002#4298EC R
(118754.376000) vcan0 00000001#4399ED R
(118754.619000) vcan0 00000002#449AEE R
(118754.855000) vcan0 00000001#459BEF R
(118755.091000) vcan0 00000002#469CF0 R
(118755.329000) vcan0 00000001#479DF1 R
(118755.565000) vcan0 00000002#489EF2 R
(118755.809000) vcan0 00000001#499FF3 R
(118756.044000) vcan0 00000002#4AA0F4 R
(118756.282000) vcan0 00000001#4BA1F5 R
(118756.518000) vcan0 00000002#4CA2F6 R
(118756.762000) vcan0 00000001#4DA3F7 R
(118756.998000) vcan0 00000002#4EA4F8 R
(118757.240000) vcan0 00000001#4FA5F9 R
(118757.476000) vcan0 00000002#50A6FA R
(118757.719000) vcan0 00000001#51A7FB R
(118757.955000) vcan0 00000002#52A8FC R
(118758.196000) vcan0 00000001#53A9FD R
(118758.432000) vcan0 00000002#54AAFE R
(118758.675000) vcan0 00000001#0055AA R
(118758.911000) vcan0 00000002#0156AB R
(118759.147000) vcan0 00000001#0257AC R
(118759.389000) vcan0 00000002#0358AD R
(118759.632000) vcan0 00000001#0459AE R
(118759.868000) vcan0 00000002#055AAF R
(118760.104000) vcan0 00000001#065BB0 R
(118760.345000) vcan0 00000002#075CB1 R
(118760.589000) vcan0 00000001#085DB2 R
(118760.825000) vcan0 00000002#095EB3 R
(118761.060000) vcan0 00000001#0A5FB4 R
(118761.298000) vcan0 00000002#0B60B5 R
(118761.534000) vcan0 00000001#0C61B6 R
(118761.778000) vcan0 00000002#0D62B7 R
(118762.014000) vcan0 00000001#0E63B8 R
(118762.256000) vcan0 00000002#0F64B9 R
(118762.491000) vcan0 00000001#1065BA R
(118762.735000) vcan0 00000002#1166BB R
(118762.971000) vcan0 00000001#1267BC R
(118763.212000) vcan0 00000002#1368BD R
(118763.448000) vcan0 00000001#1469BE R
(118763.692000) vcan0 00000002#156ABF R
(118763.928000) vcan0 00000001#166BC0 R
(118764.165000) vcan0 00000002#176CC1 R
(118764.405000) vcan0 00000001#186DC2 R
(118764.648000) vcan0 00000002#196EC3 R
(118764.884000) vcan0 00000001#1A6FC4 R
(118765.120000) vcan0 00000002#1B70C5 R
(118765.361000) vcan0 00000001#1C71C6 R
(118765.605000) vcan0 00000002#1D72C7 R
(118765.841000) vcan0 00000001#1E73C8 R
(118766.077000) vcan0 00000002#1F74C9 R
(118766.315000) vcan0 00000001#2075CA R
(118766.551000) vcan0 00000002#2176CB R
(118766.795000) vcan0 00000001#2277CC R
(118767.031000) vcan0 00000002#2378CD R
(118767.272000) vcan0 00000001#2479CE R
(118767.507000) vcan0 00000002#257ACF R
(118767.751000) vcan0 00000001#267BD0 R
(118767.987000) vcan0 00000002#277CD1 R
(118768.229000) vcan0 00000001#287DD2 R
(118768.465000) vcan0 00000002#297ED3 R
(118768.709000) vcan0 00000001#2A7FD4 R
(118768.944000) vcan0 00000002#2B80D5 R
(118769.182000) vcan0 00000001#2C81D6 R
(118769.418000) vcan0 00000002#2D82D7 R
(118769.662000) vcan0 00000001#2E83D8 R
(118769.898000) vcan0 00000002#2F84D9 R
(118770.134000) vcan0 00000001#3085DA R
(118770.375000) vcan0 00000002#3186DB R
(118770.618000) vcan0 00000001#3287DC R
(118770.854000) vcan0 00000002#3388DD R
(118771.090000) vcan0 00000001#3489DE R
(118771.329000) vcan0 00000002#358ADF R
(118771.565000) vcan0 00000001#368BE0 R
(118771.809000) vcan0 00000002#378CE1 R
(118772.044000) vcan0 00000001#388DE2 R
(118772.282000) vcan0 00000002#398EE3 R
(118772.518000) vcan0 00000001#3A8FE4 R
(118772.762000) vcan0 00000002#3B90E5 R
(118772.998000) vcan0 00000001#3C91E6 R
(118773.239000) vcan0 00000002#3D92E7 R
(118773.475000) vcan0 00000001#3E93E8 R
(118773.719000) vcan0 00000002#3F94E9 R
(118773.954000) vcan0 00000001#4095EA R
(118774.196000) vcan0 00000002#4196EB R
(118774.432000) vcan0 00000001#4297EC R
(118774.676000) vcan0 00000002#4398ED R
(118774.912000) vcan0 00000001#4499EE R
(118775.148000) vcan0 00000002#459AEF R
(118775.388000) vcan0 00000001#469BF0 R
(118775.632000) vcan0 00000002#479CF1 R
(118775.868000) vcan0 00000001#489DF2 R
(118776.104000) vcan0 00000002#499EF3 R
(118776.345000) vcan0 00000001#4A9FF4 R
(118776.589000) vcan0 00000002#4BA0F5 R
(118776.824000) vcan0 00000001#4CA1F6 R
(118777.060000) vcan0 00000002#4DA2F7 R
(118777.298000) vcan0 00000001#4EA3F8 R
(118777.534000) vcan0 00000002#4FA4F9 R
(118777.778000) vcan0 00000001#50A5FA R
(118778.013000) vcan0 00000002#51A6FB R
(118778.255000) vcan0 00000001#52A7FC R
(118778.491000) vcan0 00000002#53A8FD R
(118778.735000) vcan0 00000001#54A9FE R
(118778.971000) vcan0 00000002#00AAAA R
(118779.212000) vcan0 00000001#0155AB R
(118779.448000) vcan0 00000002#0256AC R
(118779.692000) vcan0 00000001#0357AD R
(118779.928000) vcan0 00000002#0458AE R
(118780.164000) vcan0 00000001#0559AF R
(118780.405000) vcan0 00000002#065AB0 R
(118780.648000) vcan0 00000001#075BB1 R
(118780.884000) vcan0 00000002#085CB2 R
(118781.120000) vcan0 00000001#095DB3 R
(118781.361000) vcan0 00000002#0A5EB4 R
(118781.605000) vcan0 00000001#0B5FB5 R
(118781.841000) vcan0 00000002#0C60B6 R
(118782.077000) vcan0 00000001#0D61B7 R
(118782.315000) vcan0 00000002#0E62B8 R
(118782.551000) vcan0 00000001#0F63B9 R
(118782.795000) vcan0 00000002#1064BA R
(118783.031000) vcan0 00000001#1165BB R
(118783.272000) vcan0 00000002#1266BC R
(118783.508000) vcan0 00000001#1367BD R
(118783.752000) vcan0 00000002#1468BE R
(118783.988000) vcan0 00000001#1569BF R
(118784.228000) vcan0 00000002#166AC0 R
(118784.464000) vcan0 00000001#176BC1 R
(118784.708000) vcan0 00000002#186CC2 R
(118784.944000) vcan0 00000001#196DC3 R
(118785.182000) vcan0 00000002#1A6EC4 R
(118785.418000) vcan0 00000001#1B6FC5 R
(118785.662000) vcan0 00000002#1C70C6 R
(118785.898000) vcan0 00000001#1D71C7 R
(118786.134000) vcan0 00000002#1E72C8 R
(118786.376000) vcan0 00000001#1F73C9 R
(118786.619000) vcan0 00000002#2074CA R
(118786.855000) vcan0 00000001#2175CB R
(118787.091000) vcan0 00000002#2276CC R
(118787.329000) vcan0 00000001#2377CD R
(118787.564000) vcan0 00000002#2478CE R
(118787.808000) vcan0 00000001#2579CF R
(118788.044000) vcan0 00000002#267AD0 R
(118788.282000) vcan0 00000001#277BD1 R
(118788.518000) vcan0 00000002#287CD2 R
(118788.762000) vcan0 00000001#297DD3 R
(118788.998000) vcan0 00000002#2A7ED4 R
(118789.239000) vcan0 00000001#2B7FD5 R
(118789.475000) vcan0 00000002#2C80D6 R
(118789.719000) vcan0 00000001#2D81D7 R
(118789.954000) vcan0 00000002#2E82D8 R
(118790.196000) vcan0 00000001#2F83D9 R
(118790.432000) vcan0 00000002#3084DA R
(118790.676000) vcan0 00000001#3185DB R
(118790.912000) vcan0 00000002#3286DC R
(118791.148000) vcan0 00000001#3387DD R
(118791.388000) vcan0 00000002#3488DE R
(118791.632000) vcan0 00000001#3589DF R
(118791.868000) vcan0 00000002#368AE0 R
(118792.104000) vcan0 00000001#378BE1 R
(118792.345000) vcan0 00000002#388CE2 R
(118792.589000) vcan0 00000001#398DE3 R
(118792.825000) vcan0 00000002#3A8EE4 R
(118793.060000) vcan0 00000001#3B8FE5 R
(118793.299000) vcan0 00000002#3C90E6 R
(118793.534000) vcan0 00000001#3D91E7 R
(118793.778000) vcan0 00000002#3E92E8 R
(118794.014000) vcan0 00000001#3F93E9 R
(118794.256000) vcan0 00000002#4094EA R
(118794.492000) vcan0 00000001#4195EB R
(118794.736000) vcan0 00000002#4296EC R
(118794.971000) vcan0 00000001#4397ED R
(118795.212000) vcan0 00000002#4498EE R
(118795.448000) vcan0 00000001#4599EF R
(118795.692000) vcan0 00000002#469AF0 R
(118795.927000) vcan0 00000001#479BF1 R
(118796.164000) vcan0 00000002#489CF2 R
(118796.405000) vcan0 00000001#499DF3 R
(118796.649000) vcan0 00000002#4A9EF4 R
(118796.884000) vcan0 00000001#4B9FF5 R
(118797.120000) vcan0 00000002#4CA0F6 R
(118797.361000) vcan0 00000001#4DA1F7 R
(118797.605000) vcan0 00000002#4EA2F8 R
(118797.841000) vcan0 00000001#4FA3F9 R
(118798.077000) vcan0 00000002#50A4FA R
(118798.315000) vcan0 00000001#51A5FB R
(118798.551000) vcan0 00000002#52A6FC R
(118798.795000) vcan0 00000001#53A7FD R
(118799.031000) vcan0 00000002#54A8FE R
(118799.272000) vcan0 00000001#00A9AA R
(118799.508000) vcan0 00000002#01AAAB R
(118799.752000) vcan0 00000001#0255AC R
(118799.988000) vcan0 00000002#0356AD R
(118800.228000) vcan0 00000001#0457AE R
(118800.464000) vcan0 00000002#0558AF R
(118800.708000) vcan0 00000001#0659B0 R
(118800.944000) vcan0 00000002#075AB1 R
(118801.182000) vcan0 00000001#085BB2 R
(118801.418000) vcan0 00000002#095CB3 R
(118801.662000) vcan0 00000001#0A5DB4 R
(118801.898000) vcan0 00000002#0B5EB5 R
(118802.134000) vcan0 00000001#0C5FB6 R
(118802.376000) vcan0 00000002#0D60B7 R
(118802.619000) vcan0 00000001#0E61B8 R
(118802.855000) vcan0 00000002#0F62B9 R
(118803.091000) vcan0 00000001#1063BA R
(118803.329000) vcan0 00000002#1164BB R
(118803.564000) vcan0 00000001#1265BC R
(118803.808000) vcan0 00000002#1366BD R
(118804.044000) vcan0 00000001#1467BE R
(118804.282000) vcan0 00000002#1568BF R
(118804.518000) vcan0 00000001#1669C0 R
(118804.762000) vcan0 00000002#176AC1 R
(118804.998000) vcan0 00000001#186BC2 R
(118805.239000) vcan0 00000002#196CC3 R
(118805.475000) vcan0 00000001#1A6DC4 R
(118805.719000) vcan0 00000002#1B6EC5 R
(118805.954000) vcan0 00000001#1C6FC6 R
(118806.196000) vcan0 00000002#1D70C7 R
(118806.432000) vcan0 00000001#1E71C8 R
(118806.676000) vcan0 00000002#1F72C9 R
(118806.912000) vcan0 00000001#2073CA R
(118807.148000) vcan0 00000002#2174CB R
(118807.388000) vcan0 00000001#2275CC R
(118807.632000) vcan0 00000002#2376CD R
(118807.868000) vcan0 00000001#2477CE R
(118808.104000) vcan0 00000002#2578CF R
(118808.345000) vcan0 00000001#2679D0 R
(118808.589000) vcan0 00000002#277AD1 R
(118808.824000) vcan0 00000001#287BD2 R
(118809.060000) vcan0 00000002#297CD3 R
(118809.298000) vcan0 00000001#2A7DD4 R
(118809.534000) vcan0 00000002#2B7ED5 R
(118809.778000) vcan0 00000001#2C7FD6 R
(118810.013000) vcan0 00000002#2D80D7 R
(118810.255000) vcan0 00000001#2E81D8 R
(118810.491000) vcan0 00000002#2F82D9 R
(118810.735000) vcan0 00000001#3083DA R
(118810.971000) vcan0 00000002#3184DB R
(118811.212000) vcan0 00000001#3285DC R
(118811.448000) vcan0 00000002#3386DD R
(118811.692000) vcan0 00000001#3487DE R
(118811.928000) vcan0 00000002#3588DF R
(118812.164000) vcan0 00000001#3689E0 R
(118812.405000) vcan0 00000002#378AE1 R
(118812.648000) vcan0 00000001#388BE2 R
(118812.884000) vcan0 00000002#398CE3 R
(118813.120000) vcan0 00000001#3A8DE4 R
(118813.361000) vcan0 00000002#3B8EE5 R
(118813.605000) vcan0 00000001#3C8FE6 R
(118813.841000) vcan0 00000002#3D90E7 R
(118814.077000) vcan0 00000001#3E91E8 R
(118814.315000) vcan0 00000002#3F92E9 R
(118814.551000) vcan0 00000001#4093EA R
(118814.795000) vcan0 00000002#4194EB R
(118815.031000) vcan0 00000001#4295EC R
(118815.272000) vcan0 00000002#4396ED R
(118815.508000) vcan0 00000001#4497EE R
(118815.752000) vcan0 00000002#4598EF R
(118815.988000) vcan0 00000001#4699F0 R
(118816.228000) vcan0 00000002#479AF1 R
(118816.464000) vcan0 00000001#489BF2 R
(118816.708000) vcan0 00000002#499CF3 R
(118816.944000) vcan0 00000001#4A9DF4 R
(118817.182000) vcan0 00000002#4B9EF5 R
(118817.418000) vcan0 00000001#4C9FF6 R
(118817.662000) vcan0 00000002#4DA0F7 R
(118817.898000) vcan0 00000001#4EA1F8 R
(118818.134000) vcan0 00000002#4FA2F9 R
(118818.376000) vcan0 00000001#50A3FA R
(118818.619000) vcan0 00000002#51A4FB R
(118818.855000) vcan0 00000001#52A5FC R
(118819.091000) vcan0 00000002#53A6FD R
(118819.329000) vcan0 00000001#54A7FE R
(118819.564000) vcan0 00000002#00A8AA R
(118819.808000) vcan0 00000001#01A9AB R
(118820.044000) vcan0 00000002#02AAAC R
(118820.282000) vcan0 00000001#0355AD R
(118820.518000) vcan0 00000002#0456AE R
(118820.762000) vcan0 00000001#0557AF R
(118820.998000) vcan0 00000002#0658B0 R
(118821.240000) vcan0 00000001#0759B1 R
(118821.476000) vcan0 00000002#085AB2 R
(118821.719000) vcan0 00000001#095BB3 R
(118821.955000) vcan0 00000002#0A5CB4 R
(118822.196000) vcan0 00000001#0B5DB5 R
(118822.432000) vcan0 00000002#0C5EB6 R
(118822.675000) vcan0 00000001#0D5FB7 R
(118822.911000) vcan0 00000002#0E60B8 R
(118823.147000) vcan0 00000001#0F61B9 R
(118823.389000) vcan0 00000002#1062BA R
(118823.633000) vcan0 00000001#1163BB R
(118823.868000) vcan0 00000002#1264BC R
(118824.104000) vcan0 00000001#1365BD R
(118824.345000) vcan0 00000002#1466BE R
(118824.588000) vcan0 00000001#1567BF R
(118824.824000) vcan0 00000002#1668C0 R
(118825.060000) vcan0 00000001#1769C1 R
(118825.298000) vcan0 00000002#186AC2 R
(118825.533000) vcan0 00000001#196BC3 R
(118825.777000) vcan0 00000002#1A6CC4 R
(118826.013000) vcan0 00000001#1B6DC5 R
(118826.251000) vcan0 00000002#1C6EC6 R
(118826.487000) vcan0 00000001#1D6FC7 R
(118826.730000) vcan0 00000002#1E70C8 R
(118826.966000) vcan0 00000001#1F71C9 R
(118827.207000) vcan0 00000002#2072CA R
(118827.443000) vcan0 00000001#2173CB R
(118827.686000) vcan0 00000002#2274CC R
(118827.922000) vcan0 00000001#2375CD R
(118828.158000) vcan0 00000002#2476CE R
(118828.396000) vcan0 00000001#2577CF R
(118828.640000) vcan0 00000002#2678D0 R
(118828.875000) vcan0 00000001#2779D1 R
(118829.111000) vcan0 00000002#287AD2 R
(118829.353000) vcan0 00000001#297BD3 R
(118829.597000) vcan0 00000002#2A7CD4 R
(118829.833000) vcan0 00000001#2B7DD5 R
(118830.069000) vcan0 00000002#2C7ED6 R
(118830.310000) vcan0 00000001#2D7FD7 R
(118830.546000) vcan0 00000002#2E80D8 R
(118830.790000) vcan0 00000001#2F81D9 R
(118831.026000) vcan0 00000002#3082DA R
(118831.264000) vcan0 00000001#3183DB R
(118831.499000) vcan0 00000002#3284DC R
(118831.743000) vcan0 00000001#3385DD R
(118831.979000) vcan0 00000002#3486DE R
(118832.217000) vcan0 00000001#3587DF R
(118832.453000) vcan0 00000002#3688E0 R
(118832.697000) vcan0 00000001#3789E1 R
(118832.933000) vcan0 00000002#388AE2 R
(118833.172000) vcan0 00000001#398BE3 R
(118833.408000) vcan0 00000002#3A8CE4 R
(118833.652000) vcan0 00000001#3B8DE5 R
(118833.888000) vcan0 00000002#3C8EE6 R
(118834.123000) vcan0 00000001#3D8FE7 R
(118834.361000) vcan0 00000002#3E90E8 R
(118834.605000) vcan0 00000001#3F91E9 R
(118834.840000) vcan0 00000002#4092EA R
(118835.076000) vcan0 00000001#4193EB R
(118835.314000) vcan0 00000002#4294EC R
(118835.550000) vcan0 00000001#4395ED R
(118835.794000) vcan0 00000002#4496EE R
(118836.030000) vcan0 00000001#4597EF R
(118836.272000) vcan0 00000002#4698F0 R
(118836.507000) vcan0 00000001#4799F1 R
(118836.751000) vcan0 00000002#489AF2 R
(118836.987000) vcan0 00000001#499BF3 R
(118837.229000) vcan0 00000002#4A9CF4 R
(118837.465000) vcan0 00000001#4B9DF5 R
(118837.709000) vcan0 00000002#4C9EF6 R
(118837.944000) vcan0 00000001#4D9FF7 R
(118838.182000) vcan0 00000002#4EA0F8 R
(118838.418000) vcan0 00000001#4FA1F9 R
(118838.662000) vcan0 00000002#50A2FA R
(118838.898000) vcan0 00000001#51A3FB R
(118839.134000) vcan0 00000002#52A4FC R
(118839.376000) vcan0 00000001#53A5FD R
(118839.619000) vcan0 00000002#54A6FE R
(118839.855000) vcan0 00000001#00A7AA R
(118840.091000) vcan0 00000002#01A8AB R
(118840.329000) vcan0 00000001#02A9AC R
(118840.565000) vcan0 00000002#03AAAD R
(118840.809000) vcan0 00000001#0455AE R
(118841.044000) vcan0 00000002#0556AF R
(118841.282000) vcan0 00000001#0657B0 R
(118841.518000) vcan0 00000002#0758B1 R
(118841.762000) vcan0 00000001#0859B2 R
(118841.998000) vcan0 00000002#095AB3 R
(118842.239000) vcan0 00000001#0A5BB4 R
(118842.475000) vcan0 00000002#0B5CB5 R
(118842.719000) vcan0 00000001#0C5DB6 R
(118842.954000) vcan0 00000002#0D5EB7 R
(118843.196000) vcan0 00000001#0E5FB8 R
(118843.432000) vcan0 00000002#0F60B9 R
(118843.676000) vcan0 00000001#1061BA R
(118843.912000) vcan0 00000002#1162BB R
(118844.148000) vcan0 00000001#1263BC R
(118844.388000) vcan0 00000002#1364BD R
(118844.632000) vcan0 00000001#1465BE R
(118844.868000) vcan0 00000002#1566BF R
(118845.104000) vcan0 00000001#1667C0 R
(118845.345000) vcan0 00000002#1768C1 R
(118845.589000) vcan0 00000001#1869C2 R
(118845.825000) vcan0 00000002#196AC3 R
(118846.060000) vcan0 00000001#1A6BC4 R
(118846.299000) vcan0 00000002#1B6CC5 R
(118846.534000) vcan0 00000001#1C6DC6 R
(118846.778000) vcan0 00000002#1D6EC7 R
(118847.014000) vcan0 00000001#1E6FC8 R
(118847.256000) vcan0 00000002#1F70C9 R
(118847.492000) vcan0 00000001#2071CA R
(118847.736000) vcan0 00000002#2172CB R
(118847.971000) vcan0 00000001#2273CC R
(118848.212000) vcan0 00000002#2374CD R
(118848.448000) vcan0 00000001#2475CE R
(118848.692000) vcan0 00000002#2576CF R
(118848.927000) vcan0 00000001#2677D0 R
(118849.164000) vcan0 00000002#2778D1 R
(118849.405000) vcan0 00000001#2879D2 R
(118849.649000) vcan0 00000002#297AD3 R
(118849.884000) vcan0 00000001#2A7BD4 R
(118850.120000) vcan0 00000002#2B7CD5 R
(118850.361000) vcan0 00000001#2C7DD6 R
(118850.605000) vcan0 00000002#2D7ED7 R
(118850.841000) vcan0 00000001#2E7FD8 R
(118851.077000) vcan0 00000002#2F80D9 R
(118851.315000) vcan0 00000001#3081DA R
(118851.551000) vcan0 00000002#3182DB R
(118851.795000) vcan0 00000001#3283DC R
(118852.031000) vcan0 00000002#3384DD R
(118852.272000) vcan0 00000001#3485DE R
(118852.508000) vcan0 00000002#3586DF R
(118852.752000) vcan0 00000001#3687E0 R
(118852.988000) vcan0 00000002#3788E1 R
(118853.228000) vcan0 00000001#3889E2 R
(118853.464000) vcan0 00000002#398AE3 R
(118853.708000) vcan0 00000001#3A8BE4 R
(118853.944000) vcan0 00000002#3B8CE5 R
(118854.182000) vcan0 00000001#3C8DE6 R
(118854.418000) vcan0 00000002#3D8EE7 R
(118854.662000) vcan0 00000001#3E8FE8 R
(118854.898000) vcan0 00000002#3F90E9 R
(118855.134000) vcan0 00000001#4091EA R
(118855.375000) vcan0 00000002#4192EB R
(118855.618000) vcan0 00000001#4293EC R
(118855.854000) vcan0 00000002#4394ED R
(118856.090000) vcan0 00000001#4495EE R
(118856.329000) vcan0 00000002#4596EF R
(118856.565000) vcan0 00000001#4697F0 R
(118856.809000) vcan0 00000002#4798F1 R
(118857.044000) vcan0 00000001#4899F2 R
(118857.282000) vcan0 00000002#499AF3 R
(118857.518000) vcan0 00000001#4A9BF4 R
(118857.762000) vcan0 00000002#4B9CF5 R
(118857.998000) vcan0 00000001#4C9DF6 R
(118858.239000) vcan0 00000002#4D9EF7 R
(118858.475000) vcan0 00000001#4E9FF8 R
(118858.719000) vcan0 00000002#4FA0F9 R
(118858.954000) vcan0 00000001#50A1FA R
(118859.196000) vcan0 00000002#51A2FB R
(118859.432000) vcan0 00000001#52A3FC R
(118859.676000) vcan0 00000002#53A4FD R
(118859.912000) vcan0 00000001#54A5FE R
(118860.148000) vcan0 00000002#00A6AA R
(118860.388000) vcan0 00000001#01A7AB R
(118860.632000) vcan0 00000002#02A8AC R
(118860.868000) vcan0 00000001#03A9AD R
(118861.104000) vcan0 00000002#04AAAE R
(118861.345000) vcan0 00000001#0555AF R
(118861.589000) vcan0 00000002#0656B0 R
(118861.824000) vcan0 00000001#0757B1 R
(118862.060000) vcan0 00000002#0858B2 R
(118862.298000) vcan0 00000001#0959B3 R
(118862.534000) vcan0 00000002#0A5AB4 R
(118862.778000) vcan0 00000001#0B5BB5 R
(118863.014000) vcan0 00000002#0C5CB6 R
(118863.255000) vcan0 00000001#0D5DB7 R
(118863.491000) vcan0 00000002#0E5EB8 R
(118863.735000) vcan0 00000001#0F5FB9 R
(118863.971000) vcan0 00000002#1060BA R
(118864.212000) vcan0 00000001#1161BB R
(118864.448000) vcan0 00000002#1262BC R
(118864.692000) vcan0 00000001#1363BD R
(118864.928000) vcan0 00000002#1464BE R
(118865.164000) vcan0 00000001#1565BF R
(118865.405000) vcan0 00000002#1666C0 R
(118865.648000) vcan0 00000001#1767C1 R
(118865.884000) vcan0 00000002#1868C2 R
(118866.120000) vcan0 00000001#1969C3 R
(118866.361000) vcan0 00000002#1A6AC4 R
(118866.605000) vcan0 00000001#1B6BC5 R
(118866.841000) vcan0 00000002#1C6CC6 R
(118867.077000) vcan0 00000001#1D6DC7 R
(118867.315000) vcan0 00000002#1E6EC8 R
(118867.551000) vcan0 00000001#1F6FC9 R
(118867.795000) vcan0 00000002#2070CA R
(118868.031000) vcan0 00000001#2171CB R
(118868.272000) vcan0 00000002#2272CC R
(118868.508000) vcan0 00000001#2373CD R
(118868.752000) vcan0 00000002#2474CE R
(118868.988000) vcan0 00000001#2575CF R
(118869.228000) vcan0 00000002#2676D0 R
(118869.464000) vcan0 00000001#2777D1 R
(118869.708000) vcan0 00000002#2878D2 R
(118869.944000) vcan0 00000001#2979D3 R
(118870.182000) vcan0 00000002#2A7AD4 R
(118870.418000) vcan0 00000001#2B7BD5 R
(118870.662000) vcan0 00000002#2C7CD6 R
(118870.898000) vcan0 00000001#2D7DD7 R
(118871.134000) vcan0 00000002#2E7ED8 R
(118871.376000) vcan0 00000001#2F7FD9 R
(118871.619000) vcan0 00000002#3080DA R
(118871.855000) vcan0 00000001#3181DB R
(118872.091000) vcan0 00000002#3282DC R
(118872.329000) vcan0 00000001#3383DD R
(118872.564000) vcan0 00000002#3484DE R
(118872.808000) vcan0 00000001#3585DF R
(118873.044000) vcan0 00000002#3686E0 R
(118873.282000) vcan0 00000001#3787E1 R
(118873.518000) vcan0 00000002#3888E2 R
(118873.762000) vcan0 00000001#3989E3 R
(118873.998000) vcan0 00000002#3A8AE4 R
(118874.239000) vcan0 00000001#3B8BE5 R
(118874.475000) vcan0 00000002#3C8CE6 R
(118874.719000) vcan0 00000001#3D8DE7 R
(118874.954000) vcan0 00000002#3E8EE8 R
(118875.196000) vcan0 00000001#3F8FE9 R
(118875.432000) vcan0 00000002#4090EA R
(118875.676000) vcan0 00000001#4191EB R
(118875.912000) vcan0 00000002#4292EC R
(118876.148000) vcan0 00000001#4393ED R
(118876.388000) vcan0 00000002#4494EE R
(118876.632000) vcan0 00000001#4595EF R
(118876.868000) vcan0 00000002#4696F0 R
(118877.104000) vcan0 00000001#4797F1 R
(118877.345000) vcan0 00000002#4898F2 R
(118877.589000) vcan0 00000001#4999F3 R
(118877.825000) vcan0 00000002#4A9AF4 R
(118878.060000) vcan0 00000001#4B9BF5 R
(118878.299000) vcan0 00000002#4C9CF6 R
(118878.534000) vcan0 00000001#4D9DF7 R
(118878.778000) vcan0 00000002#4E9EF8 R
(118879.014000) vcan0 00000001#4F9FF9 R
(118879.256000) vcan0 00000002#50A0FA R
(118879.492000) vcan0 00000001#51A1FB R
(118879.736000) vcan0 00000002#52A2FC R
(118879.971000) vcan0 00000001#53A3FD R
(118880.212000) vcan0 00000002#54A4FE R
(118880.448000) vcan0 00000001#00A5AA R
(118880.692000) vcan0 00000002#01A6AB R
(118880.928000) vcan0 00000001#02A7AC R
(118881.164000) vcan0 00000002#03A8AD R
(118881.405000) vcan0 00000001#04A9AE R
(118881.649000) vcan0 00000002#05AAAF R
(118881.884000) vcan0 00000001#0655B0 R
(118882.120000) vcan0 00000002#0756B1 R
(118882.361000) vcan0 00000001#0857B2 R
(118882.605000) vcan0 00000002#0958B3 R
(118882.841000) vcan0 00000001#0A59B4 R
(118883.077000) vcan0 00000002#0B5AB5 R
(118883.315000) vcan0 00000001#0C5BB6 R
(118883.551000) vcan0 00000002#0D5CB7 R
(118883.795000) vcan0 00000001#0E5DB8 R
(118884.031000) vcan0 00000002#0F5EB9 R
(118884.272000) vcan0 00000001#105FBA R
(118884.508000) vcan0 00000002#1160BB R
(118884.752000) vcan0 00000001#1261BC R
(118884.988000) vcan0 00000002#1362BD R
(118885.228000) vcan0 00000001#1463BE R
(118885.464000) vcan0 00000002#1564BF R
(118885.708000) vcan0 00000001#1665C0 R
(118885.944000) vcan0 00000002#1766C1 R
(118886.182000) vcan0 00000001#1867C2 R
(118886.418000) vcan0 00000002#1968C3 R
(118886.662000) vcan0 00000001#1A69C4 R
(118886.898000) vcan0 00000002#1B6AC5 R
(118887.134000) vcan0 00000001#1C6BC6 R
(118887.375000) vcan0 00000002#1D6CC7 R
(118887.618000) vcan0 00000001#1E6DC8 R
(118887.854000) vcan0 00000002#1F6EC9 R
(118888.090000) vcan0 00000001#206FCA R
(118888.329000) vcan0 00000002#2170CB R
(118888.565000) vcan0 00000001#2271CC R
(118888.809000) vcan0 00000002#2372CD R
(118889.044000) vcan0 00000001#2473CE R
(118889.282000) vcan0 00000002#2574CF R
(118889.518000) vcan0 00000001#2675D0 R
(118889.762000) vcan0 00000002#2776D1 R
(118889.998000) vcan0 00000001#2877D2 R
(118890.239000) vcan0 00000002#2978D3 R
(118890.475000) vcan0 00000001#2A79D4 R
(118890.719000) vcan0 00000002#2B7AD5 R
(118890.954000) vcan0 00000001#2C7BD6 R
(118891.196000) vcan0 00000002#2D7CD7 R
(118891.432000) vcan0 00000001#2E7DD8 R
(118891.676000) vcan0 00000002#2F7ED9 R
(118891.912000) vcan0 00000001#307FDA R
(118892.148000) vcan0 00000002#3180DB R
(118892.388000) vcan0 00000001#3281DC R
(118892.632000) vcan0 00000002#3382DD R
(118892.868000) vcan0 00000001#3483DE R
(118893.104000) vcan0 00000002#3584DF R
(118893.345000) vcan0 00000001#3685E0 R
(118893.589000) vcan0 00000002#3786E1 R
(118893.824000) vcan0 00000001#3887E2 R
(118894.060000) vcan0 00000002#3988E3 R
(118894.298000) vcan0 00000001#3A89E4 R
(118894.534000) vcan0 00000002#3B8AE5 R
(118894.778000) vcan0 00000001#3C8BE6 R
(118895.013000) vcan0 00000002#3D8CE7 R
(118895.255000) vcan0 00000001#3E8DE8 R
(118895.491000) vcan0 00000002#3F8EE9 R
(118895.735000) vcan0 00000001#408FEA R
(118895.971000) vcan0 00000002#4190EB R
(118896.212000) vcan0 00000001#4291EC R
(118896.448000) vcan0 00000002#4392ED R
(118896.692000) vcan0 00000001#4493EE R
(118896.928000) vcan0 00000002#4594EF R
(118897.164000) vcan0 00000001#4695F0 R
(118897.405000) vcan0 00000002#4796F1 R
(118897.648000) vcan0 00000001#4897F2 R
(118897.884000) vcan0 00000002#4998F3 R
(118898.120000) vcan0 00000001#4A99F4 R
(118898.361000) vcan0 00000002#4B9AF5 R
(118898.605000) vcan0 00000001#4C9BF6 R
(118898.841000) vcan0 00000002#4D9CF7 R
(118899.077000) vcan0 00000001#4E9DF8 R
(118899.315000) vcan0 00000002#4F9EF9 R
(118899.551000) vcan0 00000001#509FFA R
(118899.795000) vcan0 00000002#51A0FB R
(118900.031000) vcan0 00000001#52A1FC R
(118900.272000) vcan0 00000002#53A2FD R
(118900.508000) vcan0 00000001#54A3FE R
(118900.752000) vcan0 00000002#00A4AA R
(118900.988000) vcan0 00000001#01A5AB R
(118901.228000) vcan0 00000002#02A6AC R
(118901.464000) vcan0 00000001#03A7AD R
(118901.708000) vcan0 00000002#04A8AE R
(118901.944000) vcan0 00000001#05A9AF R
(118902.182000) vcan0 00000002#06AAB0 R
(118902.418000) vcan0 00000001#0755B1 R
(118902.662000) vcan0 00000002#0856B2 R
(118902.898000) vcan0 00000001#0957B3 R
(118903.134000) vcan0 00000002#0A58B4 R
(118903.376000) vcan0 00000001#0B59B5 R
(118903.619000) vcan0 00000002#0C5AB6 R
(118903.855000) vcan0 00000001#0D5BB7 R
(118904.091000) vcan0 00000002#0E5CB8 R
(118904.329000) vcan0 00000001#0F5DB9 R
(118904.565000) vcan0 00000002#105EBA R
(118904.809000) vcan0 00000001#115FBB R
(118905.044000) vcan0 00000002#1260BC R
(118905.282000) vcan0 00000001#1361BD R
(118905.518000) vcan0 00000002#1462BE R
(118905.762000) vcan0 00000001#1563BF R
(118905.998000) vcan0 00000002#1664C0 R
(118906.240000) vcan0 00000001#1765C1 R
(118906.476000) vcan0 00000002#1866C2 R
(118906.719000) vcan0 00000001#1967C3 R
(118906.955000) vcan0 00000002#1A68C4 R
(118907.196000) vcan0 00000001#1B69C5 R
(118907.432000) vcan0 00000002#1C6AC6 R
(118907.675000) vcan0 00000001#1D6BC7 R
(118907.911000) vcan0 00000002#1E6CC8 R
(118908.147000) vcan0 00000001#1F6DC9 R
(118908.389000) vcan0 00000002#206ECA R
(118908.632000) vcan0 00000001#216FCB R
(118908.868000) vcan0 00000002#2270CC R
(118909.104000) vcan0 00000001#2371CD R
(118909.345000) vcan0 00000002#2472CE R
(118909.589000) vcan0 00000001#2573CF R
(118909.825000) vcan0 00000002#2674D0 R
(118910.060000) vcan0 00000001#2775D1 R
(118910.298000) vcan0 00000002#2876D2 R
(118910.534000) vcan0 00000001#2977D3 R
(118910.778000) vcan0 00000002#2A78D4 R
(118911.014000) vcan0 00000001#2B79D5 R
(118911.256000) vcan0 00000002#2C7AD6 R
(118911.491000) vcan0 00000001#2D7BD7 R
(118911.735000) vcan0 00000002#2E7CD8 R
(118911.971000) vcan0 00000001#2F7DD9 R
(118912.212000) vcan0 00000002#307EDA R
(118912.448000) vcan0 00000001#317FDB R
(118912.692000) vcan0 00000002#3280DC R
(118912.928000) vcan0 00000001#3381DD R
(118913.165000) vcan0 00000002#3482DE R
(118913.405000) vcan0 00000001#3583DF R
(118913.648000) vcan0 00000002#3684E0 R
(118913.884000) vcan0 00000001#3785E1 R
(118914.120000) vcan0 00000002#3886E2 R
(118914.361000) vcan0 00000001#3987E3 R
(118914.605000) vcan0 00000002#3A88E4 R
(118914.841000) vcan0 00000001#3B89E5 R
(118915.077000) vcan0 00000002#3C8AE6 R
(118915.315000) vcan0 00000001#3D8BE7 R
(118915.551000) vcan0 00000002#3E8CE8 R
(118915.795000) vcan0 00000001#3F8DE9 R
(118916.031000) vcan0 00000002#408EEA R
(118916.272000) vcan0 00000001#418FEB R
(118916.507000) vcan0 00000002#4290EC R
(118916.751000) vcan0 00000001#4391ED R
(118916.987000) vcan0 00000002#4492EE R
(118917.229000) vcan0 00000001#4593EF R
(118917.465000) vcan0 00000002#4694F0 R
(118917.709000) vcan0 00000001#4795F1 R
(118917.944000) vcan0 00000002#4896F2 R
(118918.182000) vcan0 00000001#4997F3 R
(118918.418000) vcan0 00000002#4A98F4 R
(118918.662000) vcan0 00000001#4B99F5 R
(118918.898000) vcan0 00000002#4C9AF6 R
(118919.134000) vcan0 00000001#4D9BF7 R
(118919.375000) vcan0 00000002#4E9CF8 R
(118919.618000) vcan0 00000001#4F9DF9 R
(118919.854000) vcan0 00000002#509EFA R
(118920.090000) vcan0 00000001#519FFB R
(118920.329000) vcan0 00000002#52A0FC R
(118920.565000) vcan0 00000001#53A1FD R
(118920.809000) vcan0 00000002#54A2FE R
(118921.044000) vcan0 00000001#00A3AA R
(118921.282000) vcan0 00000002#01A4AB R
(118921.518000) vcan0 00000001#02A5AC R
(118921.762000) vcan0 00000002#03A6AD R
(118921.998000) vcan0 00000001#04A7AE R
(118922.239000) vcan0 00000002#05A8AF R
(118922.475000) vcan0 00000001#06A9B0 R
(118922.719000) vcan0 00000002#07AAB1 R
(118922.954000) vcan0 00000001#0855B2 R
(118923.196000) vcan0 00000002#0956B3 R
(118923.432000) vcan0 00000001#0A57B4 R
(118923.676000) vcan0 00000002#0B58B5 R
(118923.912000) vcan0 00000001#0C59B6 R
(118924.148000) vcan0 00000002#0D5AB7 R
(118924.388000) vcan0 00000001#0E5BB8 R
(118924.632000) vcan0 00000002#0F5CB9 R
(118924.868000) vcan0 00000001#105DBA R
(118925.104000) vcan0 00000002#115EBB R
(118925.345000) vcan0 00000001#125FBC R
(118925.589000) vcan0 00000002#1360BD R
(118925.825000) vcan0 00000001#1461BE R
(118926.060000) vcan0 00000002#1562BF R
(118926.299000) vcan0 00000001#1663C0 R
(118926.535000) vcan0 00000002#1764C1 R
(118926.779000) vcan0 00000001#1865C2 R
(118927.014000) vcan0 00000002#1966C3 R
(118927.255000) vcan0 00000001#1A67C4 R
(118927.491000) vcan0 00000002#1B68C5 R
(118927.735000) vcan0 00000001#1C69C6 R
(118927.971000) vcan0 00000002#1D6AC7 R
(118928.212000) vcan0 00000001#1E6BC8 R
(118928.448000) vcan0 00000002#1F6CC9 R
(118928.692000) vcan0 00000001#206DCA R
(118928.928000) vcan0 00000002#216ECB R
(118929.165000) vcan0 00000001#226FCC R
(118929.405000) vcan0 00000002#2370CD R
(118929.649000) vcan0 00000001#2471CE R
(118929.884000) vcan0 00000002#2572CF R
(118930.120000) vcan0 00000001#2673D0 R
(118930.362000) vcan0 00000002#2774D1 R
(118930.605000) vcan0 00000001#2875D2 R
(118930.841000) vcan0 00000002#2976D3 R
(118931.076000) vcan0 00000001#2A77D4 R
(118931.314000) vcan0 00000002#2B78D5 R
(118931.550000) vcan0 00000001#2C79D6 R
(118931.794000) vcan0 00000002#2D7AD7 R
(118932.030000) vcan0 00000001#2E7BD8 R
(118932.272000) vcan0 00000002#2F7CD9 R
(118932.507000) vcan0 00000001#307DDA R
(118932.751000) vcan0 00000002#317EDB R
(118932.987000) vcan0 00000001#327FDC R
(118933.229000) vcan0 00000002#3380DD R
(118933.464000) vcan0 00000001#3481DE R
(118933.709000) vcan0 00000002#3582DF R
(118933.944000) vcan0 00000001#3683E0 R
(118934.182000) vcan0 00000002#3784E1 R
(118934.418000) vcan0 00000001#3885E2 R
(118934.662000) vcan0 00000002#3986E3 R
(118934.898000) vcan0 00000001#3A87E4 R
(118935.134000) vcan0 00000002#3B88E5 R
(118935.376000) vcan0 00000001#3C89E6 R
(118935.619000) vcan0 00000002#3D8AE7 R
(118935.855000) vcan0 00000001#3E8BE8 R
(118936.091000) vcan0 00000002#3F8CE9 R
(118936.329000) vcan0 00000001#408DEA R
(118936.565000) vcan0 00000002#418EEB R
(118936.809000) vcan0 00000001#428FEC R
(118937.044000) vcan0 00000002#4390ED R
(118937.282000) vcan0 00000001#4491EE R
(118937.518000) vcan0 00000002#4592EF R
(118937.762000) vcan0 00000001#4693F0 R
(118937.998000) vcan0 00000002#4794F1 R
(118938.240000) vcan0 00000001#4895F2 R
(118938.476000) vcan0 00000002#4996F3 R
(118938.719000) vcan0 00000001#4A97F4 R
(118938.955000) vcan0 00000002#4B98F5 R
(118939.196000) vcan0 00000001#4C99F6 R
(118939.432000) vcan0 00000002#4D9AF7 R
(118939.675000) vcan0 00000001#4E9BF8 R
(118939.911000) vcan0 00000002#4F9CF9 R
(118940.147000) vcan0 00000001#509DFA R
(118940.389000) vcan0 00000002#519EFB R
(118940.632000) vcan0 00000001#529FFC R
(118940.868000) vcan0 00000002#53A0FD R
(118941.104000) vcan0 00000001#54A1FE R
(118941.345000) vcan0 00000002#00A2AA R
(118941.589000) vcan0 00000001#01A3AB R
(118941.825000) vcan0 00000002#02A4AC R
(118942.060000) vcan0 00000001#03A5AD R
(118942.298000) vcan0 00000002#04A6AE R
(118942.534000) vcan0 00000001#05A7AF R
(118942.778000) vcan0 00000002#06A8B0 R
(118943.014000) vcan0 00000001#07A9B1 R
(118943.256000) vcan0 00000002#08AAB2 R
(118943.491000) vcan0 00000001#0955B3 R
(118943.735000) vcan0 00000002#0A56B4 R
(118943.971000) vcan0 00000001#0B57B5 R
(118944.212000) vcan0 00000002#0C58B6 R
(118944.448000) vcan0 00000001#0D59B7 R
(118944.692000) vcan0 00000002#0E5AB8 R
(118944.928000) vcan0 00000001#0F5BB9 R
(118945.165000) vcan0 00000002#105CBA R
(118945.405000) vcan0 00000001#115DBB R
(118945.648000) vcan0 00000002#125EBC R
(118945.884000) vcan0 00000001#135FBD R
(118946.120000) vcan0 00000002#1460BE R
(118946.361000) vcan0 00000001#1561BF R
(118946.605000) vcan0 00000002#1662C0 R
(118946.841000) vcan0 00000001#1763C1 R
(118947.077000) vcan0 00000002#1864C2 R
(118947.315000) vcan0 00000001#1965C3 R
(118947.551000) vcan0 00000002#1A66C4 R
(118947.795000) vcan0 00000001#1B67C5 R
(118948.031000) vcan0 00000002#1C68C6 R
(118948.272000) vcan0 00000001#1D69C7 R
(118948.507000) vcan0 00000002#1E6AC8 R
(118948.751000) vcan0 00000001#1F6BC9 R
(118948.987000) vcan0 00000002#206CCA R
(118949.229000) vcan0 00000001#216DCB R
(118949.465000) vcan0 00000002#226ECC R
(118949.709000) vcan0 00000001#236FCD R
(118949.944000) vcan0 00000002#2470CE R
(118950.182000) vcan0 00000001#2571CF R
(118950.418000) vcan0 00000002#2672D0 R
(118950.662000) vcan0 00000001#2773D1 R
(118950.898000) vcan0 00000002#2874D2 R
(118951.134000) vcan0 00000001#2975D3 R
(118951.375000) vcan0 00000002#2A76D4 R
(118951.618000) vcan0 00000001#2B77D5 R
(118951.854000) vcan0 00000002#2C78D6 R
(118952.090000) vcan0 00000001#2D79D7 R
(118952.329000) vcan0 00000002#2E7AD8 R
(118952.565000) vcan0 00000001#2F7BD9 R
(118952.809000) vcan0 00000002#307CDA R
(118953.044000) vcan0 00000001#317DDB R
(118953.282000) vcan0 00000002#327EDC R
(118953.518000) vcan0 00000001#337FDD R
(118953.762000) vcan0 00000002#3480DE R
(118953.998000) vcan0 00000001#3581DF R
(118954.239000) vcan0 00000002#3682E0 R
(118954.475000) vcan0 00000001#3783E1 R
(118954.719000) vcan0 00000002#3884E2 R
(118954.954000) vcan0 00000001#3985E3 R
(118955.196000) vcan0 00000002#3A86E4 R
(118955.432000) vcan0 00000001#3B87E5 R
(118955.676000) vcan0 00000002#3C88E6 R
(118955.912000) vcan0 00000001#3D89E7 R
(118956.148000) vcan0 00000002#3E8AE8 R
(118956.388000) vcan0 00000001#3F8BE9 R
(118956.632000) vcan0 00000002#408CEA R
(118956.868000) vcan0 00000001#418DEB R
(118957.104000) vcan0 00000002#428EEC R
(118957.345000) vcan0 00000001#438FED R
(118957.589000) vcan0 00000002#4490EE R
(118957.824000) vcan0 00000001#4591EF R
(118958.060000) vcan0 00000002#4692F0 R
(118958.298000) vcan0 00000001#4793F1 R
(118958.534000) vcan0 00000002#4894F2 R
(118958.778000) vcan0 00000001#4995F3 R
(118959.013000) vcan0 00000002#4A96F4 R
(118959.255000) vcan0 00000001#4B97F5 R
(118959.491000) vcan0 00000002#4C98F6 R
(118959.735000) vcan0 00000001#4D99F7 R
(118959.971000) vcan0 00000002#4E9AF8 R
(118960.212000) vcan0 00000001#4F9BF9 R
(118960.448000) vcan0 00000002#509CFA R
(118960.692000) vcan0 00000001#519DFB R
(118960.928000) vcan0 00000002#529EFC R
(118961.164000) vcan0 00000001#539FFD R
(118961.405000) vcan0 00000002#54A0FE R
(118961.648000) vcan0 00000001#00A1AA R
(118961.884000) vcan0 00000002#01A2AB R
(118962.120000) vcan0 00000001#02A3AC R
(118962.361000) vcan0 00000002#03A4AD R
(118962.605000) vcan0 00000001#04A5AE R
(118962.841000) vcan0 00000002#05A6AF R
(118963.077000) vcan0 00000001#06A7B0 R
(118963.315000) vcan0 00000002#07A8B1 R
(118963.551000) vcan0 00000001#08A9B2 R
(118963.795000) vcan0 00000002#09AAB3 R
(118964.031000) vcan0 00000001#0A55B4 R
(118964.272000) vcan0 00000002#0B56B5 R
(118964.508000) vcan0 00000001#0C57B6 R
(118964.752000) vcan0 00000002#0D58B7 R
(118964.988000) vcan0 00000001#0E59B8 R
(118965.228000) vcan0 00000002#0F5AB9 R
(118965.464000) vcan0 00000001#105BBA R
(118965.708000) vcan0 00000002#115CBB R
(118965.944000) vcan0 00000001#125DBC R
(118966.182000) vcan0 00000002#135EBD R
(118966.418000) vcan0 00000001#145FBE R
(118966.662000) vcan0 00000002#1560BF R
(118966.898000) vcan0 00000001#1661C0 R
(118967.134000) vcan0 00000002#1762C1 R
(118967.376000) vcan0 00000001#1863C2 R
(118967.619000) vcan0 00000002#1964C3 R
(118967.855000) vcan0 00000001#1A65C4 R
(118968.091000) vcan0 00000002#1B66C5 R
(118968.329000) vcan0 00000001#1C67C6 R
(118968.564000) vcan0 00000002#1D68C7 R
(118968.808000) vcan0 00000001#1E69C8 R
(118969.044000) vcan0 00000002#1F6AC9 R
(118969.282000) vcan0 00000001#206BCA R
(118969.518000) vcan0 00000002#216CCB R
(118969.762000) vcan0 00000001#226DCC R
(118969.998000) vcan0 00000002#236ECD R
(118970.239000) vcan0 00000001#246FCE R
(118970.475000) vcan0 00000002#2570CF R
(118970.719000) vcan0 00000001#2671D0 R
(118970.954000) vcan0 00000002#2772D1 R
(118971.196000) vcan0 00000001#2873D2 R
(118971.432000) vcan0 00000002#2974D3 R
(118971.676000) vcan0 00000001#2A75D4 R
(118971.912000) vcan0 00000002#2B76D5 R
(118972.148000) vcan0 00000001#2C77D6 R
(118972.388000) vcan0 00000002#2D78D7 R
(118972.632000) vcan0 00000001#2E79D8 R
(118972.868000) vcan0 00000002#2F7AD9 R
(118973.104000) vcan0 00000001#307BDA R
(118973.345000) vcan0 00000002#317CDB R
(118973.589000) vcan0 00000001#327DDC R
(118973.825000) vcan0 00000002#337EDD R
(118974.060000) vcan0 00000001#347FDE R
(118974.299000) vcan0 00000002#3580DF R
(118974.534000) vcan0 00000001#3681E0 R
(118974.778000) vcan0 00000002#3782E1 R
(118975.014000) vcan0 00000001#3883E2 R
(118975.256000) vcan0 00000002#3984E3 R
(118975.492000) vcan0 00000001#3A85E4 R
(118975.736000) vcan0 00000002#3B86E5 R
(118975.971000) vcan0 00000001#3C87E6 R
(118976.212000) vcan0 00000002#3D88E7 R
(118976.448000) vcan0 00000001#3E89E8 R
(118976.692000) vcan0 00000002#3F8AE9 R
(118976.927000) vcan0 00000001#408BEA R
(118977.164000) vcan0 00000002#418CEB R
(118977.405000) vcan0 00000001#428DEC R
(118977.649000) vcan0 00000002#438EED R
(118977.884000) vcan0 00000001#448FEE R
(118978.120000) vcan0 00000002#4590EF R
(118978.361000) vcan0 00000001#4691F0 R
(118978.605000) vcan0 00000002#4792F1 R
(118978.841000) vcan0 00000001#4893F2 R
(118979.077000) vcan0 00000002#4994F3 R
(118979.315000) vcan0 00000001#4A95F4 R
(118979.551000) vcan0 00000002#4B96F5 R
(118979.795000) vcan0 00000001#4C97F6 R
(118980.031000) vcan0 00000002#4D98F7 R
(118980.272000) vcan0 00000001#4E99F8 R
(118980.508000) vcan0 00000002#4F9AF9 R
(118980.752000) vcan0 00000001#509BFA R
(118980.988000) vcan0 00000002#519CFB R
(118981.228000) vcan0 00000001#529DFC R
(118981.464000) vcan0 00000002#539EFD R
(118981.708000) vcan0 00000001#549FFE R
(118981.944000) vcan0 00000002#00A0AA R
(118982.182000) vcan0 00000001#01A1AB R
(118982.418000) vcan0 00000002#02A2AC R
(118982.662000) vcan0 00000001#03A3AD R
(118982.898000) vcan0 00000002#04A4AE R
(118983.134000) vcan0 00000001#05A5AF R
(118983.376000) vcan0 00000002#06A6B0 R
(118983.619000) vcan0 00000001#07A7B1 R
(118983.855000) vcan0 00000002#08A8B2 R
(118984.091000) vcan0 00000001#09A9B3 R
(118984.329000) vcan0 00000002#0AAAB4 R
(118984.564000) vcan0 00000001#0B55B5 R
(118984.808000) vcan0 00000002#0C56B6 R
(118985.044000) vcan0 00000001#0D57B7 R
(118985.282000) vcan0 00000002#0E58B8 R
(118985.518000) vcan0 00000001#0F59B9 R
(118985.762000) vcan0 00000002#105ABA R
(118985.998000) vcan0 00000001#115BBB R
(118986.239000) vcan0 00000002#125CBC R
(118986.475000) vcan0 00000001#135DBD R
(118986.719000) vcan0 00000002#145EBE R
(118986.954000) vcan0 00000001#155FBF R
(118987.196000) vcan0 00000002#1660C0 R
(118987.432000) vcan0 00000001#1761C1 R
(118987.676000) vcan0 00000002#1862C2 R
(118987.912000) vcan0 00000001#1963C3 R
(118988.148000) vcan0 00000002#1A64C4 R
(118988.388000) vcan0 00000001#1B65C5 R
(118988.632000) vcan0 00000002#1C66C6 R
(118988.868000) vcan0 00000001#1D67C7 R
(118989.104000) vcan0 00000002#1E68C8 R
(118989.345000) vcan0 00000001#1F69C9 R
(118989.589000) vcan0 00000002#206ACA R
(118989.824000) vcan0 00000001#216BCB R
(118990.060000) vcan0 00000002#226CCC R
(118990.298000) vcan0 00000001#236DCD R
(118990.534000) vcan0 00000002#246ECE R
(118990.778000) vcan0 00000001#256FCF R
(118991.013000) vcan0 00000002#2670D0 R
(118991.255000) vcan0 00000001#2771D1 R
(118991.491000) vcan0 00000002#2872D2 R
(118991.735000) vcan0 00000001#2973D3 R
(118991.971000) vcan0 00000002#2A74D4 R
(118992.212000) vcan0 00000001#2B75D5 R
(118992.448000) vcan0 00000002#2C76D6 R
(118992.692000) vcan0 00000001#2D77D7 R
(118992.928000) vcan0 00000002#2E78D8 R
(118993.164000) vcan0 00000001#2F79D9 R
(118993.405000) vcan0 00000002#307ADA R
(118993.648000) vcan0 00000001#317BDB R
(118993.884000) vcan0 00000002#327CDC R
(118994.120000) vcan0 00000001#337DDD R
(118994.361000) vcan0 00000002#347EDE R
(118994.605000) vcan0 00000001#357FDF R
(118994.841000) vcan0 00000002#3680E0 R
(118995.077000) vcan0 00000001#3781E1 R
(118995.315000) vcan0 00000002#3882E2 R
(118995.551000) vcan0 00000001#3983E3 R
(118995.795000) vcan0 00000002#3A84E4 R
(118996.031000) vcan0 00000001#3B85E5 R
(118996.272000) vcan0 00000002#3C86E6 R
(118996.508000) vcan0 00000001#3D87E7 R
(118996.752000) vcan0 00000002#3E88E8 R
(118996.988000) vcan0 00000001#3F89E9 R
(118997.228000) vcan0 00000002#408AEA R
(118997.464000) vcan0 00000001#418BEB R
(118997.708000) vcan0 00000002#428CEC R
(118997.944000) vcan0 00000001#438DED R
(118998.182000) vcan0 00000002#448EEE R
(118998.418000) vcan0 00000001#458FEF R
(118998.662000) vcan0 00000002#4690F0 R
(118998.898000) vcan0 00000001#4791F1 R
(118999.134000) vcan0 00000002#4892F2 R
(118999.376000) vcan0 00000001#4993F3 R
(118999.619000) vcan0 00000002#4A94F4 R
(118999.855000) vcan0 00000001#4B95F5 R
(119000.091000) vcan0 00000002#4C96F6 R
(119000.329000) vcan0 00000001#4D97F7 R
(119000.564000) vcan0 00000002#4E98F8 R
(119000.808000) vcan0 00000001#4F99F9 R
(119001.044000) vcan0 00000002#509AFA R
(119001.282000) vcan0 00000001#519BFB R
(119001.518000) vcan0 00000002#529CFC R
(119001.762000) vcan0 00000001#539DFD R
(119001.998000) vcan0 00000002#549EFE R
(119002.239000) vcan0 00000001#009FAA R
(119002.475000) vcan0 00000002#01A0AB R
(119002.718000) vcan0 00000001#02A1AC R
(119002.954000) vcan0 00000002#03A2AD R
(119003.196000) vcan0 00000001#04A3AE R
(119003.432000) vcan0 00000002#05A4AF R
(119003.676000) vcan0 00000001#06A5B0 R
(119003.912000) vcan0 00000002#07A6B1 R
(119004.147000) vcan0 00000001#08A7B2 R
(119004.388000) vcan0 00000002#09A8B3 R
(119004.632000) vcan0 00000001#0AA9B4 R
(119004.868000) vcan0 00000002#0BAAB5 R
(119005.104000) vcan0 00000001#0C55B6 R
(119005.345000) vcan0 00000002#0D56B7 R
(119005.589000) vcan0 00000001#0E57B8 R
(119005.824000) vcan0 00000002#0F58B9 R
(119006.060000) vcan0 00000001#1059BA R
(119006.298000) vcan0 00000002#115ABB R
(119006.534000) vcan0 00000001#125BBC R
(119006.778000) vcan0 00000002#135CBD R
(119007.014000) vcan0 00000001#145DBE R
(119007.255000) vcan0 00000002#155EBF R
(119007.491000) vcan0 00000001#165FC0 R
(119007.735000) vcan0 00000002#1760C1 R
(119007.971000) vcan0 00000001#1861C2 R
(119008.212000) vcan0 00000002#1962C3 R
(119008.448000) vcan0 00000001#1A63C4 R
(119008.692000) vcan0 00000002#1B64C5 R
(119008.928000) vcan0 00000001#1C65C6 R
(119009.164000) vcan0 00000002#1D66C7 R
(119009.405000) vcan0 00000001#1E67C8 R
(119009.648000) vcan0 00000002#1F68C9 R
(119009.884000) vcan0 00000001#2069CA R
(119010.120000) vcan0 00000002#216ACB R
(119010.361000) vcan0 00000001#226BCC R
(119010.605000) vcan0 00000002#236CCD R
(119010.841000) vcan0 00000001#246DCE R
(119011.077000) vcan0 00000002#256ECF R
(119011.315000) vcan0 00000001#266FD0 R
(119011.551000) vcan0 00000002#2770D1 R
(119011.795000) vcan0 00000001#2871D2 R
(119012.031000) vcan0 00000002#2972D3 R
(119012.272000) vcan0 00000001#2A73D4 R
(119012.508000) vcan0 00000002#2B74D5 R
(119012.752000) vcan0 00000001#2C75D6 R
(119012.988000) vcan0 00000002#2D76D7 R
(119013.228000) vcan0 00000001#2E77D8 R
(119013.464000) vcan0 00000002#2F78D9 R
(119013.708000) vcan0 00000001#3079DA R
(119013.944000) vcan0 00000002#317ADB R
(119014.182000) vcan0 00000001#327BDC R
(119014.418000) vcan0 00000002#337CDD R
(119014.662000) vcan0 00000001#347DDE R
(119014.898000) vcan0 00000002#357EDF R
(119015.134000) vcan0 00000001#367FE0 R
(119015.376000) vcan0 00000002#3780E1 R
(119015.619000) vcan0 00000001#3881E2 R
(119015.855000) vcan0 00000002#3982E3 R
(119016.091000) vcan0 00000001#3A83E4 R
(119016.329000) vcan0 00000002#3B84E5 R
(119016.564000) vcan0 00000001#3C85E6 R
(119016.808000) vcan0 00000002#3D86E7 R
(119017.044000) vcan0 00000001#3E87E8 R
(119017.282000) vcan0 00000002#3F88E9 R
(119017.518000) vcan0 00000001#4089EA R
(119017.762000) vcan0 00000002#418AEB R
(119017.998000) vcan0 00000001#428BEC R
(119018.239000) vcan0 00000002#438CED R
(119018.475000) vcan0 00000001#448DEE R
(119018.719000) vcan0 00000002#458EEF R
(119018.954000) vcan0 00000001#468FF0 R
(119019.196000) vcan0 00000002#4790F1 R
(119019.432000) vcan0 00000001#4891F2 R
(119019.676000) vcan0 00000002#4992F3 R
(119019.912000) vcan0 00000001#4A93F4 R
(119020.148000) vcan0 00000002#4B94F5 R
(119020.388000) vcan0 00000001#4C95F6 R
(119020.632000) vcan0 00000002#4D96F7 R
(119020.868000) vcan0 00000001#4E97F8 R
(119021.104000) vcan0 00000002#4F98F9 R
(119021.345000) vcan0 00000001#5099FA R
(119021.589000) vcan0 00000002#519AFB R
(119021.824000) vcan0 00000001#529BFC R
(119022.060000) vcan0 00000002#539CFD R
(119022.298000) vcan0 00000001#549DFE R
(119022.534000) vcan0 00000002#009EAA R
(119022.778000) vcan0 00000001#019FAB R
(119023.013000) vcan0 00000002#02A0AC R
(119023.255000) vcan0 00000001#03A1AD R
(119023.491000) vcan0 00000002#04A2AE R
(119023.735000) vcan0 00000001#05A3AF R
(119023.971000) vcan0 00000002#06A4B0 R
(119024.212000) vcan0 00000001#07A5B1 R
(119024.448000) vcan0 00000002#08A6B2 R
(119024.692000) vcan0 00000001#09A7B3 R
(119024.928000) vcan0 00000002#0AA8B4 R
(119025.164000) vcan0 00000001#0BA9B5 R
(119025.405000) vcan0 00000002#0CAAB6 R
(119025.648000) vcan0 00000001#0D55B7 R
(119025.884000) vcan0 00000002#0E56B8 R
(119026.120000) vcan0 00000001#0F57B9 R
(119026.361000) vcan0 00000002#1058BA R
(119026.605000) vcan0 00000001#1159BB R
(119026.841000) vcan0 00000002#125ABC R
(119027.077000) vcan0 00000001#135BBD R
(119027.315000) vcan0 00000002#145CBE R
(119027.551000) vcan0 00000001#155DBF R
(119027.795000) vcan0 00000002#165EC0 R
(119028.031000) vcan0 00000001#175FC1 R
(119028.272000) vcan0 00000002#1860C2 R
(119028.508000) vcan0 00000001#1961C3 R
(119028.752000) vcan0 00000002#1A62C4 R
(119028.988000) vcan0 00000001#1B63C5 R
(119029.228000) vcan0 00000002#1C64C6 R
(119029.464000) vcan0 00000001#1D65C7 R
(119029.708000) vcan0 00000002#1E66C8 R
(119029.944000) vcan0 00000001#1F67C9 R
(119030.182000) vcan0 00000002#2068CA R
(119030.418000) vcan0 00000001#2169CB R
(119030.662000) vcan0 00000002#226ACC R
(119030.898000) vcan0 00000001#236BCD R
(119031.134000) vcan0 00000002#246CCE R
(119031.376000) vcan0 00000001#256DCF R
(119031.619000) vcan0 00000002#266ED0 R
(119031.855000) vcan0 00000001#276FD1 R
(119032.091000) vcan0 00000002#2870D2 R
(119032.329000) vcan0 00000001#2971D3 R
(119032.565000) vcan0 00000002#2A72D4 R
(119032.809000) vcan0 00000001#2B73D5 R
(119033.044000) vcan0 00000002#2C74D6 R
(119033.282000) vcan0 00000001#2D75D7 R
(119033.518000) vcan0 00000002#2E76D8 R
(119033.762000) vcan0 00000001#2F77D9 R
(119033.998000) vcan0 00000002#3078DA R
(119034.240000) vcan0 00000001#3179DB R
(119034.476000) vcan0 00000002#327ADC R
(119034.719000) vcan0 00000001#337BDD R
(119034.955000) vcan0 00000002#347CDE R
(119035.196000) vcan0 00000001#357DDF R
(119035.432000) vcan0 00000002#367EE0 R
(119035.675000) vcan0 00000001#377FE1 R
(119035.911000) vcan0 00000002#3880E2 R
(119036.147000) vcan0 00000001#3981E3 R
(119036.389000) vcan0 00000002#3A82E4 R
(119036.632000) vcan0 00000001#3B83E5 R
(119036.868000) vcan0 00000002#3C84E6 R
(119037.104000) vcan0 00000001#3D85E7 R
(119037.345000) vcan0 00000002#3E86E8 R
(119037.589000) vcan0 00000001#3F87E9 R
(119037.825000) vcan0 00000002#4088EA R
(119038.060000) vcan0 00000001#4189EB R
(119038.298000) vcan0 00000002#428AEC R
(119038.534000) vcan0 00000001#438BED R
(119038.778000) vcan0 00000002#448CEE R
(119039.014000) vcan0 00000001#458DEF R
(119039.256000) vcan0 00000002#468EF0 R
(119039.491000) vcan0 00000001#478FF1 R
(119039.735000) vcan0 00000002#4890F2 R
(119039.971000) vcan0 00000001#4991F3 R
(119040.212000) vcan0 00000002#4A92F4 R
(119040.448000) vcan0 00000001#4B93F5 R
(119040.692000) vcan0 00000002#4C94F6 R
(119040.928000) vcan0 00000001#4D95F7 R
(119041.165000) vcan0 00000002#4E96F8 R
(119041.405000) vcan0 00000001#4F97F9 R
(119041.648000) vcan0 00000002#5098FA R
(119041.884000) vcan0 00000001#5199FB R
(119042.120000) vcan0 00000002#529AFC R
(119042.361000) vcan0 00000001#539BFD R
(119042.605000) vcan0 00000002#549CFE R
(119042.841000) vcan0 00000001#009DAA R
(119043.077000) vcan0 00000002#019EAB R
(119043.315000) vcan0 00000001#029FAC R
(119043.551000) vcan0 00000002#03A0AD R
(119043.795000) vcan0 00000001#04A1AE R
(119044.031000) vcan0 00000002#05A2AF R
(119044.272000) vcan0 00000001#06A3B0 R
(119044.507000) vcan0 00000002#07A4B1 R
(119044.751000) vcan0 00000001#08A5B2 R
(119044.987000) vcan0 00000002#09A6B3 R
(119045.229000) vcan0 00000001#0AA7B4 R
(119045.465000) vcan0 00000002#0BA8B5 R
(119045.709000) vcan0 00000001#0CA9B6 R
(119045.944000) vcan0 00000002#0DAAB7 R
(119046.182000) vcan0 00000001#0E55B8 R
(119046.418000) vcan0 00000002#0F56B9 R
(119046.662000) vcan0 00000001#1057BA R
(119046.898000) vcan0 00000002#1158BB R
(119047.134000) vcan0 00000001#1259BC R
(119047.376000) vcan0 00000002#135ABD R
(119047.619000) vcan0 00000001#145BBE R
(119047.855000) vcan0 00000002#155CBF R
(119048.091000) vcan0 00000001#165DC0 R
(119048.329000) vcan0 00000002#175EC1 R
(119048.565000) vcan0 00000001#185FC2 R
(119048.809000) vcan0 00000002#1960C3 R
(119049.044000) vcan0 00000001#1A61C4 R
(119049.282000) vcan0 00000002#1B62C5 R
(119049.518000) vcan0 00000001#1C63C6 R
(119049.762000) vcan0 00000002#1D64C7 R
(119049.998000) vcan0 00000001#1E65C8 R
(119050.239000) vcan0 00000002#1F66C9 R
(119050.475000) vcan0 00000001#2067CA R
(119050.719000) vcan0 00000002#2168CB R
(119050.954000) vcan0 00000001#2269CC R
(119051.196000) vcan0 00000002#236ACD R
(119051.432000) vcan0 00000001#246BCE R
(119051.676000) vcan0 00000002#256CCF R
(119051.912000) vcan0 00000001#266DD0 R
(119052.148000) vcan0 00000002#276ED1 R
(119052.388000) vcan0 00000001#286FD2 R
(119052.632000) vcan0 00000002#2970D3 R
(119052.868000) vcan0 00000001#2A71D4 R
(119053.104000) vcan0 00000002#2B72D5 R
(119053.345000) vcan0 00000001#2C73D6 R
(119053.589000) vcan0 00000002#2D74D7 R
(119053.824000) vcan0 00000001#2E75D8 R
(119054.060000) vcan0 00000002#2F76D9 R
(119054.298000) vcan0 00000001#3077DA R
(119054.534000) vcan0 00000002#3178DB R
(119054.778000) vcan0 00000001#3279DC R
(119055.013000) vcan0 00000002#337ADD R
(119055.255000) vcan0 00000001#347BDE R
(119055.491000) vcan0 00000002#357CDF R
(119055.735000) vcan0 00000001#367DE0 R
(119055.971000) vcan0 00000002#377EE1 R
(119056.212000) vcan0 00000001#387FE2 R
(119056.448000) vcan0 00000002#3980E3 R
(119056.692000) vcan0 00000001#3A81E4 R
(119056.928000) vcan0 00000002#3B82E5 R
(119057.164000) vcan0 00000001#3C83E6 R
(119057.405000) vcan0 00000002#3D84E7 R
(119057.648000) vcan0 00000001#3E85E8 R
(119057.884000) vcan0 00000002#3F86E9 R
(119058.120000) vcan0 00000001#4087EA R
(119058.361000) vcan0 00000002#4188EB R
(119058.605000) vcan0 00000001#4289EC R
(119058.841000) vcan0 00000002#438AED R
(119059.077000) vcan0 00000001#448BEE R
(119059.315000) vcan0 00000002#458CEF R
(119059.551000) vcan0 00000001#468DF0 R
(119059.795000) vcan0 00000002#478EF1 R
(119060.031000) vcan0 00000001#488FF2 R
(119060.272000) vcan0 00000002#4990F3 R
(119060.508000) vcan0 00000001#4A91F4 R
(119060.752000) vcan0 00000002#4B92F5 R
(119060.988000) vcan0 00000001#4C93F6 R
(119061.228000) vcan0 00000002#4D94F7 R
(119061.464000) vcan0 00000001#4E95F8 R
(119061.708000) vcan0 00000002#4F96F9 R
(119061.944000) vcan0 00000001#5097FA R
(119062.182000) vcan0 00000002#5198FB R
(119062.418000) vcan0 00000001#5299FC R
(119062.662000) vcan0 00000002#539AFD R
(119062.898000) vcan0 00000001#549BFE R
(119063.134000) vcan0 00000002#009CAA R
(119063.376000) vcan0 00000001#019DAB R
(119063.619000) vcan0 00000002#029EAC R
(119063.855000) vcan0 00000001#039FAD R
(119064.091000) vcan0 00000002#04A0AE R
(119064.329000) vcan0 00000001#05A1AF R
(119064.565000) vcan0 00000002#06A2B0 R
(119064.809000) vcan0 00000001#07A3B1 R
(119065.044000) vcan0 00000002#08A4B2 R
(119065.282000) vcan0 00000001#09A5B3 R
(119065.518000) vcan0 00000002#0AA6B4 R
(119065.762000) vcan0 00000001#0BA7B5 R
(119065.998000) vcan0 00000002#0CA8B6 R
(119066.240000) vcan0 00000001#0DA9B7 R
(119066.476000) vcan0 00000002#0EAAB8 R
(119066.719000) vcan0 00000001#0F55B9 R
(119066.955000) vcan0 00000002#1056BA R
(119067.196000) vcan0 00000001#1157BB R
(119067.432000) vcan0 00000002#1258BC R
(119067.675000) vcan0 00000001#1359BD R
(119067.911000) vcan0 00000002#145ABE R
(119068.147000) vcan0 00000001#155BBF R
(119068.389000) vcan0 00000002#165CC0 R
(119068.633000) vcan0 00000001#175DC1 R
(119068.869000) vcan0 00000002#185EC2 R
(119069.104000) vcan0 00000001#195FC3 R
(119069.345000) vcan0 00000002#1A60C4 R
(119069.589000) vcan0 00000001#1B61C5 R
(119069.825000) vcan0 00000002#1C62C6 R
(119070.060000) vcan0 00000001#1D63C7 R
(119070.298000) vcan0 00000002#1E64C8 R
(119070.534000) vcan0 00000001#1F65C9 R
(119070.778000) vcan0 00000002#2066CA R
(119071.014000) vcan0 00000001#2167CB R
(119071.256000) vcan0 00000002#2268CC R
(119071.491000) vcan0 00000001#2369CD R
(119071.735000) vcan0 00000002#246ACE R
(119071.971000) vcan0 00000001#256BCF R
(119072.212000) vcan0 00000002#266CD0 R
(119072.448000) vcan0 00000001#276DD1 R
(119072.692000) vcan0 00000002#286ED2 R
(119072.928000) vcan0 00000001#296FD3 R
(119073.165000) vcan0 00000002#2A70D4 R
(119073.405000) vcan0 00000001#2B71D5 R
(119073.648000) vcan0 00000002#2C72D6 R
(119073.884000) vcan0 00000001#2D73D7 R
(119074.120000) vcan0 00000002#2E74D8 R
(119074.361000) vcan0 00000001#2F75D9 R
(119074.605000) vcan0 00000002#3076DA R
(119074.841000) vcan0 00000001#3177DB R
(119075.077000) vcan0 00000002#3278DC R
(119075.315000) vcan0 00000001#3379DD R
(119075.551000) vcan0 00000002#347ADE R
(119075.795000) vcan0 00000001#357BDF R
(119076.031000) vcan0 00000002#367CE0 R
(119076.272000) vcan0 00000001#377DE1 R
(119076.507000) vcan0 00000002#387EE2 R
(119076.751000) vcan0 00000001#397FE3 R
(119076.987000) vcan0 00000002#3A80E4 R
(119077.229000) vcan0 00000001#3B81E5 R
(119077.465000) vcan0 00000002#3C82E6 R
(119077.709000) vcan0 00000001#3D83E7 R
(119077.944000) vcan0 00000002#3E84E8 R
(119078.182000) vcan0 00000001#3F85E9 R
(119078.418000) vcan0 00000002#4086EA R
(119078.662000) vcan0 00000001#4187EB R
(119078.898000) vcan0 00000002#4288EC R
(119079.134000) vcan0 00000001#4389ED R
(119079.375000) vcan0 00000002#448AEE R
(119079.618000) vcan0 00000001#458BEF R
(119079.854000) vcan0 00000002#468CF0 R
(119080.090000) vcan0 00000001#478DF1 R
(119080.329000) vcan0 00000002#488EF2 R
(119080.565000) vcan0 00000001#498FF3 R
(119080.809000) vcan0 00000002#4A90F4 R
(119081.044000) vcan0 00000001#4B91F5 R
(119081.282000) vcan0 00000002#4C92F6 R
(119081.518000) vcan0 00000001#4D93F7 R
(119081.762000) vcan0 00000002#4E94F8 R
(119081.998000) vcan0 00000001#4F95F9 R
(119082.239000) vcan0 00000002#5096FA R
(119082.475000) vcan0 00000001#5197FB R
(119082.719000) vcan0 00000002#5298FC R
(119082.954000) vcan0 00000001#5399FD R
(119083.196000) vcan0 00000002#549AFE R
(119083.432000) vcan0 00000001#009BAA R
(119083.676000) vcan0 00000002#019CAB R
(119083.912000) vcan0 00000001#029DAC R
(119084.148000) vcan0 00000002#039EAD R
(119084.388000) vcan0 00000001#049FAE R
(119084.632000) vcan0 00000002#05A0AF R
(119084.868000) vcan0 00000001#06A1B0 R
(119085.104000) vcan0 00000002#07A2B1 R
(119085.345000) vcan0 00000001#08A3B2 R
(119085.589000) vcan0 00000002#09A4B3 R
(119085.825000) vcan0 00000001#0AA5B4 R
(119086.060000) vcan0 00000002#0BA6B5 R
(119086.298000) vcan0 00000001#0CA7B6 R
(119086.534000) vcan0 00000002#0DA8B7 R
(119086.778000) vcan0 00000001#0EA9B8 R
(119087.014000) vcan0 00000002#0FAAB9 R
(119087.255000) vcan0 00000001#1055BA R
(119087.491000) vcan0 00000002#1156BB R
(119087.735000) vcan0 00000001#1257BC R
(119087.971000) vcan0 00000002#1358BD R
(119088.212000) vcan0 00000001#1459BE R
(119088.448000) vcan0 00000002#155ABF R
(119088.692000) vcan0 00000001#165BC0 R
(119088.928000) vcan0 00000002#175CC1 R
(119089.164000) vcan0 00000001#185DC2 R
(119089.405000) vcan0 00000002#195EC3 R
(119089.648000) vcan0 00000001#1A5FC4 R
(119089.884000) vcan0 00000002#1B60C5 R
(119090.120000) vcan0 00000001#1C61C6 R
(119090.362000) vcan0 00000002#1D62C7 R
(119090.605000) vcan0 00000001#1E63C8 R
(119090.841000) vcan0 00000002#1F64C9 R
(119091.076000) vcan0 00000001#2065CA R
(119091.314000) vcan0 00000002#2166CB R
(119091.550000) vcan0 00000001#2267CC R
(119091.794000) vcan0 00000002#2368CD R
(119092.030000) vcan0 00000001#2469CE R
(119092.272000) vcan0 00000002#256ACF R
(119092.507000) vcan0 00000001#266BD0 R
(119092.751000) vcan0 00000002#276CD1 R
(119092.987000) vcan0 00000001#286DD2 R
(119093.229000) vcan0 00000002#296ED3 R
(119093.464000) vcan0 00000001#2A6FD4 R
(119093.709000) vcan0 00000002#2B70D5 R
(119093.944000) vcan0 00000001#2C71D6 R
(119094.182000) vcan0 00000002#2D72D7 R
(119094.418000) vcan0 00000001#2E73D8 R
(119094.662000) vcan0 00000002#2F74D9 R
(119094.898000) vcan0 00000001#3075DA R
(119095.134000) vcan0 00000002#3176DB R
(119095.376000) vcan0 00000001#3277DC R
(119095.619000) vcan0 00000002#3378DD R
(119095.855000) vcan0 00000001#3479DE R
(119096.091000) vcan0 00000002#357ADF R
(119096.329000) vcan0 00000001#367BE0 R
(119096.565000) vcan0 00000002#377CE1 R
(119096.809000) vcan0 00000001#387DE2 R
(119097.044000) vcan0 00000002#397EE3 R
(119097.282000) vcan0 00000001#3A7FE4 R
(119097.518000) vcan0 00000002#3B80E5 R
(119097.762000) vcan0 00000001#3C81E6 R
(119097.998000) vcan0 00000002#3D82E7 R
(119098.240000) vcan0 00000001#3E83E8 R
(119098.476000) vcan0 00000002#3F84E9 R
(119098.719000) vcan0 00000001#4085EA R
(119098.955000) vcan0 00000002#4186EB R
(119099.196000) vcan0 00000001#4287EC R
(119099.432000) vcan0 00000002#4388ED R
(119099.675000) vcan0 00000001#4489EE R
(119099.911000) vcan0 00000002#458AEF R
(119100.147000) vcan0 00000001#468BF0 R
(119100.389000) vcan0 00000002#478CF1 R
(119100.632000) vcan0 00000001#488DF2 R
(119100.868000) vcan0 00000002#498EF3 R
(119101.104000) vcan0 00000001#4A8FF4 R
(119101.345000) vcan0 00000002#4B90F5 R
(119101.589000) vcan0 00000001#4C91F6 R
(119101.825000) vcan0 00000002#4D92F7 R
(119102.060000) vcan0 00000001#4E93F8 R
(119102.298000) vcan0 00000002#4F94F9 R
(119102.534000) vcan0 00000001#5095FA R
(119102.778000) vcan0 00000002#5196FB R
(119103.014000) vcan0 00000001#5297FC R
(119103.256000) vcan0 00000002#5398FD R
(119103.491000) vcan0 00000001#5499FE R
(119103.735000) vcan0 00000002#009AAA R
(119103.971000) vcan0 00000001#019BAB R
(119104.212000) vcan0 00000002#029CAC R
(119104.448000) vcan0 00000001#039DAD R
(119104.692000) vcan0 00000002#049EAE R
(119104.928000) vcan0 00000001#059FAF R
(119105.165000) vcan0 00000002#06A0B0 R
(119105.405000) vcan0 00000001#07A1B1 R
(119105.648000) vcan0 00000002#08A2B2 R
(119105.884000) vcan0 00000001#09A3B3 R
(119106.120000) vcan0 00000002#0AA4B4 R
(119106.361000) vcan0 00000001#0BA5B5 R
(119106.605000) vcan0 00000002#0CA6B6 R
(119106.841000) vcan0 00000001#0DA7B7 R
(119107.077000) vcan0 00000002#0EA8B8 R
(119107.315000) vcan0 00000001#0FA9B9 R
(119107.551000) vcan0 00000002#10AABA R
(119107.795000) vcan0 00000001#1155BB R
(119108.031000) vcan0 00000002#1256BC R
(119108.272000) vcan0 00000001#1357BD R
(119108.508000) vcan0 00000002#1458BE R
(119108.752000) vcan0 00000001#1559BF R
(119108.988000) vcan0 00000002#165AC0 R
(119109.228000) vcan0 00000001#175BC1 R
(119109.464000) vcan0 00000002#185CC2 R
(119109.708000) vcan0 00000001#195DC3 R
(119109.944000) vcan0 00000002#1A5EC4 R
(119110.182000) vcan0 00000001#1B5FC5 R
(119110.418000) vcan0 00000002#1C60C6 R
(119110.662000) vcan0 00000001#1D61C7 R
(119110.898000) vcan0 00000002#1E62C8 R
(119111.134000) vcan0 00000001#1F63C9 R
(119111.375000) vcan0 00000002#2064CA R
(119111.618000) vcan0 00000001#2165CB R
(119111.854000) vcan0 00000002#2266CC R
(119112.090000) vcan0 00000001#2367CD R
(119112.329000) vcan0 00000002#2468CE R
(119112.565000) vcan0 00000001#2569CF R
(119112.809000) vcan0 00000002#266AD0 R
(119113.044000) vcan0 00000001#276BD1 R
(119113.282000) vcan0 00000002#286CD2 R
(119113.518000) vcan0 00000001#296DD3 R
(119113.762000) vcan0 00000002#2A6ED4 R
(119113.998000) vcan0 00000001#2B6FD5 R
(119114.239000) vcan0 00000002#2C70D6 R
(119114.475000) vcan0 00000001#2D71D7 R
(119114.719000) vcan0 00000002#2E72D8 R
(119114.954000) vcan0 00000001#2F73D9 R
(119115.196000) vcan0 00000002#3074DA R
(119115.432000) vcan0 00000001#3175DB R
(119115.676000) vcan0 00000002#3276DC R
(119115.912000) vcan0 00000001#3377DD R
(119116.148000) vcan0 00000002#3478DE R
(119116.388000) vcan0 00000001#3579DF R
(119116.632000) vcan0 00000002#367AE0 R
(119116.868000) vcan0 00000001#377BE1 R
(119117.104000) vcan0 00000002#387CE2 R
(119117.345000) vcan0 00000001#397DE3 R
(119117.589000) vcan0 00000002#3A7EE4 R
(119117.824000) vcan0 00000001#3B7FE5 R
(119118.060000) vcan0 00000002#3C80E6 R
(119118.298000) vcan0 00000001#3D81E7 R
(119118.534000) vcan0 00000002#3E82E8 R
(119118.778000) vcan0 00000001#3F83E9 R
(119119.013000) vcan0 00000002#4084EA R
(119119.255000) vcan0 00000001#4185EB R
(119119.491000) vcan0 00000002#4286EC R
(119119.735000) vcan0 00000001#4387ED R
(119119.971000) vcan0 00000002#4488EE R
(119120.212000) vcan0 00000001#4589EF R
(119120.448000) vcan0 00000002#468AF0 R
(119120.692000) vcan0 00000001#478BF1 R
(119120.928000) vcan0 00000002#488CF2 R
(119121.164000) vcan0 00000001#498DF3 R
(119121.405000) vcan0 00000002#4A8EF4 R
(119121.648000) vcan0 00000001#4B8FF5 R
(119121.884000) vcan0 00000002#4C90F6 R
(119122.120000) vcan0 00000001#4D91F7 R
(119122.361000) vcan0 00000002#4E92F8 R
(119122.605000) vcan0 00000001#4F93F9 R
(119122.841000) vcan0 00000002#5094FA R
(119123.077000) vcan0 00000001#5195FB R
(119123.315000) vcan0 00000002#5296FC R
(119123.551000) vcan0 00000001#5397FD R
(119123.795000) vcan0 00000002#5498FE R
(119124.031000) vcan0 00000001#0099AA R
(119124.272000) vcan0 00000002#019AAB R
(119124.508000) vcan0 00000001#029BAC R
(119124.752000) vcan0 00000002#039CAD R
(119124.988000) vcan0 00000001#049DAE R
(119125.228000) vcan0 00000002#059EAF R
(119125.464000) vcan0 00000001#069FB0 R
(119125.708000) vcan0 00000002#07A0B1 R
(119125.944000) vcan0 00000001#08A1B2 R
(119126.182000) vcan0 00000002#09A2B3 R
(119126.418000) vcan0 00000001#0AA3B4 R
(119126.662000) vcan0 00000002#0BA4B5 R
(119126.898000) vcan0 00000001#0CA5B6 R
(119127.134000) vcan0 00000002#0DA6B7 R
(119127.376000) vcan0 00000001#0EA7B8 R
(119127.619000) vcan0 00000002#0FA8B9 R
(119127.855000) vcan0 00000001#10A9BA R
(119128.091000) vcan0 00000002#11AABB R
(119128.329000) vcan0 00000001#1255BC R
(119128.565000) vcan0 00000002#1356BD R
(119128.809000) vcan0 00000001#1457BE R
(119129.044000) vcan0 00000002#1558BF R
(119129.282000) vcan0 00000001#1659C0 R
(119129.518000) vcan0 00000002#175AC1 R
(119129.762000) vcan0 00000001#185BC2 R
(119129.998000) vcan0 00000002#195CC3 R
(119130.240000) vcan0 00000001#1A5DC4 R
(119130.476000) vcan0 00000002#1B5EC5 R
(119130.719000) vcan0 00000001#1C5FC6 R
(119130.955000) vcan0 00000002#1D60C7 R
(119131.196000) vcan0 00000001#1E61C8 R
(119131.432000) vcan0 00000002#1F62C9 R
(119131.675000) vcan0 00000001#2063CA R
(119131.911000) vcan0 00000002#2164CB R
(119132.147000) vcan0 00000001#2265CC R
(119132.389000) vcan0 00000002#2366CD R
(119132.632000) vcan0 00000001#2467CE R
(119132.868000) vcan0 00000002#2568CF R
(119133.104000) vcan0 00000001#2669D0 R
(119133.345000) vcan0 00000002#276AD1 R
(119133.589000) vcan0 00000001#286BD2 R
(119133.825000) vcan0 00000002#296CD3 R
(119134.060000) vcan0 00000001#2A6DD4 R
(119134.299000) vcan0 00000002#2B6ED5 R
(119134.534000) vcan0 00000001#2C6FD6 R
(119134.778000) vcan0 00000002#2D70D7 R
(119135.014000) vcan0 00000001#2E71D8 R
(119135.256000) vcan0 00000002#2F72D9 R
(119135.492000) vcan0 00000001#3073DA R
(119135.736000) vcan0 00000002#3174DB R
(119135.971000) vcan0 00000001#3275DC R
(119136.212000) vcan0 00000002#3376DD R
(119136.448000) vcan0 00000001#3477DE R
(119136.692000) vcan0 00000002#3578DF R
(119136.927000) vcan0 00000001#3679E0 R
(119137.164000) vcan0 00000002#377AE1 R
(119137.404000) vcan0 00000001#387BE2 R
(119137.648000) vcan0 00000002#397CE3 R
(119137.884000) vcan0 00000001#3A7DE4 R
(119138.120000) vcan0 00000002#3B7EE5 R
(119138.362000) vcan0 00000001#3C7FE6 R
(119138.605000) vcan0 00000002#3D80E7 R
(119138.841000) vcan0 00000001#3E81E8 R
(119139.076000) vcan0 00000002#3F82E9 R
(119139.314000) vcan0 00000001#4083EA R
(119139.550000) vcan0 00000002#4184EB R
(119139.794000) vcan0 00000001#4285EC R
(119140.030000) vcan0 00000002#4386ED R
(119140.272000) vcan0 00000001#4487EE R
(119140.507000) vcan0 00000002#4588EF R
(119140.751000) vcan0 00000001#4689F0 R
(119140.987000) vcan0 00000002#478AF1 R
(119141.229000) vcan0 00000001#488BF2 R
(119141.464000) vcan0 00000002#498CF3 R
(119141.708000) vcan0 00000001#4A8DF4 R
(119141.944000) vcan0 00000002#4B8EF5 R
(119142.182000) vcan0 00000001#4C8FF6 R
(119142.418000) vcan0 00000002#4D90F7 R
(119142.662000) vcan0 00000001#4E91F8 R
(119142.898000) vcan0 00000002#4F92F9 R
(119143.134000) vcan0 00000001#5093FA R
(119143.376000) vcan0 00000002#5194FB R
(119143.619000) vcan0 00000001#5295FC R
(119143.855000) vcan0 00000002#5396FD R
(119144.091000) vcan0 00000001#5497FE R
(119144.329000) vcan0 00000002#0098AA R
(119144.564000) vcan0 00000001#0199AB R
(119144.808000) vcan0 00000002#029AAC R
(119145.044000) vcan0 00000001#039BAD R
(119145.282000) vcan0 00000002#049CAE R
(119145.518000) vcan0 00000001#059DAF R
(119145.762000) vcan0 00000002#069EB0 R
(119145.998000) vcan0 00000001#079FB1 R
(119146.239000) vcan0 00000002#08A0B2 R
(119146.475000) vcan0 00000001#09A1B3 R
(119146.719000) vcan0 00000002#0AA2B4 R
(119146.954000) vcan0 00000001#0BA3B5 R
(119147.196000) vcan0 00000002#0CA4B6 R
(119147.432000) vcan0 00000001#0DA5B7 R
(119147.676000) vcan0 00000002#0EA6B8 R
(119147.912000) vcan0 00000001#0FA7B9 R
(119148.148000) vcan0 00000002#10A8BA R
(119148.388000) vcan0 00000001#11A9BB R
(119148.632000) vcan0 00000002#12AABC R
(119148.868000) vcan0 00000001#1355BD R
(119149.104000) vcan0 00000002#1456BE R
(119149.345000) vcan0 00000001#1557BF R
(119149.589000) vcan0 00000002#1658C0 R
(119149.825000) vcan0 00000001#1759C1 R
(119150.060000) vcan0 00000002#185AC2 R
(119150.299000) vcan0 00000001#195BC3 R
(119150.534000) vcan0 00000002#1A5CC4 R
(119150.778000) vcan0 00000001#1B5DC5 R
(119151.014000) vcan0 00000002#1C5EC6 R
(119151.256000) vcan0 00000001#1D5FC7 R
(119151.492000) vcan0 00000002#1E60C8 R
(119151.736000) vcan0 00000001#1F61C9 R
(119151.971000) vcan0 00000002#2062CA R
(119152.212000) vcan0 00000001#2163CB R
(119152.448000) vcan0 00000002#2264CC R
(119152.692000) vcan0 00000001#2365CD R
(119152.927000) vcan0 00000002#2466CE R
(119153.164000) vcan0 00000001#2567CF R
(119153.404000) vcan0 00000002#2668D0 R
(119153.648000) vcan0 00000001#2769D1 R
(119153.884000) vcan0 00000002#286AD2 R
(119154.120000) vcan0 00000001#296BD3 R
(119154.362000) vcan0 00000002#2A6CD4 R
(119154.605000) vcan0 00000001#2B6DD5 R
(119154.841000) vcan0 00000002#2C6ED6 R
(119155.076000) vcan0 00000001#2D6FD7 R
(119155.314000) vcan0 00000002#2E70D8 R
(119155.550000) vcan0 00000001#2F71D9 R
(119155.794000) vcan0 00000002#3072DA R
(119156.030000) vcan0 00000001#3173DB R
(119156.272000) vcan0 00000002#3274DC R
(119156.507000) vcan0 00000001#3375DD R
(119156.751000) vcan0 00000002#3476DE R
(119156.987000) vcan0 00000001#3577DF R
(119157.229000) vcan0 00000002#3678E0 R
(119157.464000) vcan0 00000001#3779E1 R
(119157.709000) vcan0 00000002#387AE2 R
(119157.944000) vcan0 00000001#397BE3 R
(119158.182000) vcan0 00000002#3A7CE4 R
(119158.418000) vcan0 00000001#3B7DE5 R
(119158.662000) vcan0 00000002#3C7EE6 R
(119158.898000) vcan0 00000001#3D7FE7 R
(119159.134000) vcan0 00000002#3E80E8 R
(119159.376000) vcan0 00000001#3F81E9 R
(119159.619000) vcan0 00000002#4082EA R
(119159.855000) vcan0 00000001#4183EB R
(119160.091000) vcan0 00000002#4284EC R
(119160.329000) vcan0 00000001#4385ED R
(119160.565000) vcan0 00000002#4486EE R
(119160.809000) vcan0 00000001#4587EF R
(119161.044000) vcan0 00000002#4688F0 R
(119161.282000) vcan0 00000001#4789F1 R
(119161.518000) vcan0 00000002#488AF2 R
(119161.762000) vcan0 00000001#498BF3 R
(119161.998000) vcan0 00000002#4A8CF4 R
(119162.240000) vcan0 00000001#4B8DF5 R
(119162.476000) vcan0 00000002#4C8EF6 R
(119162.719000) vcan0 00000001#4D8FF7 R
(119162.955000) vcan0 00000002#4E90F8 R
(119163.196000) vcan0 00000001#4F91F9 R
(119163.432000) vcan0 00000002#5092FA R
(119163.675000) vcan0 00000001#5193FB R
(119163.911000) vcan0 00000002#5294FC R
(119164.147000) vcan0 00000001#5395FD R
(119164.389000) vcan0 00000002#5496FE R
(119164.632000) vcan0 00000001#0097AA R
(119164.868000) vcan0 00000002#0198AB R
(119165.104000) vcan0 00000001#0299AC R
(119165.345000) vcan0 00000002#039AAD R
(119165.589000) vcan0 00000001#049BAE R
(119165.824000) vcan0 00000002#059CAF R
(119166.060000) vcan0 00000001#069DB0 R
(119166.298000) vcan0 00000002#079EB1 R
(119166.534000) vcan0 00000001#089FB2 R
(119166.778000) vcan0 00000002#09A0B3 R
(119167.014000) vcan0 00000001#0AA1B4 R
(119167.255000) vcan0 00000002#0BA2B5 R
(119167.491000) vcan0 00000001#0CA3B6 R
(119167.735000) vcan0 00000002#0DA4B7 R
(119167.971000) vcan0 00000001#0EA5B8 R
(119168.212000) vcan0 00000002#0FA6B9 R
(119168.448000) vcan0 00000001#10A7BA R
(119168.692000) vcan0 00000002#11A8BB R
(119168.928000) vcan0 00000001#12A9BC R
(119169.164000) vcan0 00000002#13AABD R
(119169.405000) vcan0 00000001#1455BE R
(119169.648000) vcan0 00000002#1556BF R
(119169.884000) vcan0 00000001#1657C0 R
(119170.120000) vcan0 00000002#1758C1 R
(119170.361000) vcan0 00000001#1859C2 R
(119170.605000) vcan0 00000002#195AC3 R
(119170.841000) vcan0 00000001#1A5BC4 R
(119171.077000) vcan0 00000002#1B5CC5 R
(119171.315000) vcan0 00000001#1C5DC6 R
(119171.551000) vcan0 00000002#1D5EC7 R
(119171.795000) vcan0 00000001#1E5FC8 R
(119172.031000) vcan0 00000002#1F60C9 R
(119172.272000) vcan0 00000001#2061CA R
(119172.507000) vcan0 00000002#2162CB R
(119172.751000) vcan0 00000001#2263CC R
(119172.987000) vcan0 00000002#2364CD R
(119173.229000) vcan0 00000001#2465CE R
(119173.465000) vcan0 00000002#2566CF R
(119173.709000) vcan0 00000001#2667D0 R
(119173.944000) vcan0 00000002#2768D1 R
(119174.182000) vcan0 00000001#2869D2 R
(119174.418000) vcan0 00000002#296AD3 R
(119174.662000) vcan0 00000001#2A6BD4 R
(119174.898000) vcan0 00000002#2B6CD5 R
(119175.134000) vcan0 00000001#2C6DD6 R
(119175.375000) vcan0 00000002#2D6ED7 R
(119175.618000) vcan0 00000001#2E6FD8 R
(119175.854000) vcan0 00000002#2F70D9 R
(119176.090000) vcan0 00000001#3071DA R
(119176.329000) vcan0 00000002#3172DB R
(119176.565000) vcan0 00000001#3273DC R
(119176.809000) vcan0 00000002#3374DD R
(119177.044000) vcan0 00000001#3475DE R
(119177.282000) vcan0 00000002#3576DF R
(119177.518000) vcan0 00000001#3677E0 R
(119177.762000) vcan0 00000002#3778E1 R
(119177.998000) vcan0 00000001#3879E2 R
(119178.239000) vcan0 00000002#397AE3 R
(119178.475000) vcan0 00000001#3A7BE4 R
(119178.719000) vcan0 00000002#3B7CE5 R
(119178.954000) vcan0 00000001#3C7DE6 R
(119179.196000) vcan0 00000002#3D7EE7 R
(119179.432000) vcan0 00000001#3E7FE8 R
(119179.676000) vcan0 00000002#3F80E9 R
(119179.912000) vcan0 00000001#4081EA R
(119180.148000) vcan0 00000002#4182EB R
(119180.388000) vcan0 00000001#4283EC R
(119180.632000) vcan0 00000002#4384ED R
(119180.868000) vcan0 00000001#4485EE R
(119181.104000) vcan0 00000002#4586EF R
(119181.345000) vcan0 00000001#4687F0 R
(119181.589000) vcan0 00000002#4788F1 R
(119181.824000) vcan0 00000001#4889F2 R
(119182.060000) vcan0 00000002#498AF3 R
(119182.298000) vcan0 00000001#4A8BF4 R
(119182.534000) vcan0 00000002#4B8CF5 R
(119182.778000) vcan0 00000001#4C8DF6 R
(119183.013000) vcan0 00000002#4D8EF7 R
(119183.255000) vcan0 00000001#4E8FF8 R
(119183.491000) vcan0 00000002#4F90F9 R
(119183.735000) vcan0 00000001#5091FA R
(119183.971000) vcan0 00000002#5192FB R
(119184.212000) vcan0 00000001#5293FC R
(119184.448000) vcan0 00000002#5394FD R
(119184.692000) vcan0 00000001#5495FE R
(119184.928000) vcan0 00000002#0096AA R
(119185.164000) vcan0 00000001#0197AB R
(119185.405000) vcan0 00000002#0298AC R
(119185.648000) vcan0 00000001#0399AD R
(119185.884000) vcan0 00000002#049AAE R
(119186.120000) vcan0 00000001#059BAF R
(119186.361000) vcan0 00000002#069CB0 R
(119186.605000) vcan0 00000001#079DB1 R
(119186.841000) vcan0 00000002#089EB2 R
(119187.077000) vcan0 00000001#099FB3 R
(119187.315000) vcan0 00000002#0AA0B4 R
(119187.551000) vcan0 00000001#0BA1B5 R
(119187.795000) vcan0 00000002#0CA2B6 R
(119188.031000) vcan0 00000001#0DA3B7 R
(119188.272000) vcan0 00000002#0EA4B8 R
(119188.508000) vcan0 00000001#0FA5B9 R
(119188.752000) vcan0 00000002#10A6BA R
(119188.988000) vcan0 00000001#11A7BB R
(119189.228000) vcan0 00000002#12A8BC R
(119189.464000) vcan0 00000001#13A9BD R
(119189.708000) vcan0 00000002#14AABE R
(119189.944000) vcan0 00000001#1555BF R
(119190.182000) vcan0 00000002#1656C0 R
(119190.418000) vcan0 00000001#1757C1 R
(119190.662000) vcan0 00000002#1858C2 R
(119190.898000) vcan0 00000001#1959C3 R
(119191.134000) vcan0 00000002#1A5AC4 R
(119191.376000) vcan0 00000001#1B5BC5 R
(119191.619000) vcan0 00000002#1C5CC6 R
(119191.855000) vcan0 00000001#1D5DC7 R
(119192.091000) vcan0 00000002#1E5EC8 R
(119192.329000) vcan0 00000001#1F5FC9 R
(119192.565000) vcan0 00000002#2060CA R
(119192.809000) vcan0 00000001#2161CB R
(119193.044000) vcan0 00000002#2262CC R
(119193.282000) vcan0 00000001#2363CD R
(119193.518000) vcan0 00000002#2464CE R
(119193.762000) vcan0 00000001#2565CF R
(119193.998000) vcan0 00000002#2666D0 R
(119194.240000) vcan0 00000001#2767D1 R
(119194.476000) vcan0 00000002#2868D2 R
(119194.719000) vcan0 00000001#2969D3 R
(119194.955000) vcan0 00000002#2A6AD4 R
(119195.196000) vcan0 00000001#2B6BD5 R
(119195.432000) vcan0 00000002#2C6CD6 R
(119195.675000) vcan0 00000001#2D6DD7 R
(119195.911000) vcan0 00000002#2E6ED8 R
(119196.147000) vcan0 00000001#2F6FD9 R
(119196.389000) vcan0 00000002#3070DA R
(119196.632000) vcan0 00000001#3171DB R
(119196.868000) vcan0 00000002#3272DC R
(119197.104000) vcan0 00000001#3373DD R
(119197.345000) vcan0 00000002#3474DE R
(119197.589000) vcan0 00000001#3575DF R
(119197.825000) vcan0 00000002#3676E0 R
(119198.060000) vcan0 00000001#3777E1 R
(119198.298000) vcan0 00000002#3878E2 R
(119198.534000) vcan0 00000001#3979E3 R
(119198.778000) vcan0 00000002#3A7AE4 R
(119199.014000) vcan0 00000001#3B7BE5 R
(119199.256000) vcan0 00000002#3C7CE6 R
(119199.491000) vcan0 00000001#3D7DE7 R
(119199.735000) vcan0 00000002#3E7EE8 R
(119199.971000) vcan0 00000001#3F7FE9 R
(119200.212000) vcan0 00000002#4080EA R
(119200.448000) vcan0 00000001#4181EB R
(119200.692000) vcan0 00000002#4282EC R
(119200.928000) vcan0 00000001#4383ED R
(119201.165000) vcan0 00000002#4484EE R
(119201.405000) vcan0 00000001#4585EF R
(119201.648000) vcan0 00000002#4686F0 R
(119201.884000) vcan0 00000001#4787F1 R
(119202.120000) vcan0 00000002#4888F2 R
(119202.361000) vcan0 00000001#4989F3 R
(119202.605000) vcan0 00000002#4A8AF4 R
(119202.841000) vcan0 00000001#4B8BF5 R
(119203.077000) vcan0 00000002#4C8CF6 R
(119203.315000) vcan0 00000001#4D8DF7 R
(119203.551000) vcan0 00000002#4E8EF8 R
(119203.795000) vcan0 00000001#4F8FF9 R
(119204.031000) vcan0 00000002#5090FA R
(119204.272000) vcan0 00000001#5191FB R
(119204.507000) vcan0 00000002#5292FC R
(119204.751000) vcan0 00000001#5393FD R
(119204.987000) vcan0 00000002#5494FE R
(119205.229000) vcan0 00000001#0095AA R
(119205.464000) vcan0 00000002#0196AB R
(119205.708000) vcan0 00000001#0297AC R
(119205.944000) vcan0 00000002#0398AD R
(119206.182000) vcan0 00000001#0499AE R
(119206.418000) vcan0 00000002#059AAF R
(119206.662000) vcan0 00000001#069BB0 R
(119206.898000) vcan0 00000002#079CB1 R
(119207.134000) vcan0 00000001#089DB2 R
(119207.375000) vcan0 00000002#099EB3 R
(119207.618000) vcan0 00000001#0A9FB4 R
(119207.854000) vcan0 00000002#0BA0B5 R
(119208.090000) vcan0 00000001#0CA1B6 R
(119208.329000) vcan0 00000002#0DA2B7 R
(119208.565000) vcan0 00000001#0EA3B8 R
(119208.809000) vcan0 00000002#0FA4B9 R
(119209.044000) vcan0 00000001#10A5BA R
(119209.282000) vcan0 00000002#11A6BB R
(119209.518000) vcan0 00000001#12A7BC R
(119209.762000) vcan0 00000002#13A8BD R
(119209.998000) vcan0 00000001#14A9BE R
(119210.239000) vcan0 00000002#15AABF R
(119210.475000) vcan0 00000001#1655C0 R
(119210.719000) vcan0 00000002#1756C1 R
(119210.954000) vcan0 00000001#1857C2 R
(119211.196000) vcan0 00000002#1958C3 R
(119211.432000) vcan0 00000001#1A59C4 R
(119211.676000) vcan0 00000002#1B5AC5 R
(119211.912000) vcan0 00000001#1C5BC6 R
(119212.148000) vcan0 00000002#1D5CC7 R
(119212.388000) vcan0 00000001#1E5DC8 R
(119212.632000) vcan0 00000002#1F5EC9 R
(119212.868000) vcan0 00000001#205FCA R
(119213.104000) vcan0 00000002#2160CB R
(119213.345000) vcan0 00000001#2261CC R
(119213.589000) vcan0 00000002#2362CD R
(119213.825000) vcan0 00000001#2463CE R
(119214.060000) vcan0 00000002#2564CF R
(119214.298000) vcan0 00000001#2665D0 R
(119214.534000) vcan0 00000002#2766D1 R
(119214.778000) vcan0 00000001#2867D2 R
(119215.014000) vcan0 00000002#2968D3 R
(119215.255000) vcan0 00000001#2A69D4 R
(119215.491000) vcan0 00000002#2B6AD5 R
(119215.735000) vcan0 00000001#2C6BD6 R
(119215.971000) vcan0 00000002#2D6CD7 R
(119216.212000) vcan0 00000001#2E6DD8 R
(119216.448000) vcan0 00000002#2F6ED9 R
(119216.692000) vcan0 00000001#306FDA R
(119216.928000) vcan0 00000002#3170DB R
(119217.165000) vcan0 00000001#3271DC R
(119217.405000) vcan0 00000002#3372DD R
(119217.649000) vcan0 00000001#3473DE R
(119217.884000) vcan0 00000002#3574DF R
(119218.120000) vcan0 00000001#3675E0 R
(119218.362000) vcan0 00000002#3776E1 R
(119218.605000) vcan0 00000001#3877E2 R
(119218.841000) vcan0 00000002#3978E3 R
(119219.076000) vcan0 00000001#3A79E4 R
(119219.314000) vcan0 00000002#3B7AE5 R
(119219.550000) vcan0 00000001#3C7BE6 R
(119219.794000) vcan0 00000002#3D7CE7 R
(119220.030000) vcan0 00000001#3E7DE8 R
(119220.272000) vcan0 00000002#3F7EE9 R
(119220.507000) vcan0 00000001#407FEA R
(119220.751000) vcan0 00000002#4180EB R
(119220.987000) vcan0 00000001#4281EC R
(119221.229000) vcan0 00000002#4382ED R
(119221.464000) vcan0 00000001#4483EE R
(119221.709000) vcan0 00000002#4584EF R
(119221.944000) vcan0 00000001#4685F0 R
(119222.182000) vcan0 00000002#4786F1 R
(119222.418000) vcan0 00000001#4887F2 R
(119222.662000) vcan0 00000002#4988F3 R
(119222.898000) vcan0 00000001#4A89F4 R
(119223.134000) vcan0 00000002#4B8AF5 R
(119223.376000) vcan0 00000001#4C8BF6 R
(119223.619000) vcan0 00000002#4D8CF7 R
(119223.855000) vcan0 00000001#4E8DF8 R
(119224.091000) vcan0 00000002#4F8EF9 R
(119224.329000) vcan0 00000001#508FFA R
(119224.565000) vcan0 00000002#5190FB R
(119224.809000) vcan0 00000001#5291FC R
(119225.044000) vcan0 00000002#5392FD R
(119225.282000) vcan0 00000001#5493FE R
(119225.518000) vcan0 00000002#0094AA R
(119225.762000) vcan0 00000001#0195AB R
(119225.998000) vcan0 00000002#0296AC R
(119226.239000) vcan0 00000001#0397AD R
(119226.475000) vcan0 00000002#0498AE R
(119226.719000) vcan0 00000001#0599AF R
(119226.954000) vcan0 00000002#069AB0 R
(119227.196000) vcan0 00000001#079BB1 R
(119227.432000) vcan0 00000002#089CB2 R
(119227.676000) vcan0 00000001#099DB3 R
(119227.912000) vcan0 00000002#0A9EB4 R
(119228.148000) vcan0 00000001#0B9FB5 R
(119228.388000) vcan0 00000002#0CA0B6 R
(119228.632000) vcan0 00000001#0DA1B7 R
(119228.868000) vcan0 00000002#0EA2B8 R
(119229.104000) vcan0 00000001#0FA3B9 R
(119229.345000) vcan0 00000002#10A4BA R
(119229.589000) vcan0 00000001#11A5BB R
(119229.825000) vcan0 00000002#12A6BC R
(119230.060000) vcan0 00000001#13A7BD R
(119230.299000) vcan0 00000002#14A8BE R
(119230.534000) vcan0 00000001#15A9BF R
(119230.778000) vcan0 00000002#16AAC0 R
(119231.014000) vcan0 00000001#1755C1 R
(119231.256000) vcan0 00000002#1856C2 R
(119231.492000) vcan0 00000001#1957C3 R
(119231.736000) vcan0 00000002#1A58C4 R
(119231.971000) vcan0 00000001#1B59C5 R
(119232.212000) vcan0 00000002#1C5AC6 R
(119232.448000) vcan0 00000001#1D5BC7 R
(119232.691000) vcan0 00000002#1E5CC8 R
(119232.927000) vcan0 00000001#1F5DC9 R
(119233.163000) vcan0 00000002#205ECA R
(119233.404000) vcan0 00000001#215FCB R
(119233.648000) vcan0 00000002#2260CC R
(119233.884000) vcan0 00000001#2361CD R
(119234.120000) vcan0 00000002#2462CE R
(119234.361000) vcan0 00000001#2563CF R
(119234.605000) vcan0 00000002#2664D0 R
(119234.841000) vcan0 00000001#2765D1 R
(119235.077000) vcan0 00000002#2866D2 R
(119235.315000) vcan0 00000001#2967D3 R
(119235.551000) vcan0 00000002#2A68D4 R
(119235.795000) vcan0 00000001#2B69D5 R
(119236.031000) vcan0 00000002#2C6AD6 R
(119236.272000) vcan0 00000001#2D6BD7 R
(119236.508000) vcan0 00000002#2E6CD8 R
(119236.752000) vcan0 00000001#2F6DD9 R
(119236.988000) vcan0 00000002#306EDA R
(119237.228000) vcan0 00000001#316FDB R
(119237.464000) vcan0 00000002#3270DC R
(119237.708000) vcan0 00000001#3371DD R
(119237.944000) vcan0 00000002#3472DE R
(119238.182000) vcan0 00000001#3573DF R
(119238.418000) vcan0 00000002#3674E0 R
(119238.662000) vcan0 00000001#3775E1 R
(119238.898000) vcan0 00000002#3876E2 R
(119239.134000) vcan0 00000001#3977E3 R
(119239.375000) vcan0 00000002#3A78E4 R
(119239.618000) vcan0 00000001#3B79E5 R
(119239.854000) vcan0 00000002#3C7AE6 R
(119240.090000) vcan0 00000001#3D7BE7 R
(119240.329000) vcan0 00000002#3E7CE8 R
(119240.565000) vcan0 00000001#3F7DE9 R
(119240.809000) vcan0 00000002#407EEA R
(119241.044000) vcan0 00000001#417FEB R
(119241.282000) vcan0 00000002#4280EC R
(119241.518000) vcan0 00000001#4381ED R
(119241.762000) vcan0 00000002#4482EE R
(119241.998000) vcan0 00000001#4583EF R
(119242.239000) vcan0 00000002#4684F0 R
(119242.475000) vcan0 00000001#4785F1 R
(119242.719000) vcan0 00000002#4886F2 R
(119242.954000) vcan0 00000001#4987F3 R
(119243.196000) vcan0 00000002#4A88F4 R
(119243.432000) vcan0 00000001#4B89F5 R
(119243.676000) vcan0 00000002#4C8AF6 R
(119243.912000) vcan0 00000001#4D8BF7 R
(119244.148000) vcan0 00000002#4E8CF8 R
(119244.388000) vcan0 00000001#4F8DF9 R
(119244.632000) vcan0 00000002#508EFA R
(119244.868000) vcan0 00000001#518FFB R
(119245.104000) vcan0 00000002#5290FC R
(119245.345000) vcan0 00000001#5391FD R
(119245.589000) vcan0 00000002#5492FE R
(119245.824000) vcan0 00000001#0093AA R
(119246.060000) vcan0 00000002#0194AB R
(119246.298000) vcan0 00000001#0295AC R
(119246.534000) vcan0 00000002#0396AD R
(119246.778000) vcan0 00000001#0497AE R
(119247.013000) vcan0 00000002#0598AF R
(119247.255000) vcan0 00000001#0699B0 R
(119247.491000) vcan0 00000002#079AB1 R
(119247.735000) vcan0 00000001#089BB2 R
(119247.971000) vcan0 00000002#099CB3 R
(119248.212000) vcan0 00000001#0A9DB4 R
(119248.448000) vcan0 00000002#0B9EB5 R
(119248.692000) vcan0 00000001#0C9FB6 R
(119248.927000) vcan0 00000002#0DA0B7 R
(119249.164000) vcan0 00000001#0EA1B8 R
(119249.404000) vcan0 00000002#0FA2B9 R
(119249.648000) vcan0 00000001#10A3BA R
(119249.884000) vcan0 00000002#11A4BB R
(119250.120000) vcan0 00000001#12A5BC R
(119250.361000) vcan0 00000002#13A6BD R
(119250.605000) vcan0 00000001#14A7BE R
(119250.841000) vcan0 00000002#15A8BF R
(119251.077000) vcan0 00000001#16A9C0 R
(119251.315000) vcan0 00000002#17AAC1 R
(119251.551000) vcan0 00000001#1855C2 R
(119251.795000) vcan0 00000002#1956C3 R
(119252.030000) vcan0 00000001#1A57C4 R
(119252.272000) vcan0 00000002#1B58C5 R
(119252.508000) vcan0 00000001#1C59C6 R
(119252.752000) vcan0 00000002#1D5AC7 R
(119252.988000) vcan0 00000001#1E5BC8 R
(119253.228000) vcan0 00000002#1F5CC9 R
(119253.464000) vcan0 00000001#205DCA R
(119253.708000) vcan0 00000002#215ECB R
(119253.944000) vcan0 00000001#225FCC R
(119254.182000) vcan0 00000002#2360CD R
(119254.418000) vcan0 00000001#2461CE R
(119254.662000) vcan0 00000002#2562CF R
(119254.898000) vcan0 00000001#2663D0 R
(119255.134000) vcan0 00000002#2764D1 R
(119255.376000) vcan0 00000001#2865D2 R
(119255.619000) vcan0 00000002#2966D3 R
(119255.855000) vcan0 00000001#2A67D4 R
(119256.091000) vcan0 00000002#2B68D5 R
(119256.329000) vcan0 00000001#2C69D6 R
(119256.564000) vcan0 00000002#2D6AD7 R
(119256.808000) vcan0 00000001#2E6BD8 R
(119257.044000) vcan0 00000002#2F6CD9 R
(119257.282000) vcan0 00000001#306DDA R
(119257.518000) vcan0 00000002#316EDB R
(119257.762000) vcan0 00000001#326FDC R
(119257.998000) vcan0 00000002#3370DD R
(119258.239000) vcan0 00000001#3471DE R
(119258.475000) vcan0 00000002#3572DF R
(119258.719000) vcan0 00000001#3673E0 R
(119258.954000) vcan0 00000002#3774E1 R
(119259.196000) vcan0 00000001#3875E2 R
(119259.432000) vcan0 00000002#3976E3 R
(119259.676000) vcan0 00000001#3A77E4 R
(119259.912000) vcan0 00000002#3B78E5 R
(119260.148000) vcan0 00000001#3C79E6 R
(119260.388000) vcan0 00000002#3D7AE7 R
(119260.632000) vcan0 00000001#3E7BE8 R
(119260.868000) vcan0 00000002#3F7CE9 R
(119261.104000) vcan0 00000001#407DEA R
(119261.345000) vcan0 00000002#417EEB R
(119261.589000) vcan0 00000001#427FEC R
(119261.825000) vcan0 00000002#4380ED R
(119262.060000) vcan0 00000001#4481EE R
(119262.299000) vcan0 00000002#4582EF R
(119262.534000) vcan0 00000001#4683F0 R
(119262.778000) vcan0 00000002#4784F1 R
(119263.014000) vcan0 00000001#4885F2 R
(119263.256000) vcan0 00000002#4986F3 R
(119263.492000) vcan0 00000001#4A87F4 R
(119263.736000) vcan0 00000002#4B88F5 R
(119263.971000) vcan0 00000001#4C89F6 R
(119264.212000) vcan0 00000002#4D8AF7 R
(119264.448000) vcan0 00000001#4E8BF8 R
(119264.692000) vcan0 00000002#4F8CF9 R
(119264.927000) vcan0 00000001#508DFA R
(119265.164000) vcan0 00000002#518EFB R
(119265.405000) vcan0 00000001#528FFC R
(119265.649000) vcan0 00000002#5390FD R
(119265.884000) vcan0 00000001#5491FE R
(119266.120000) vcan0 00000002#0092AA R
(119266.361000) vcan0 00000001#0193AB R
(119266.605000) vcan0 00000002#0294AC R
(119266.841000) vcan0 00000001#0395AD R
(119267.077000) vcan0 00000002#0496AE R
(119267.315000) vcan0 00000001#0597AF R
(119267.551000) vcan0 00000002#0698B0 R
(119267.795000) vcan0 00000001#0799B1 R
(119268.031000) vcan0 00000002#089AB2 R
(119268.272000) vcan0 00000001#099BB3 R
(119268.508000) vcan0 00000002#0A9CB4 R
(119268.752000) vcan0 00000001#0B9DB5 R
(119268.988000) vcan0 00000002#0C9EB6 R
(119269.228000) vcan0 00000001#0D9FB7 R
(119269.464000) vcan0 00000002#0EA0B8 R
(119269.708000) vcan0 00000001#0FA1B9 R
(119269.944000) vcan0 00000002#10A2BA R
(119270.182000) vcan0 00000001#11A3BB R
(119270.418000) vcan0 00000002#12A4BC R
(119270.662000) vcan0 00000001#13A5BD R
(119270.898000) vcan0 00000002#14A6BE R
(119271.134000) vcan0 00000001#15A7BF R
(119271.376000) vcan0 00000002#16A8C0 R
(119271.619000) vcan0 00000001#17A9C1 R
(119271.855000) vcan0 00000002#18AAC2 R
(119272.091000) vcan0 00000001#1955C3 R
(119272.329000) vcan0 00000002#1A56C4 R
(119272.564000) vcan0 00000001#1B57C5 R
(119272.809000) vcan0 00000002#1C58C6 R
(119273.044000) vcan0 00000001#1D59C7 R
(119273.282000) vcan0 00000002#1E5AC8 R
(119273.518000) vcan0 00000001#1F5BC9 R
(119273.762000) vcan0 00000002#205CCA R
(119273.998000) vcan0 00000001#215DCB R
(119274.239000) vcan0 00000002#225ECC R
(119274.475000) vcan0 00000001#235FCD R
(119274.719000) vcan0 00000002#2460CE R
(119274.954000) vcan0 00000001#2561CF R
(119275.196000) vcan0 00000002#2662D0 R
(119275.432000) vcan0 00000001#2763D1 R
(119275.676000) vcan0 00000002#2864D2 R
(119275.912000) vcan0 00000001#2965D3 R
(119276.148000) vcan0 00000002#2A66D4 R
(119276.388000) vcan0 00000001#2B67D5 R
(119276.632000) vcan0 00000002#2C68D6 R
(119276.868000) vcan0 00000001#2D69D7 R
(119277.104000) vcan0 00000002#2E6AD8 R
(119277.345000) vcan0 00000001#2F6BD9 R
(119277.589000) vcan0 00000002#306CDA R
(119277.825000) vcan0 00000001#316DDB R
(119278.060000) vcan0 00000002#326EDC R
(119278.299000) vcan0 00000001#336FDD R
(119278.535000) vcan0 00000002#3470DE R
(119278.779000) vcan0 00000001#3571DF R
(119279.014000) vcan0 00000002#3672E0 R
(119279.255000) vcan0 00000001#3773E1 R
(119279.491000) vcan0 00000002#3874E2 R
(119279.735000) vcan0 00000001#3975E3 R
(119279.971000) vcan0 00000002#3A76E4 R
(119280.212000) vcan0 00000001#3B77E5 R
(119280.448000) vcan0 00000002#3C78E6 R
(119280.692000) vcan0 00000001#3D79E7 R
(119280.928000) vcan0 00000002#3E7AE8 R
(119281.165000) vcan0 00000001#3F7BE9 R
(119281.405000) vcan0 00000002#407CEA R
(119281.649000) vcan0 00000001#417DEB R
(119281.884000) vcan0 00000002#427EEC R
(119282.120000) vcan0 00000001#437FED R
(119282.362000) vcan0 00000002#4480EE R
(119282.605000) vcan0 00000001#4581EF R
(119282.841000) vcan0 00000002#4682F0 R
(119283.076000) vcan0 00000001#4783F1 R
(119283.314000) vcan0 00000002#4884F2 R
(119283.550000) vcan0 00000001#4985F3 R
(119283.794000) vcan0 00000002#4A86F4 R
(119284.030000) vcan0 00000001#4B87F5 R
(119284.272000) vcan0 00000002#4C88F6 R
(119284.507000) vcan0 00000001#4D89F7 R
(119284.751000) vcan0 00000002#4E8AF8 R
(119284.987000) vcan0 00000001#4F8BF9 R
(119285.229000) vcan0 00000002#508CFA R
(119285.464000) vcan0 00000001#518DFB R
(119285.709000) vcan0 00000002#528EFC R
(119285.944000) vcan0 00000001#538FFD R
(119286.182000) vcan0 00000002#5490FE R
(119286.418000) vcan0 00000001#0091AA R
(119286.662000) vcan0 00000002#0192AB R
(119286.898000) vcan0 00000001#0293AC R
(119287.134000) vcan0 00000002#0394AD R
(119287.376000) vcan0 00000001#0495AE R
(119287.619000) vcan0 00000002#0596AF R
(119287.855000) vcan0 00000001#0697B0 R
(119288.091000) vcan0 00000002#0798B1 R
(119288.329000) vcan0 00000001#0899B2 R
(119288.565000) vcan0 00000002#099AB3 R
(119288.809000) vcan0 00000001#0A9BB4 R
(119289.044000) vcan0 00000002#0B9CB5 R
(119289.282000) vcan0 00000001#0C9DB6 R
(119289.518000) vcan0 00000002#0D9EB7 R
(119289.762000) vcan0 00000001#0E9FB8 R
(119289.998000) vcan0 00000002#0FA0B9 R
(119290.239000) vcan0 00000001#10A1BA R
(119290.475000) vcan0 00000002#11A2BB R
(119290.719000) vcan0 00000001#12A3BC R
(119290.954000) vcan0 00000002#13A4BD R
(119291.196000) vcan0 00000001#14A5BE R
(119291.432000) vcan0 00000002#15A6BF R
(119291.676000) vcan0 00000001#16A7C0 R
(119291.912000) vcan0 00000002#17A8C1 R
(119292.148000) vcan0 00000001#18A9C2 R
(119292.388000) vcan0 00000002#19AAC3 R
(119292.632000) vcan0 00000001#1A55C4 R
(119292.868000) vcan0 00000002#1B56C5 R
(119293.104000) vcan0 00000001#1C57C6 R
(119293.345000) vcan0 00000002#1D58C7 R
(119293.589000) vcan0 00000001#1E59C8 R
(119293.825000) vcan0 00000002#1F5AC9 R
(119294.060000) vcan0 00000001#205BCA R
(119294.299000) vcan0 00000002#215CCB R
(119294.534000) vcan0 00000001#225DCC R
(119294.778000) vcan0 00000002#235ECD R
(119295.014000) vcan0 00000001#245FCE R
(119295.256000) vcan0 00000002#2560CF R
(119295.492000) vcan0 00000001#2661D0 R
(119295.736000) vcan0 00000002#2762D1 R
(119295.971000) vcan0 00000001#2863D2 R
(119296.212000) vcan0 00000002#2964D3 R
(119296.448000) vcan0 00000001#2A65D4 R
(119296.692000) vcan0 00000002#2B66D5 R
(119296.927000) vcan0 00000001#2C67D6 R
(119297.164000) vcan0 00000002#2D68D7 R
(119297.405000) vcan0 00000001#2E69D8 R
(119297.649000) vcan0 00000002#2F6AD9 R
(119297.884000) vcan0 00000001#306BDA R
(119298.120000) vcan0 00000002#316CDB R
(119298.361000) vcan0 00000001#326DDC R
(119298.605000) vcan0 00000002#336EDD R
(119298.841000) vcan0 00000001#346FDE R
(119299.077000) vcan0 00000002#3570DF R
(119299.315000) vcan0 00000001#3671E0 R
(119299.551000) vcan0 00000002#3772E1 R
(119299.795000) vcan0 00000001#3873E2 R
(119300.031000) vcan0 00000002#3974E3 R
(119300.272000) vcan0 00000001#3A75E4 R
(119300.508000) vcan0 00000002#3B76E5 R
(119300.752000) vcan0 00000001#3C77E6 R
(119300.988000) vcan0 00000002#3D78E7 R
(119301.228000) vcan0 00000001#3E79E8 R
(119301.464000) vcan0 00000002#3F7AE9 R
(119301.708000) vcan0 00000001#407BEA R
(119301.944000) vcan0 00000002#417CEB R
(119302.182000) vcan0 00000001#427DEC R
(119302.418000) vcan0 00000002#437EED R
(119302.662000) vcan0 00000001#447FEE R
(119302.898000) vcan0 00000002#4580EF R
(119303.134000) vcan0 00000001#4681F0 R
(119303.375000) vcan0 00000002#4782F1 R
(119303.618000) vcan0 00000001#4883F2 R
(119303.854000) vcan0 00000002#4984F3 R
(119304.090000) vcan0 00000001#4A85F4 R
(119304.329000) vcan0 00000002#4B86F5 R
(119304.565000) vcan0 00000001#4C87F6 R
(119304.809000) vcan0 00000002#4D88F7 R
(119305.044000) vcan0 00000001#4E89F8 R
(119305.282000) vcan0 00000002#4F8AF9 R
(119305.518000) vcan0 00000001#508BFA R
(119305.762000) vcan0 00000002#518CFB R
(119305.998000) vcan0 00000001#528DFC R
(119306.239000) vcan0 00000002#538EFD R
(119306.475000) vcan0 00000001#548FFE R
(119306.719000) vcan0 00000002#0090AA R
(119306.954000) vcan0 00000001#0191AB R
(119307.196000) vcan0 00000002#0292AC R
(119307.432000) vcan0 00000001#0393AD R
(119307.676000) vcan0 00000002#0494AE R
(119307.912000) vcan0 00000001#0595AF R
(119308.148000) vcan0 00000002#0696B0 R
(119308.388000) vcan0 00000001#0797B1 R
(119308.632000) vcan0 00000002#0898B2 R
(119308.868000) vcan0 00000001#0999B3 R
(119309.104000) vcan0 00000002#0A9AB4 R
(119309.345000) vcan0 00000001#0B9BB5 R
(119309.589000) vcan0 00000002#0C9CB6 R
(119309.825000) vcan0 00000001#0D9DB7 R
(119310.060000) vcan0 00000002#0E9EB8 R
(119310.298000) vcan0 00000001#0F9FB9 R
(119310.534000) vcan0 00000002#10A0BA R
(119310.778000) vcan0 00000001#11A1BB R
(119311.014000) vcan0 00000002#12A2BC R
(119311.255000) vcan0 00000001#13A3BD R
(119311.491000) vcan0 00000002#14A4BE R
(119311.735000) vcan0 00000001#15A5BF R
(119311.971000) vcan0 00000002#16A6C0 R
(119312.212000) vcan0 00000001#17A7C1 R
(119312.448000) vcan0 00000002#18A8C2 R
(119312.692000) vcan0 00000001#19A9C3 R
(119312.928000) vcan0 00000002#1AAAC4 R
(119313.165000) vcan0 00000001#1B55C5 R
(119313.405000) vcan0 00000002#1C56C6 R
(119313.649000) vcan0 00000001#1D57C7 R
(119313.884000) vcan0 00000002#1E58C8 R
(119314.120000) vcan0 00000001#1F59C9 R
(119314.362000) vcan0 00000002#205ACA R
(119314.605000) vcan0 00000001#215BCB R
(119314.841000) vcan0 00000002#225CCC R
(119315.076000) vcan0 00000001#235DCD R
(119315.314000) vcan0 00000002#245ECE R
(119315.550000) vcan0 00000001#255FCF R
(119315.794000) vcan0 00000002#2660D0 R
(119316.030000) vcan0 00000001#2761D1 R
(119316.272000) vcan0 00000002#2862D2 R
(119316.507000) vcan0 00000001#2963D3 R
(119316.751000) vcan0 00000002#2A64D4 R
(119316.987000) vcan0 00000001#2B65D5 R
(119317.229000) vcan0 00000002#2C66D6 R
(119317.464000) vcan0 00000001#2D67D7 R
(119317.709000) vcan0 00000002#2E68D8 R
(119317.944000) vcan0 00000001#2F69D9 R
(119318.182000) vcan0 00000002#306ADA R
(119318.418000) vcan0 00000001#316BDB R
(119318.662000) vcan0 00000002#326CDC R
(119318.898000) vcan0 00000001#336DDD R
(119319.134000) vcan0 00000002#346EDE R
(119319.376000) vcan0 00000001#356FDF R
(119319.619000) vcan0 00000002#3670E0 R
(119319.855000) vcan0 00000001#3771E1 R
(119320.091000) vcan0 00000002#3872E2 R
(119320.329000) vcan0 00000001#3973E3 R
(119320.565000) vcan0 00000002#3A74E4 R
(119320.809000) vcan0 00000001#3B75E5 R
(119321.044000) vcan0 00000002#3C76E6 R
(119321.282000) vcan0 00000001#3D77E7 R
(119321.518000) vcan0 00000002#3E78E8 R
(119321.762000) vcan0 00000001#3F79E9 R
(119321.998000) vcan0 00000002#407AEA R
(119322.240000) vcan0 00000001#417BEB R
(119322.476000) vcan0 00000002#427CEC R
(119322.719000) vcan0 00000001#437DED R
(119322.955000) vcan0 00000002#447EEE R
(119323.196000) vcan0 00000001#457FEF R
(119323.432000) vcan0 00000002#4680F0 R
(119323.675000) vcan0 00000001#4781F1 R
(119323.911000) vcan0 00000002#4882F2 R
(119324.147000) vcan0 00000001#4983F3 R
(119324.389000) vcan0 00000002#4A84F4 R
(119324.632000) vcan0 00000001#4B85F5 R
(119324.868000) vcan0 00000002#4C86F6 R
(119325.104000) vcan0 00000001#4D87F7 R
(119325.345000) vcan0 00000002#4E88F8 R
(119325.589000) vcan0 00000001#4F89F9 R
(119325.825000) vcan0 00000002#508AFA R
(119326.060000) vcan0 00000001#518BFB R
(119326.298000) vcan0 00000002#528CFC R
(119326.534000) vcan0 00000001#538DFD R
(119326.778000) vcan0 00000002#548EFE R
(119327.014000) vcan0 00000001#008FAA R
(119327.256000) vcan0 00000002#0190AB R
(119327.491000) vcan0 00000001#0291AC R
(119327.735000) vcan0 00000002#0392AD R
(119327.971000) vcan0 00000001#0493AE R
(119328.212000) vcan0 00000002#0594AF R
(119328.448000) vcan0 00000001#0695B0 R
(119328.692000) vcan0 00000002#0796B1 R
(119328.928000) vcan0 00000001#0897B2 R
(119329.165000) vcan0 00000002#0998B3 R
(119329.405000) vcan0 00000001#0A99B4 R
(119329.648000) vcan0 00000002#0B9AB5 R
(119329.884000) vcan0 00000001#0C9BB6 R
(119330.120000) vcan0 00000002#0D9CB7 R
(119330.361000) vcan0 00000001#0E9DB8 R
(119330.605000) vcan0 00000002#0F9EB9 R
(119330.841000) vcan0 00000001#109FBA R
(119331.077000) vcan0 00000002#11A0BB R
(119331.315000) vcan0 00000001#12A1BC R
(119331.551000) vcan0 00000002#13A2BD R
(119331.795000) vcan0 00000001#14A3BE R
(119332.031000) vcan0 00000002#15A4BF R
(119332.272000) vcan0 00000001#16A5C0 R
(119332.507000) vcan0 00000002#17A6C1 R
(119332.751000) vcan0 00000001#18A7C2 R
(119332.987000) vcan0 00000002#19A8C3 R
(119333.229000) vcan0 00000001#1AA9C4 R
(119333.465000) vcan0 00000002#1BAAC5 R
(119333.709000) vcan0 00000001#1C55C6 R
(119333.944000) vcan0 00000002#1D56C7 R
(119334.182000) vcan0 00000001#1E57C8 R
(119334.418000) vcan0 00000002#1F58C9 R
(119334.662000) vcan0 00000001#2059CA R
(119334.898000) vcan0 00000002#215ACB R
(119335.134000) vcan0 00000001#225BCC R
(119335.375000) vcan0 00000002#235CCD R
(119335.618000) vcan0 00000001#245DCE R
(119335.854000) vcan0 00000002#255ECF R
(119336.090000) vcan0 00000001#265FD0 R
(119336.329000) vcan0 00000002#2760D1 R
(119336.565000) vcan0 00000001#2861D2 R
(119336.809000) vcan0 00000002#2962D3 R
(119337.044000) vcan0 00000001#2A63D4 R
(119337.282000) vcan0 00000002#2B64D5 R
(119337.518000) vcan0 00000001#2C65D6 R
(119337.762000) vcan0 00000002#2D66D7 R
(119337.998000) vcan0 00000001#2E67D8 R
(119338.239000) vcan0 00000002#2F68D9 R
(119338.475000) vcan0 00000001#3069DA R
(119338.719000) vcan0 00000002#316ADB R
(119338.954000) vcan0 00000001#326BDC R
(119339.196000) vcan0 00000002#336CDD R
(119339.432000) vcan0 00000001#346DDE R
(119339.676000) vcan0 00000002#356EDF R
(119339.912000) vcan0 00000001#366FE0 R
(119340.148000) vcan0 00000002#3770E1 R
(119340.388000) vcan0 00000001#3871E2 R
(119340.632000) vcan0 00000002#3972E3 R
(119340.868000) vcan0 00000001#3A73E4 R
(119341.104000) vcan0 00000002#3B74E5 R
