(413302.979000) vcan0 00000001#34A107 R
(413303.217000) vcan0 00000002#35A208 R
(413303.452000) vcan0 00000001#36A309 R
(413303.696000) vcan0 00000002#37A40A R
(413303.932000) vcan0 00000001#38A50B R
(413311.333000) vcan0 00000002#026E2A R
(413311.569000) vcan0 00000001#036F2B R
(413311.812000) vcan0 00000002#04702C R
(413312.048000) vcan0 00000001#05712D R
(413312.290000) vcan0 00000002#06722E R
(413312.526000) vcan0 00000001#07732F R
(413312.769000) vcan0 00000002#087430 R
(413313.005000) vcan0 00000001#097531 R
(413313.247000) vcan0 00000002#0A7632 R
(413313.483000) vcan0 00000001#0B7733 R
(413313.727000) vcan0 00000002#0C7834 R
(413313.962000) vcan0 00000001#0D7935 R
(413314.199000) vcan0 00000002#0E7A36 R
(413314.439000) vcan0 00000001#0F7B37 R
(413314.683000) vcan0 00000002#107C38 R
(413314.919000) vcan0 00000001#117D39 R
(413315.155000) vcan0 00000002#127E3A R
(413315.396000) vcan0 00000001#137F3B R
(413315.640000) vcan0 00000002#14803C R
(413315.875000) vcan0 00000001#15813D R
(413316.111000) vcan0 00000002#16823E R
(413316.349000) vcan0 00000001#17833F R
(413316.585000) vcan0 00000002#188440 R
(413316.829000) vcan0 00000001#198541 R
(413317.065000) vcan0 00000002#1A8642 R
(413317.307000) vcan0 00000001#1B8743 R
(413317.543000) vcan0 00000002#1C8844 R
(413317.786000) vcan0 00000001#1D8945 R
(413318.022000) vcan0 00000002#1E8A46 R
(413318.263000) vcan0 00000001#1F8B47 R
(413318.499000) vcan0 00000002#208C48 R
(413318.743000) vcan0 00000001#218D49 R
(413318.978000) vcan0 00000002#228E4A R
(413319.217000) vcan0 00000001#238F4B R
(413319.453000) vcan0 00000002#24904C R
(413319.697000) vcan0 00000001#25914D R
(413319.932000) vcan0 00000002#26924E R
(413320.168000) vcan0 00000001#27934F R
(413320.410000) vcan0 00000002#289450 R
(413320.654000) vcan0 00000001#299551 R
(413320.890000) vcan0 00000002#2A9652 R
(413321.125000) vcan0 00000001#2B9753 R
(413321.363000) vcan0 00000002#2C9854 R
(413321.599000) vcan0 00000001#2D9955 R
(413321.843000) vcan0 00000002#2E9A56 R
(413322.079000) vcan0 00000001#2F9B57 R
(413322.317000) vcan0 00000002#309C58 R
(413322.553000) vcan0 00000001#319D59 R
(413322.796000) vcan0 00000002#329E5A R
(413323.032000) vcan0 00000001#339F5B R
(413323.273000) vcan0 00000002#34A05C R
(413323.509000) vcan0 00000001#35A15D R
(413323.753000) vcan0 00000002#36A25E R
(413323.989000) vcan0 00000001#37A35F R
(413324.230000) vcan0 00000002#38A460 R
(413324.466000) vcan0 00000001#39A561 R
(413324.710000) vcan0 00000002#3AA662 R
(413324.946000) vcan0 00000001#3BA763 R
(413325.182000) vcan0 00000002#3CA864 R
(413325.423000) vcan0 00000001#3DA965 R
(413325.667000) vcan0 00000002#3EAA66 R
(413325.902000) vcan0 00000001#3F5567 R
(413326.138000) vcan0 00000002#405668 R
(413326.380000) vcan0 00000001#415769 R
(413326.615000) vcan0 00000002#42586A R
(413326.859000) vcan0 00000001#43596B R
(413327.095000) vcan0 00000002#445A6C R
(413327.333000) vcan0 00000001#455B6D R
(413327.569000) vcan0 00000002#465C6E R
(413327.812000) vcan0 00000001#475D6F R
(413328.048000) vcan0 00000002#485E70 R
(413328.290000) vcan0 00000001#495F71 R
(413328.526000) vcan0 00000002#4A6072 R
(413328.769000) vcan0 00000001#4B6173 R
(413329.005000) vcan0 00000002#4C6274 R
(413329.247000) vcan0 00000001#4D6375 R
(413329.482000) vcan0 00000002#4E6476 R
(413329.726000) vcan0 00000001#4F6577 R
(413329.962000) vcan0 00000002#506678 R
(413330.198000) vcan0 00000001#516779 R
(413330.439000) vcan0 00000002#52687A R
(413330.683000) vcan0 00000001#53697B R
(413330.919000) vcan0 00000002#546A7C R
(413331.155000) vcan0 00000001#006B7D R
(413331.396000) vcan0 00000002#016C7E R
(413331.640000) vcan0 00000001#026D7F R
(413331.875000) vcan0 00000002#036E80 R
(413332.111000) vcan0 00000001#046F81 R
(413332.349000) vcan0 00000002#057082 R
(413332.585000) vcan0 00000001#067183 R
(413332.829000) vcan0 00000002#077284 R
(413333.064000) vcan0 00000001#087385 R
(413333.306000) vcan0 00000002#097486 R
(413333.542000) vcan0 00000001#0A7587 R
(413333.786000) vcan0 00000002#0B7688 R
(413334.021000) vcan0 00000001#0C7789 R
(413334.263000) vcan0 00000002#0D788A R
(413334.499000) vcan0 00000001#0E798B R
(413334.743000) vcan0 00000002#0F7A8C R
(413334.979000) vcan0 00000001#107B8D R
(413335.217000) vcan0 00000002#117C8E R
(413335.452000) vcan0 00000001#127D8F R
(413335.696000) vcan0 00000002#137E90 R
(413335.932000) vcan0 00000001#147F91 R
(413336.168000) vcan0 00000002#158092 R
(413336.410000) vcan0 00000001#168193 R
(413336.654000) vcan0 00000002#178294 R
(413336.890000) vcan0 00000001#188395 R
(413337.125000) vcan0 00000002#198496 R
(413337.363000) vcan0 00000001#1A8597 R
(413337.599000) vcan0 00000002#1B8698 R
(413337.843000) vcan0 00000001#1C8799 R
(413338.079000) vcan0 00000002#1D889A R
(413338.317000) vcan0 00000001#1E899B R
(413338.553000) vcan0 00000002#1F8A9C R
(413338.796000) vcan0 00000001#208B9D R
(413339.032000) vcan0 00000002#218C9E R
(413339.273000) vcan0 00000001#228D9F R
(413339.509000) vcan0 00000002#238EA0 R
(413339.753000) vcan0 00000001#248FA1 R
(413339.989000) vcan0 00000002#2590A2 R
(413340.230000) vcan0 00000001#2691A3 R
(413340.466000) vcan0 00000002#2792A4 R
(413340.710000) vcan0 00000001#2893A5 R
(413340.946000) vcan0 00000002#2994A6 R
(413341.182000) vcan0 00000001#2A95A7 R
(413341.423000) vcan0 00000002#2B96A8 R
(413341.667000) vcan0 00000001#2C97A9 R
(413341.902000) vcan0 00000002#2D98AA R
(413342.138000) vcan0 00000001#2E99AB R
(413342.380000) vcan0 00000002#2F9AAC R
(413342.615000) vcan0 00000001#309BAD R
(413342.859000) vcan0 00000002#319CAE R
(413343.095000) vcan0 00000001#329DAF R
(413343.333000) vcan0 00000002#339EB0 R
(413343.569000) vcan0 00000001#349FB1 R
(413343.812000) vcan0 00000002#35A0B2 R
(413344.048000) vcan0 00000001#36A1B3 R
(413344.290000) vcan0 00000002#37A2B4 R
(413344.526000) vcan0 00000001#38A3B5 R
(413344.769000) vcan0 00000002#39A4B6 R
(413345.005000) vcan0 00000001#3AA5B7 R
(413345.247000) vcan0 00000002#3BA6B8 R
(413345.483000) vcan0 00000001#3CA7B9 R
(413345.727000) vcan0 00000002#3DA8BA R
(413345.962000) vcan0 00000001#3EA9BB R
(413346.199000) vcan0 00000002#3FAABC R
(413346.439000) vcan0 00000001#4055BD R
(413346.683000) vcan0 00000002#4156BE R
(413346.919000) vcan0 00000001#4257BF R
(413347.155000) vcan0 00000002#4358C0 R
(413347.396000) vcan0 00000001#4459C1 R
(413347.640000) vcan0 00000002#455AC2 R
(413347.875000) vcan0 00000001#465BC3 R
(413348.111000) vcan0 00000002#475CC4 R
(413348.349000) vcan0 00000001#485DC5 R
(413348.585000) vcan0 00000002#495EC6 R
(413348.829000) vcan0 00000001#4A5FC7 R
(413349.065000) vcan0 00000002#4B60C8 R
(413349.307000) vcan0 00000001#4C61C9 R
(413349.543000) vcan0 00000002#4D62CA R
(413349.786000) vcan0 00000001#4E63CB R
(413350.022000) vcan0 00000002#4F64CC R
(413350.263000) vcan0 00000001#5065CD R
(413350.499000) vcan0 00000002#5166CE R
(413350.743000) vcan0 00000001#5267CF R
(413350.978000) vcan0 00000002#5368D0 R
(413351.217000) vcan0 00000001#5469D1 R
(413351.453000) vcan0 00000002#006AD2 R
(413351.697000) vcan0 00000001#016BD3 R
(413351.932000) vcan0 00000002#026CD4 R
(413352.168000) vcan0 00000001#036DD5 R
(413352.410000) vcan0 00000002#046ED6 R
(413352.654000) vcan0 00000001#056FD7 R
(413352.890000) vcan0 00000002#0670D8 R
(413353.125000) vcan0 00000001#0771D9 R
(413353.363000) vcan0 00000002#0872DA R
(413353.599000) vcan0 00000001#0973DB R
(413353.843000) vcan0 00000002#0A74DC R
(413354.079000) vcan0 00000001#0B75DD R
(413354.317000) vcan0 00000002#0C76DE R
(413354.553000) vcan0 00000001#0D77DF R
(413354.796000) vcan0 00000002#0E78E0 R
(413355.032000) vcan0 00000001#0F79E1 R
(413355.273000) vcan0 00000002#107AE2 R
(413355.509000) vcan0 00000001#117BE3 R
(413355.753000) vcan0 00000002#127CE4 R
(413355.989000) vcan0 00000001#137DE5 R
(413356.230000) vcan0 00000002#147EE6 R
(413356.466000) vcan0 00000001#157FE7 R
(413356.710000) vcan0 00000002#1680E8 R
(413356.946000) vcan0 00000001#1781E9 R
(413357.182000) vcan0 00000002#1882EA R
(413357.423000) vcan0 00000001#1983EB R
(413357.667000) vcan0 00000002#1A84EC R
(413357.902000) vcan0 00000001#1B85ED R
(413358.138000) vcan0 00000002#1C86EE R
(413358.380000) vcan0 00000001#1D87EF R
(413358.615000) vcan0 00000002#1E88F0 R
(413358.859000) vcan0 00000001#1F89F1 R
(413359.095000) vcan0 00000002#208AF2 R
(413359.333000) vcan0 00000001#218BF3 R
(413359.569000) vcan0 00000002#228CF4 R
(413359.812000) vcan0 00000001#238DF5 R
(413360.048000) vcan0 00000002#248EF6 R
(413360.290000) vcan0 00000001#258FF7 R
(413360.526000) vcan0 00000002#2690F8 R
(413360.769000) vcan0 00000001#2791F9 R
(413361.005000) vcan0 00000002#2892FA R
(413361.247000) vcan0 00000001#2993FB R
(413361.482000) vcan0 00000002#2A94FC R
(413361.726000) vcan0 00000001#2B95FD R
(413361.962000) vcan0 00000002#2C96FE R
(413362.198000) vcan0 00000001#2D97FF R
(413362.439000) vcan0 00000002#2E9800 R
(413362.683000) vcan0 00000001#2F9901 R
(413362.919000) vcan0 00000002#309A02 R
(413363.155000) vcan0 00000001#319B03 R
(413363.396000) vcan0 00000002#329C04 R
(413363.640000) vcan0 00000001#339D05 R
(413363.876000) vcan0 00000002#349E06 R
(413364.111000) vcan0 00000001#359F07 R
(413364.349000) vcan0 00000002#36A008 R
(413364.585000) vcan0 00000001#37A109 R
(413364.829000) vcan0 00000002#38A20A R
(413365.065000) vcan0 00000001#39A30B R
(413365.306000) vcan0 00000002#3AA40C R
(413365.542000) vcan0 00000001#3BA50D R
(413365.786000) vcan0 00000002#3CA60E R
(413366.022000) vcan0 00000001#3DA70F R
(413366.263000) vcan0 00000002#3EA810 R
(413366.499000) vcan0 00000001#3FA911 R
(413366.743000) vcan0 00000002#40AA12 R
(413366.979000) vcan0 00000001#415513 R
(413367.217000) vcan0 00000002#425614 R
(413367.452000) vcan0 00000001#435715 R
(413367.696000) vcan0 00000002#445816 R
(413367.932000) vcan0 00000001#455917 R
(413368.168000) vcan0 00000002#465A18 R
(413368.410000) vcan0 00000001#475B19 R
(413368.654000) vcan0 00000002#485C1A R
(413368.890000) vcan0 00000001#495D1B R
(413369.125000) vcan0 00000002#4A5E1C R
(413369.363000) vcan0 00000001#4B5F1D R
(413369.599000) vcan0 00000002#4C601E R
(413369.843000) vcan0 00000001#4D611F R
(413370.079000) vcan0 00000002#4E6220 R
(413370.317000) vcan0 00000001#4F6321 R
(413370.553000) vcan0 00000002#506422 R
(413370.796000) vcan0 00000001#516523 R
(413371.032000) vcan0 00000002#526624 R
(413371.273000) vcan0 00000001#536725 R
(413371.509000) vcan0 00000002#546826 R
(413371.753000) vcan0 00000001#006927 R
(413371.989000) vcan0 00000002#016A28 R
(413372.230000) vcan0 00000001#026B29 R
(413372.466000) vcan0 00000002#036C2A R
(413372.710000) vcan0 00000001#046D2B R
(413372.946000) vcan0 00000002#056E2C R
(413373.182000) vcan0 00000001#066F2D R
(413373.423000) vcan0 00000002#07702E R
(413373.667000) vcan0 00000001#08712F R
(413373.902000) vcan0 00000002#097230 R
(413374.138000) vcan0 00000001#0A7331 R
(413374.380000) vcan0 00000002#0B7432 R
(413374.615000) vcan0 00000001#0C7533 R
(413374.859000) vcan0 00000002#0D7634 R
(413375.095000) vcan0 00000001#0E7735 R
(413375.333000) vcan0 00000002#0F7836 R
(413375.569000) vcan0 00000001#107937 R
(413375.812000) vcan0 00000002#117A38 R
(413376.048000) vcan0 00000001#127B39 R
(413376.290000) vcan0 00000002#137C3A R
(413376.526000) vcan0 00000001#147D3B R
(413376.769000) vcan0 00000002#157E3C R
(413377.005000) vcan0 00000001#167F3D R
(413377.247000) vcan0 00000002#17803E R
(413377.483000) vcan0 00000001#18813F R
(413377.727000) vcan0 00000002#198240 R
(413377.962000) vcan0 00000001#1A8341 R
(413378.199000) vcan0 00000002#1B8442 R
(413378.439000) vcan0 00000001#1C8543 R
(413378.683000) vcan0 00000002#1D8644 R
(413378.919000) vcan0 00000001#1E8745 R
(413379.155000) vcan0 00000002#1F8846 R
(413379.396000) vcan0 00000001#208947 R
(413379.640000) vcan0 00000002#218A48 R
(413379.875000) vcan0 00000001#228B49 R
(413380.111000) vcan0 00000002#238C4A R
(413380.349000) vcan0 00000001#248D4B R
(413380.585000) vcan0 00000002#258E4C R
(413380.829000) vcan0 00000001#268F4D R
(413381.065000) vcan0 00000002#27904E R
(413381.307000) vcan0 00000001#28914F R
(413381.543000) vcan0 00000002#299250 R
(413381.786000) vcan0 00000001#2A9351 R
(413382.022000) vcan0 00000002#2B9452 R
(413382.263000) vcan0 00000001#2C9553 R
(413382.499000) vcan0 00000002#2D9654 R
(413382.743000) vcan0 00000001#2E9755 R
(413382.978000) vcan0 00000002#2F9856 R
(413383.217000) vcan0 00000001#309957 R
(413383.453000) vcan0 00000002#319A58 R
(413383.697000) vcan0 00000001#329B59 R
(413383.932000) vcan0 00000002#339C5A R
(413384.168000) vcan0 00000001#349D5B R
(413384.410000) vcan0 00000002#359E5C R
(413384.654000) vcan0 00000001#369F5D R
(413384.890000) vcan0 00000002#37A05E R
(413385.125000) vcan0 00000001#38A15F R
(413385.363000) vcan0 00000002#39A260 R
(413385.599000) vcan0 00000001#3AA361 R
(413385.843000) vcan0 00000002#3BA462 R
(413386.079000) vcan0 00000001#3CA563 R
(413386.317000) vcan0 00000002#3DA664 R
(413386.553000) vcan0 00000001#3EA765 R
(413386.796000) vcan0 00000002#3FA866 R
(413387.032000) vcan0 00000001#40A967 R
(413387.273000) vcan0 00000002#41AA68 R
(413387.509000) vcan0 00000001#425569 R
(413387.753000) vcan0 00000002#43566A R
(413387.989000) vcan0 00000001#44576B R
(413388.230000) vcan0 00000002#45586C R
(413388.466000) vcan0 00000001#46596D R
(413388.710000) vcan0 00000002#475A6E R
(413388.946000) vcan0 00000001#485B6F R
(413389.182000) vcan0 00000002#495C70 R
(413389.423000) vcan0 00000001#4A5D71 R
(413389.667000) vcan0 00000002#4B5E72 R
(413389.902000) vcan0 00000001#4C5F73 R
(413390.138000) vcan0 00000002#4D6074 R
(413390.380000) vcan0 00000001#4E6175 R
(413390.615000) vcan0 00000002#4F6276 R
(413390.859000) vcan0 00000001#506377 R
(413391.095000) vcan0 00000002#516478 R
(413391.333000) vcan0 00000001#526579 R
(413391.569000) vcan0 00000002#53667A R
(413391.812000) vcan0 00000001#54677B R
(413392.048000) vcan0 00000002#00687C R
(413392.290000) vcan0 00000001#01697D R
(413392.526000) vcan0 00000002#026A7E R
(413392.769000) vcan0 00000001#036B7F R
(413393.005000) vcan0 00000002#046C80 R
(413393.247000) vcan0 00000001#056D81 R
(413393.483000) vcan0 00000002#066E82 R
(413393.727000) vcan0 00000001#076F83 R
(413393.962000) vcan0 00000002#087084 R
(413394.199000) vcan0 00000001#097185 R
(413394.439000) vcan0 00000002#0A7286 R
(413394.683000) vcan0 00000001#0B7387 R
(413394.919000) vcan0 00000002#0C7488 R
(413395.154000) vcan0 00000001#0D7589 R
(413395.396000) vcan0 00000002#0E768A R
(413395.640000) vcan0 00000001#0F778B R
(413395.876000) vcan0 00000002#10788C R
(413396.111000) vcan0 00000001#11798D R
(413396.349000) vcan0 00000002#127A8E R
(413396.585000) vcan0 00000001#137B8F R
(413396.829000) vcan0 00000002#147C90 R
(413397.064000) vcan0 00000001#157D91 R
(413397.306000) vcan0 00000002#167E92 R
(413397.542000) vcan0 00000001#177F93 R
(413397.785000) vcan0 00000002#188094 R
(413398.021000) vcan0 00000001#198195 R
(413398.263000) vcan0 00000002#1A8296 R
(413398.499000) vcan0 00000001#1B8397 R
(413398.743000) vcan0 00000002#1C8498 R
(413398.978000) vcan0 00000001#1D8599 R
(413399.217000) vcan0 00000002#1E869A R
(413399.453000) vcan0 00000001#1F879B R
(413399.697000) vcan0 00000002#20889C R
(413399.932000) vcan0 00000001#21899D R
(413400.168000) vcan0 00000002#228A9E R
(413400.410000) vcan0 00000001#238B9F R
(413400.654000) vcan0 00000002#248CA0 R
(413400.890000) vcan0 00000001#258DA1 R
(413401.125000) vcan0 00000002#268EA2 R
(413401.363000) vcan0 00000001#278FA3 R
(413401.599000) vcan0 00000002#2890A4 R
(413401.843000) vcan0 00000001#2991A5 R
(413402.079000) vcan0 00000002#2A92A6 R
(413402.317000) vcan0 00000001#2B93A7 R
(413402.553000) vcan0 00000002#2C94A8 R
(413402.796000) vcan0 00000001#2D95A9 R
(413403.032000) vcan0 00000002#2E96AA R
(413403.273000) vcan0 00000001#2F97AB R
(413403.509000) vcan0 00000002#3098AC R
(413403.753000) vcan0 00000001#3199AD R
(413403.989000) vcan0 00000002#329AAE R
(413404.230000) vcan0 00000001#339BAF R
(413404.466000) vcan0 00000002#349CB0 R
(413404.710000) vcan0 00000001#359DB1 R
(413404.946000) vcan0 00000002#369EB2 R
(413405.182000) vcan0 00000001#379FB3 R
(413405.423000) vcan0 00000002#38A0B4 R
(413405.667000) vcan0 00000001#39A1B5 R
(413405.902000) vcan0 00000002#3AA2B6 R
(413406.138000) vcan0 00000001#3BA3B7 R
(413406.380000) vcan0 00000002#3CA4B8 R
(413406.615000) vcan0 00000001#3DA5B9 R
(413406.859000) vcan0 00000002#3EA6BA R
(413407.095000) vcan0 00000001#3FA7BB R
(413407.333000) vcan0 00000002#40A8BC R
(413407.569000) vcan0 00000001#41A9BD R
(413407.812000) vcan0 00000002#42AABE R
(413408.048000) vcan0 00000001#4355BF R
(413408.290000) vcan0 00000002#4456C0 R
(413408.525000) vcan0 00000001#4557C1 R
(413408.769000) vcan0 00000002#4658C2 R
(413409.005000) vcan0 00000001#4759C3 R
(413409.247000) vcan0 00000002#485AC4 R
(413409.482000) vcan0 00000001#495BC5 R
(413409.726000) vcan0 00000002#4A5CC6 R
(413409.962000) vcan0 00000001#4B5DC7 R
(413410.198000) vcan0 00000002#4C5EC8 R
(413410.439000) vcan0 00000001#4D5FC9 R
(413410.683000) vcan0 00000002#4E60CA R
(413410.919000) vcan0 00000001#4F61CB R
(413411.155000) vcan0 00000002#5062CC R
(413411.396000) vcan0 00000001#5163CD R
(413411.640000) vcan0 00000002#5264CE R
(413411.875000) vcan0 00000001#5365CF R
(413412.111000) vcan0 00000002#5466D0 R
(413412.349000) vcan0 00000001#0067D1 R
(413412.585000) vcan0 00000002#0168D2 R
(413412.829000) vcan0 00000001#0269D3 R
(413413.065000) vcan0 00000002#036AD4 R
(413413.307000) vcan0 00000001#046BD5 R
(413413.543000) vcan0 00000002#056CD6 R
(413413.786000) vcan0 00000001#066DD7 R
(413414.022000) vcan0 00000002#076ED8 R
(413414.263000) vcan0 00000001#086FD9 R
(413414.499000) vcan0 00000002#0970DA R
(413414.743000) vcan0 00000001#0A71DB R
(413414.978000) vcan0 00000002#0B72DC R
(413415.217000) vcan0 00000001#0C73DD R
(413415.453000) vcan0 00000002#0D74DE R
(413415.697000) vcan0 00000001#0E75DF R
(413415.932000) vcan0 00000002#0F76E0 R
(413416.168000) vcan0 00000001#1077E1 R
(413416.410000) vcan0 00000002#1178E2 R
(413416.654000) vcan0 00000001#1279E3 R
(413416.890000) vcan0 00000002#137AE4 R
(413417.125000) vcan0 00000001#147BE5 R
(413417.363000) vcan0 00000002#157CE6 R
(413417.599000) vcan0 00000001#167DE7 R
(413417.843000) vcan0 00000002#177EE8 R
(413418.079000) vcan0 00000001#187FE9 R
(413418.317000) vcan0 00000002#1980EA R
(413418.553000) vcan0 00000001#1A81EB R
(413418.796000) vcan0 00000002#1B82EC R
(413419.032000) vcan0 00000001#1C83ED R
(413419.273000) vcan0 00000002#1D84EE R
(413419.509000) vcan0 00000001#1E85EF R
(413419.753000) vcan0 00000002#1F86F0 R
(413419.989000) vcan0 00000001#2087F1 R
(413420.230000) vcan0 00000002#2188F2 R
(413420.466000) vcan0 00000001#2289F3 R
(413420.710000) vcan0 00000002#238AF4 R
(413420.946000) vcan0 00000001#248BF5 R
(413421.182000) vcan0 00000002#258CF6 R
(413421.423000) vcan0 00000001#268DF7 R
(413421.667000) vcan0 00000002#278EF8 R
(413421.902000) vcan0 00000001#288FF9 R
(413422.138000) vcan0 00000002#2990FA R
(413422.380000) vcan0 00000001#2A91FB R
(413422.615000) vcan0 00000002#2B92FC R
(413422.859000) vcan0 00000001#2C93FD R
(413423.095000) vcan0 00000002#2D94FE R
(413423.333000) vcan0 00000001#2E95FF R
(413423.569000) vcan0 00000002#2F9600 R
(413423.812000) vcan0 00000001#309701 R
(413424.048000) vcan0 00000002#319802 R
(413424.290000) vcan0 00000001#329903 R
(413424.526000) vcan0 00000002#339A04 R
(413424.769000) vcan0 00000001#349B05 R
(413425.005000) vcan0 00000002#359C06 R
(413425.247000) vcan0 00000001#369D07 R
(413425.482000) vcan0 00000002#379E08 R
(413425.726000) vcan0 00000001#389F09 R
(413425.962000) vcan0 00000002#39A00A R
(413426.198000) vcan0 00000001#3AA10B R
(413426.439000) vcan0 00000002#3BA20C R
(413426.683000) vcan0 00000001#3CA30D R
(413426.919000) vcan0 00000002#3DA40E R
(413427.155000) vcan0 00000001#3EA50F R
(413427.396000) vcan0 00000002#3FA610 R
(413427.640000) vcan0 00000001#40A711 R
(413427.876000) vcan0 00000002#41A812 R
(413428.111000) vcan0 00000001#42A913 R
(413428.349000) vcan0 00000002#43AA14 R
(413428.585000) vcan0 00000001#445515 R
(413428.829000) vcan0 00000002#455616 R
(413429.064000) vcan0 00000001#465717 R
(413429.306000) vcan0 00000002#475818 R
(413429.542000) vcan0 00000001#485919 R
(413429.785000) vcan0 00000002#495A1A R
(413430.021000) vcan0 00000001#4A5B1B R
(413430.263000) vcan0 00000002#4B5C1C R
(413430.499000) vcan0 00000001#4C5D1D R
(413430.743000) vcan0 00000002#4D5E1E R
(413430.978000) vcan0 00000001#4E5F1F R
(413431.217000) vcan0 00000002#4F6020 R
(413431.453000) vcan0 00000001#506121 R
(413431.697000) vcan0 00000002#516222 R
(413431.932000) vcan0 00000001#526323 R
(413432.168000) vcan0 00000002#536424 R
(413432.410000) vcan0 00000001#546525 R
(413432.654000) vcan0 00000002#006626 R
(413432.890000) vcan0 00000001#016727 R
(413433.125000) vcan0 00000002#026828 R
(413433.363000) vcan0 00000001#036929 R
(413433.599000) vcan0 00000002#046A2A R
(413433.843000) vcan0 00000001#056B2B R
(413434.079000) vcan0 00000002#066C2C R
(413434.317000) vcan0 00000001#076D2D R
(413434.553000) vcan0 00000002#086E2E R
(413434.796000) vcan0 00000001#096F2F R
(413435.032000) vcan0 00000002#0A7030 R
(413435.273000) vcan0 00000001#0B7131 R
(413435.509000) vcan0 00000002#0C7232 R
(413435.753000) vcan0 00000001#0D7333 R
(413435.989000) vcan0 00000002#0E7434 R
(413436.230000) vcan0 00000001#0F7535 R
(413436.466000) vcan0 00000002#107636 R
(413436.710000) vcan0 00000001#117737 R
(413436.946000) vcan0 00000002#127838 R
(413437.182000) vcan0 00000001#137939 R
(413437.423000) vcan0 00000002#147A3A R
(413437.667000) vcan0 00000001#157B3B R
(413437.902000) vcan0 00000002#167C3C R
(413438.138000) vcan0 00000001#177D3D R
(413438.380000) vcan0 00000002#187E3E R
(413438.615000) vcan0 00000001#197F3F R
(413438.859000) vcan0 00000002#1A8040 R
(413439.095000) vcan0 00000001#1B8141 R
(413439.333000) vcan0 00000002#1C8242 R
(413439.569000) vcan0 00000001#1D8343 R
(413439.812000) vcan0 00000002#1E8444 R
(413440.048000) vcan0 00000001#1F8545 R
(413440.290000) vcan0 00000002#208646 R
(413440.526000) vcan0 00000001#218747 R
(413440.769000) vcan0 00000002#228848 R
(413441.005000) vcan0 00000001#238949 R
(413441.247000) vcan0 00000002#248A4A R
(413441.483000) vcan0 00000001#258B4B R
(413441.727000) vcan0 00000002#268C4C R
(413441.962000) vcan0 00000001#278D4D R
(413442.199000) vcan0 00000002#288E4E R
(413442.439000) vcan0 00000001#298F4F R
(413442.683000) vcan0 00000002#2A9050 R
(413442.919000) vcan0 00000001#2B9151 R
(413443.155000) vcan0 00000002#2C9252 R
(413443.396000) vcan0 00000001#2D9353 R
(413443.640000) vcan0 00000002#2E9454 R
(413443.875000) vcan0 00000001#2F9555 R
(413444.111000) vcan0 00000002#309656 R
(413444.349000) vcan0 00000001#319757 R
(413444.585000) vcan0 00000002#329858 R
(413444.829000) vcan0 00000001#339959 R
(413445.065000) vcan0 00000002#349A5A R
(413445.307000) vcan0 00000001#359B5B R
(413445.543000) vcan0 00000002#369C5C R
(413445.786000) vcan0 00000001#379D5D R
(413446.022000) vcan0 00000002#389E5E R
(413446.263000) vcan0 00000001#399F5F R
(413446.499000) vcan0 00000002#3AA060 R
(413446.743000) vcan0 00000001#3BA161 R
(413446.978000) vcan0 00000002#3CA262 R
(413447.217000) vcan0 00000001#3DA363 R
(413447.453000) vcan0 00000002#3EA464 R
(413447.697000) vcan0 00000001#3FA565 R
(413447.932000) vcan0 00000002#40A666 R
(413448.168000) vcan0 00000001#41A767 R
(413448.410000) vcan0 00000002#42A868 R
(413448.654000) vcan0 00000001#43A969 R
(413448.890000) vcan0 00000002#44AA6A R
(413449.125000) vcan0 00000001#45556B R
(413449.363000) vcan0 00000002#46566C R
(413449.599000) vcan0 00000001#47576D R
(413449.843000) vcan0 00000002#48586E R
(413450.079000) vcan0 00000001#49596F R
(413450.317000) vcan0 00000002#4A5A70 R
(413450.553000) vcan0 00000001#4B5B71 R
(413450.796000) vcan0 00000002#4C5C72 R
(413451.032000) vcan0 00000001#4D5D73 R
(413451.273000) vcan0 00000002#4E5E74 R
(413451.509000) vcan0 00000001#4F5F75 R
(413451.753000) vcan0 00000002#506076 R
(413451.989000) vcan0 00000001#516177 R
(413452.230000) vcan0 00000002#526278 R
(413452.466000) vcan0 00000001#536379 R
(413452.710000) vcan0 00000002#54647A R
(413452.946000) vcan0 00000001#00657B R
(413453.182000) vcan0 00000002#01667C R
(413453.423000) vcan0 00000001#02677D R
(413453.667000) vcan0 00000002#03687E R
(413453.902000) vcan0 00000001#04697F R
(413454.138000) vcan0 00000002#056A80 R
(413454.380000) vcan0 00000001#066B81 R
(413454.615000) vcan0 00000002#076C82 R
(413454.859000) vcan0 00000001#086D83 R
(413455.095000) vcan0 00000002#096E84 R
(413455.333000) vcan0 00000001#0A6F85 R
(413455.568000) vcan0 00000002#0B7086 R
(413455.812000) vcan0 00000001#0C7187 R
(413456.048000) vcan0 00000002#0D7288 R
(413456.290000) vcan0 00000001#0E7389 R
(413456.526000) vcan0 00000002#0F748A R
(413456.769000) vcan0 00000001#10758B R
(413457.005000) vcan0 00000002#11768C R
(413457.247000) vcan0 00000001#12778D R
(413457.483000) vcan0 00000002#13788E R
(413457.727000) vcan0 00000001#14798F R
(413457.962000) vcan0 00000002#157A90 R
(413458.199000) vcan0 00000001#167B91 R
(413458.439000) vcan0 00000002#177C92 R
(413458.683000) vcan0 00000001#187D93 R
(413458.919000) vcan0 00000002#197E94 R
(413459.155000) vcan0 00000001#1A7F95 R
(413459.396000) vcan0 00000002#1B8096 R
(413459.640000) vcan0 00000001#1C8197 R
(413459.875000) vcan0 00000002#1D8298 R
(413460.111000) vcan0 00000001#1E8399 R
(413460.349000) vcan0 00000002#1F849A R
(413460.585000) vcan0 00000001#20859B R
(413460.829000) vcan0 00000002#21869C R
(413461.064000) vcan0 00000001#22879D R
(413461.306000) vcan0 00000002#23889E R
(413461.542000) vcan0 00000001#24899F R
(413461.786000) vcan0 00000002#258AA0 R
(413462.021000) vcan0 00000001#268BA1 R
(413462.263000) vcan0 00000002#278CA2 R
(413462.499000) vcan0 00000001#288DA3 R
(413462.743000) vcan0 00000002#298EA4 R
(413462.979000) vcan0 00000001#2A8FA5 R
(413463.217000) vcan0 00000002#2B90A6 R
(413463.452000) vcan0 00000001#2C91A7 R
(413463.696000) vcan0 00000002#2D92A8 R
(413463.932000) vcan0 00000001#2E93A9 R
(413464.168000) vcan0 00000002#2F94AA R
(413464.410000) vcan0 00000001#3095AB R
(413464.654000) vcan0 00000002#3196AC R
(413464.890000) vcan0 00000001#3297AD R
(413465.125000) vcan0 00000002#3398AE R
(413465.363000) vcan0 00000001#3499AF R
(413465.599000) vcan0 00000002#359AB0 R
(413465.843000) vcan0 00000001#369BB1 R
(413466.079000) vcan0 00000002#379CB2 R
(413466.317000) vcan0 00000001#389DB3 R
(413466.553000) vcan0 00000002#399EB4 R
(413466.796000) vcan0 00000001#3A9FB5 R
(413467.032000) vcan0 00000002#3BA0B6 R
(413467.273000) vcan0 00000001#3CA1B7 R
(413467.509000) vcan0 00000002#3DA2B8 R
(413467.753000) vcan0 00000001#3EA3B9 R
(413467.989000) vcan0 00000002#3FA4BA R
(413468.230000) vcan0 00000001#40A5BB R
(413468.466000) vcan0 00000002#41A6BC R
(413468.710000) vcan0 00000001#42A7BD R
(413468.946000) vcan0 00000002#43A8BE R
(413469.182000) vcan0 00000001#44A9BF R
(413469.423000) vcan0 00000002#45AAC0 R
(413469.667000) vcan0 00000001#4655C1 R
(413469.902000) vcan0 00000002#4756C2 R
(413470.138000) vcan0 00000001#4857C3 R
(413470.380000) vcan0 00000002#4958C4 R
(413470.615000) vcan0 00000001#4A59C5 R
(413470.859000) vcan0 00000002#4B5AC6 R
(413471.095000) vcan0 00000001#4C5BC7 R
(413471.333000) vcan0 00000002#4D5CC8 R
(413471.569000) vcan0 00000001#4E5DC9 R
(413471.812000) vcan0 00000002#4F5ECA R
(413472.048000) vcan0 00000001#505FCB R
(413472.290000) vcan0 00000002#5160CC R
(413472.526000) vcan0 00000001#5261CD R
(413472.769000) vcan0 00000002#5362CE R
(413473.005000) vcan0 00000001#5463CF R
(413473.247000) vcan0 00000002#0064D0 R
(413473.483000) vcan0 00000001#0165D1 R
(413473.727000) vcan0 00000002#0266D2 R
(413473.962000) vcan0 00000001#0367D3 R
(413474.199000) vcan0 00000002#0468D4 R
(413474.439000) vcan0 00000001#0569D5 R
(413474.683000) vcan0 00000002#066AD6 R
(413474.919000) vcan0 00000001#076BD7 R
(413475.155000) vcan0 00000002#086CD8 R
(413475.396000) vcan0 00000001#096DD9 R
(413475.640000) vcan0 00000002#0A6EDA R
(413475.875000) vcan0 00000001#0B6FDB R
(413476.111000) vcan0 00000002#0C70DC R
(413476.349000) vcan0 00000001#0D71DD R
(413476.585000) vcan0 00000002#0E72DE R
(413476.829000) vcan0 00000001#0F73DF R
(413477.065000) vcan0 00000002#1074E0 R
(413477.307000) vcan0 00000001#1175E1 R
(413477.543000) vcan0 00000002#1276E2 R
(413477.786000) vcan0 00000001#1377E3 R
(413478.022000) vcan0 00000002#1478E4 R
(413478.263000) vcan0 00000001#1579E5 R
(413478.499000) vcan0 00000002#167AE6 R
(413478.743000) vcan0 00000001#177BE7 R
(413478.978000) vcan0 00000002#187CE8 R
(413479.217000) vcan0 00000001#197DE9 R
(413479.453000) vcan0 00000002#1A7EEA R
(413479.697000) vcan0 00000001#1B7FEB R
(413479.932000) vcan0 00000002#1C80EC R
(413480.168000) vcan0 00000001#1D81ED R
(413480.410000) vcan0 00000002#1E82EE R
(413480.654000) vcan0 00000001#1F83EF R
(413480.890000) vcan0 00000002#2084F0 R
(413481.125000) vcan0 00000001#2185F1 R
(413481.363000) vcan0 00000002#2286F2 R
(413481.599000) vcan0 00000001#2387F3 R
(413481.843000) vcan0 00000002#2488F4 R
(413482.079000) vcan0 00000001#2589F5 R
(413482.317000) vcan0 00000002#268AF6 R
(413482.553000) vcan0 00000001#278BF7 R
(413482.796000) vcan0 00000002#288CF8 R
(413483.032000) vcan0 00000001#298DF9 R
(413483.273000) vcan0 00000002#2A8EFA R
(413483.509000) vcan0 00000001#2B8FFB R
(413483.753000) vcan0 00000002#2C90FC R
(413483.989000) vcan0 00000001#2D91FD R
(413484.230000) vcan0 00000002#2E92FE R
(413484.466000) vcan0 00000001#2F93FF R
(413484.710000) vcan0 00000002#309400 R
(413484.946000) vcan0 00000001#319501 R
(413485.182000) vcan0 00000002#329602 R
(413485.423000) vcan0 00000001#339703 R
(413485.667000) vcan0 00000002#349804 R
(413485.902000) vcan0 00000001#359905 R
(413486.138000) vcan0 00000002#369A06 R
(413486.380000) vcan0 00000001#379B07 R
(413486.615000) vcan0 00000002#389C08 R
(413486.859000) vcan0 00000001#399D09 R
(413487.095000) vcan0 00000002#3A9E0A R
(413487.333000) vcan0 00000001#3B9F0B R
(413487.569000) vcan0 00000002#3CA00C R
(413487.812000) vcan0 00000001#3DA10D R
(413488.048000) vcan0 00000002#3EA20E R
(413488.290000) vcan0 00000001#3FA30F R
(413488.526000) vcan0 00000002#40A410 R
(413488.769000) vcan0 00000001#41A511 R
(413489.005000) vcan0 00000002#42A612 R
(413489.247000) vcan0 00000001#43A713 R
(413489.482000) vcan0 00000002#44A814 R
(413489.726000) vcan0 00000001#45A915 R
(413489.962000) vcan0 00000002#46AA16 R
(413490.198000) vcan0 00000001#475517 R
(413490.439000) vcan0 00000002#485618 R
(413490.683000) vcan0 00000001#495719 R
(413490.919000) vcan0 00000002#4A581A R
(413491.155000) vcan0 00000001#4B591B R
(413491.396000) vcan0 00000002#4C5A1C R
(413491.640000) vcan0 00000001#4D5B1D R
(413491.876000) vcan0 00000002#4E5C1E R
(413492.111000) vcan0 00000001#4F5D1F R
(413492.349000) vcan0 00000002#505E20 R
(413492.585000) vcan0 00000001#515F21 R
(413492.829000) vcan0 00000002#526022 R
(413493.065000) vcan0 00000001#536123 R
(413493.306000) vcan0 00000002#546224 R
(413493.542000) vcan0 00000001#006325 R
(413493.786000) vcan0 00000002#016426 R
(413494.022000) vcan0 00000001#026527 R
(413494.263000) vcan0 00000002#036628 R
(413494.499000) vcan0 00000001#046729 R
(413494.743000) vcan0 00000002#05682A R
(413494.979000) vcan0 00000001#06692B R
(413495.217000) vcan0 00000002#076A2C R
(413495.452000) vcan0 00000001#086B2D R
(413495.696000) vcan0 00000002#096C2E R
(413495.932000) vcan0 00000001#0A6D2F R
(413496.168000) vcan0 00000002#0B6E30 R
(413496.410000) vcan0 00000001#0C6F31 R
(413496.654000) vcan0 00000002#0D7032 R
(413496.890000) vcan0 00000001#0E7133 R
(413497.125000) vcan0 00000002#0F7234 R
(413497.363000) vcan0 00000001#107335 R
(413497.599000) vcan0 00000002#117436 R
(413497.843000) vcan0 00000001#127537 R
(413498.079000) vcan0 00000002#137638 R
(413498.317000) vcan0 00000001#147739 R
(413498.553000) vcan0 00000002#15783A R
(413498.796000) vcan0 00000001#16793B R
(413499.032000) vcan0 00000002#177A3C R
(413499.273000) vcan0 00000001#187B3D R
(413499.509000) vcan0 00000002#197C3E R
(413499.753000) vcan0 00000001#1A7D3F R
(413499.989000) vcan0 00000002#1B7E40 R
(413500.230000) vcan0 00000001#1C7F41 R
(413500.466000) vcan0 00000002#1D8042 R
(413500.710000) vcan0 00000001#1E8143 R
(413500.946000) vcan0 00000002#1F8244 R
(413501.182000) vcan0 00000001#208345 R
(413501.423000) vcan0 00000002#218446 R
(413501.667000) vcan0 00000001#228547 R
(413501.902000) vcan0 00000002#238648 R
(413502.138000) vcan0 00000001#248749 R
(413502.380000) vcan0 00000002#25884A R
(413502.615000) vcan0 00000001#26894B R
(413502.859000) vcan0 00000002#278A4C R
(413503.095000) vcan0 00000001#288B4D R
(413503.333000) vcan0 00000002#298C4E R
(413503.569000) vcan0 00000001#2A8D4F R
(413503.812000) vcan0 00000002#2B8E50 R
(413504.048000) vcan0 00000001#2C8F51 R
(413504.290000) vcan0 00000002#2D9052 R
(413504.526000) vcan0 00000001#2E9153 R
(413504.769000) vcan0 00000002#2F9254 R
(413505.005000) vcan0 00000001#309355 R
(413505.247000) vcan0 00000002#319456 R
(413505.483000) vcan0 00000001#329557 R
(413505.727000) vcan0 00000002#339658 R
(413505.962000) vcan0 00000001#349759 R
(413506.199000) vcan0 00000002#35985A R
(413506.439000) vcan0 00000001#36995B R
(413506.683000) vcan0 00000002#379A5C R
(413506.919000) vcan0 00000001#389B5D R
(413507.155000) vcan0 00000002#399C5E R
(413507.396000) vcan0 00000001#3A9D5F R
(413507.640000) vcan0 00000002#3B9E60 R
(413507.875000) vcan0 00000001#3C9F61 R
(413508.111000) vcan0 00000002#3DA062 R
(413508.349000) vcan0 00000001#3EA163 R
(413508.585000) vcan0 00000002#3FA264 R
(413508.829000) vcan0 00000001#40A365 R
(413509.065000) vcan0 00000002#41A466 R
(413509.307000) vcan0 00000001#42A567 R
(413509.543000) vcan0 00000002#43A668 R
(413509.786000) vcan0 00000001#44A769 R
(413510.022000) vcan0 00000002#45A86A R
(413510.263000) vcan0 00000001#46A96B R
(413510.499000) vcan0 00000002#47AA6C R
(413510.743000) vcan0 00000001#48556D R
(413510.978000) vcan0 00000002#49566E R
(413511.217000) vcan0 00000001#4A576F R
(413511.453000) vcan0 00000002#4B5870 R
(413511.697000) vcan0 00000001#4C5971 R
(413511.932000) vcan0 00000002#4D5A72 R
(413512.168000) vcan0 00000001#4E5B73 R
(413512.410000) vcan0 00000002#4F5C74 R
(413512.654000) vcan0 00000001#505D75 R
(413512.890000) vcan0 00000002#515E76 R
(413513.125000) vcan0 00000001#525F77 R
(413513.363000) vcan0 00000002#536078 R
(413513.599000) vcan0 00000001#546179 R
(413513.843000) vcan0 00000002#00627A R
(413514.079000) vcan0 00000001#01637B R
(413514.317000) vcan0 00000002#02647C R
(413514.553000) vcan0 00000001#03657D R
(413514.796000) vcan0 00000002#04667E R
(413515.032000) vcan0 00000001#05677F R
(413515.273000) vcan0 00000002#066880 R
(413515.509000) vcan0 00000001#076981 R
(413515.753000) vcan0 00000002#086A82 R
(413515.989000) vcan0 00000001#096B83 R
(413516.230000) vcan0 00000002#0A6C84 R
(413516.466000) vcan0 00000001#0B6D85 R
(413516.710000) vcan0 00000002#0C6E86 R
(413516.946000) vcan0 00000001#0D6F87 R
(413517.182000) vcan0 00000002#0E7088 R
(413517.423000) vcan0 00000001#0F7189 R
(413517.667000) vcan0 00000002#10728A R
(413517.902000) vcan0 00000001#11738B R
(413518.138000) vcan0 00000002#12748C R
(413518.380000) vcan0 00000001#13758D R
(413518.615000) vcan0 00000002#14768E R
(413518.859000) vcan0 00000001#15778F R
(413519.095000) vcan0 00000002#167890 R
(413519.333000) vcan0 00000001#177991 R
(413519.569000) vcan0 00000002#187A92 R
(413519.812000) vcan0 00000001#197B93 R
(413520.048000) vcan0 00000002#1A7C94 R
(413520.290000) vcan0 00000001#1B7D95 R
(413520.526000) vcan0 00000002#1C7E96 R
(413520.769000) vcan0 00000001#1D7F97 R
(413521.005000) vcan0 00000002#1E8098 R
(413521.247000) vcan0 00000001#1F8199 R
(413521.482000) vcan0 00000002#20829A R
(413521.726000) vcan0 00000001#21839B R
(413521.962000) vcan0 00000002#22849C R
(413522.198000) vcan0 00000001#23859D R
(413522.439000) vcan0 00000002#24869E R
(413522.683000) vcan0 00000001#25879F R
(413522.919000) vcan0 00000002#2688A0 R
(413523.155000) vcan0 00000001#2789A1 R
(413523.396000) vcan0 00000002#288AA2 R
(413523.640000) vcan0 00000001#298BA3 R
(413523.876000) vcan0 00000002#2A8CA4 R
(413524.111000) vcan0 00000001#2B8DA5 R
(413524.349000) vcan0 00000002#2C8EA6 R
(413524.585000) vcan0 00000001#2D8FA7 R
(413524.829000) vcan0 00000002#2E90A8 R
(413525.065000) vcan0 00000001#2F91A9 R
(413525.306000) vcan0 00000002#3092AA R
(413525.542000) vcan0 00000001#3193AB R
(413525.786000) vcan0 00000002#3294AC R
(413526.022000) vcan0 00000001#3395AD R
(413526.263000) vcan0 00000002#3496AE R
(413526.499000) vcan0 00000001#3597AF R
(413526.743000) vcan0 00000002#3698B0 R
(413526.979000) vcan0 00000001#3799B1 R
(413527.217000) vcan0 00000002#389AB2 R
(413527.452000) vcan0 00000001#399BB3 R
(413527.696000) vcan0 00000002#3A9CB4 R
(413527.932000) vcan0 00000001#3B9DB5 R
(413528.168000) vcan0 00000002#3C9EB6 R
(413528.410000) vcan0 00000001#3D9FB7 R
(413528.654000) vcan0 00000002#3EA0B8 R
(413528.890000) vcan0 00000001#3FA1B9 R
(413529.125000) vcan0 00000002#40A2BA R
(413529.363000) vcan0 00000001#41A3BB R
(413529.599000) vcan0 00000002#42A4BC R
(413529.843000) vcan0 00000001#43A5BD R
(413530.079000) vcan0 00000002#44A6BE R
(413530.317000) vcan0 00000001#45A7BF R
(413530.553000) vcan0 00000002#46A8C0 R
(413530.796000) vcan0 00000001#47A9C1 R
(413531.032000) vcan0 00000002#48AAC2 R
(413531.273000) vcan0 00000001#4955C3 R
(413531.509000) vcan0 00000002#4A56C4 R
(413531.753000) vcan0 00000001#4B57C5 R
(413531.989000) vcan0 00000002#4C58C6 R
(413532.230000) vcan0 00000001#4D59C7 R
(413532.466000) vcan0 00000002#4E5AC8 R
(413532.710000) vcan0 00000001#4F5BC9 R
(413532.946000) vcan0 00000002#505CCA R
(413533.182000) vcan0 00000001#515DCB R
(413533.423000) vcan0 00000002#525ECC R
(413533.667000) vcan0 00000001#535FCD R
(413533.902000) vcan0 00000002#5460CE R
(413534.138000) vcan0 00000001#0061CF R
(413534.380000) vcan0 00000002#0162D0 R
(413534.615000) vcan0 00000001#0263D1 R
(413534.859000) vcan0 00000002#0364D2 R
(413535.095000) vcan0 00000001#0465D3 R
(413535.333000) vcan0 00000002#0566D4 R
(413535.569000) vcan0 00000001#0667D5 R
(413535.812000) vcan0 00000002#0768D6 R
(413536.048000) vcan0 00000001#0869D7 R
(413536.290000) vcan0 00000002#096AD8 R
(413536.526000) vcan0 00000001#0A6BD9 R
(413536.769000) vcan0 00000002#0B6CDA R
(413537.005000) vcan0 00000001#0C6DDB R
(413537.247000) vcan0 00000002#0D6EDC R
(413537.483000) vcan0 00000001#0E6FDD R
(413537.727000) vcan0 00000002#0F70DE R
(413537.962000) vcan0 00000001#1071DF R
(413538.199000) vcan0 00000002#1172E0 R
(413538.439000) vcan0 00000001#1273E1 R
(413538.683000) vcan0 00000002#1374E2 R
(413538.919000) vcan0 00000001#1475E3 R
(413539.155000) vcan0 00000002#1576E4 R
(413539.396000) vcan0 00000001#1677E5 R
(413539.640000) vcan0 00000002#1778E6 R
(413539.875000) vcan0 00000001#1879E7 R
(413540.111000) vcan0 00000002#197AE8 R
(413540.349000) vcan0 00000001#1A7BE9 R
(413540.585000) vcan0 00000002#1B7CEA R
(413540.829000) vcan0 00000001#1C7DEB R
(413541.065000) vcan0 00000002#1D7EEC R
(413541.307000) vcan0 00000001#1E7FED R
(413541.543000) vcan0 00000002#1F80EE R
(413541.786000) vcan0 00000001#2081EF R
(413542.022000) vcan0 00000002#2182F0 R
(413542.263000) vcan0 00000001#2283F1 R
(413542.499000) vcan0 00000002#2384F2 R
(413542.743000) vcan0 00000001#2485F3 R
(413542.978000) vcan0 00000002#2586F4 R
(413543.217000) vcan0 00000001#2687F5 R
(413543.453000) vcan0 00000002#2788F6 R
(413543.697000) vcan0 00000001#2889F7 R
(413543.932000) vcan0 00000002#298AF8 R
(413544.168000) vcan0 00000001#2A8BF9 R
(413544.410000) vcan0 00000002#2B8CFA R
(413544.654000) vcan0 00000001#2C8DFB R
(413544.890000) vcan0 00000002#2D8EFC R
(413545.125000) vcan0 00000001#2E8FFD R
(413545.363000) vcan0 00000002#2F90FE R
(413545.599000) vcan0 00000001#3091FF R
(413545.843000) vcan0 00000002#319200 R
(413546.079000) vcan0 00000001#329301 R
(413546.317000) vcan0 00000002#339402 R
(413546.553000) vcan0 00000001#349503 R
(413546.796000) vcan0 00000002#359604 R
(413547.032000) vcan0 00000001#369705 R
(413547.273000) vcan0 00000002#379806 R
(413547.509000) vcan0 00000001#389907 R
(413547.753000) vcan0 00000002#399A08 R
(413547.989000) vcan0 00000001#3A9B09 R
(413548.230000) vcan0 00000002#3B9C0A R
(413548.466000) vcan0 00000001#3C9D0B R
(413548.710000) vcan0 00000002#3D9E0C R
(413548.946000) vcan0 00000001#3E9F0D R
(413549.182000) vcan0 00000002#3FA00E R
(413549.423000) vcan0 00000001#40A10F R
(413549.667000) vcan0 00000002#41A210 R
(413549.902000) vcan0 00000001#42A311 R
(413550.138000) vcan0 00000002#43A412 R
(413550.380000) vcan0 00000001#44A513 R
(413550.615000) vcan0 00000002#45A614 R
(413550.859000) vcan0 00000001#46A715 R
(413551.095000) vcan0 00000002#47A816 R
(413551.333000) vcan0 00000001#48A917 R
(413551.569000) vcan0 00000002#49AA18 R
(413551.812000) vcan0 00000001#4A5519 R
(413552.048000) vcan0 00000002#4B561A R
(413552.290000) vcan0 00000001#4C571B R
(413552.526000) vcan0 00000002#4D581C R
(413552.769000) vcan0 00000001#4E591D R
(413553.005000) vcan0 00000002#4F5A1E R
(413553.247000) vcan0 00000001#505B1F R
(413553.483000) vcan0 00000002#515C20 R
(413553.727000) vcan0 00000001#525D21 R
(413553.962000) vcan0 00000002#535E22 R
(413554.199000) vcan0 00000001#545F23 R
(413554.439000) vcan0 00000002#006024 R
(413554.683000) vcan0 00000001#016125 R
(413554.919000) vcan0 00000002#026226 R
(413555.154000) vcan0 00000001#036327 R
(413555.396000) vcan0 00000002#046428 R
(413555.640000) vcan0 00000001#056529 R
(413555.875000) vcan0 00000002#06662A R
(413556.111000) vcan0 00000001#07672B R
(413556.349000) vcan0 00000002#08682C R
(413556.585000) vcan0 00000001#09692D R
(413556.829000) vcan0 00000002#0A6A2E R
(413557.064000) vcan0 00000001#0B6B2F R
(413557.306000) vcan0 00000002#0C6C30 R
(413557.542000) vcan0 00000001#0D6D31 R
(413557.786000) vcan0 00000002#0E6E32 R
(413558.021000) vcan0 00000001#0F6F33 R
(413558.263000) vcan0 00000002#107034 R
(413558.499000) vcan0 00000001#117135 R
(413558.743000) vcan0 00000002#127236 R
(413558.979000) vcan0 00000001#137337 R
(413559.217000) vcan0 00000002#147438 R
(413559.452000) vcan0 00000001#157539 R
(413559.696000) vcan0 00000002#16763A R
(413559.932000) vcan0 00000001#17773B R
(413560.168000) vcan0 00000002#18783C R
(413560.410000) vcan0 00000001#19793D R
(413560.654000) vcan0 00000002#1A7A3E R
(413560.890000) vcan0 00000001#1B7B3F R
(413561.125000) vcan0 00000002#1C7C40 R
(413561.363000) vcan0 00000001#1D7D41 R
(413561.599000) vcan0 00000002#1E7E42 R
(413561.843000) vcan0 00000001#1F7F43 R
(413562.079000) vcan0 00000002#208044 R
(413562.317000) vcan0 00000001#218145 R
(413562.553000) vcan0 00000002#228246 R
(413562.796000) vcan0 00000001#238347 R
(413563.032000) vcan0 00000002#248448 R
(413563.273000) vcan0 00000001#258549 R
(413563.509000) vcan0 00000002#26864A R
(413563.753000) vcan0 00000001#27874B R
(413563.989000) vcan0 00000002#28884C R
(413564.230000) vcan0 00000001#29894D R
(413564.466000) vcan0 00000002#2A8A4E R
(413564.710000) vcan0 00000001#2B8B4F R
(413564.946000) vcan0 00000002#2C8C50 R
(413565.182000) vcan0 00000001#2D8D51 R
(413565.423000) vcan0 00000002#2E8E52 R
(413565.667000) vcan0 00000001#2F8F53 R
(413565.902000) vcan0 00000002#309054 R
(413566.138000) vcan0 00000001#319155 R
(413566.380000) vcan0 00000002#329256 R
(413566.615000) vcan0 00000001#339357 R
(413566.859000) vcan0 00000002#349458 R
(413567.095000) vcan0 00000001#359559 R
(413567.333000) vcan0 00000002#36965A R
(413567.569000) vcan0 00000001#37975B R
(413567.812000) vcan0 00000002#38985C R
(413568.048000) vcan0 00000001#39995D R
(413568.290000) vcan0 00000002#3A9A5E R
(413568.526000) vcan0 00000001#3B9B5F R
(413568.769000) vcan0 00000002#3C9C60 R
(413569.005000) vcan0 00000001#3D9D61 R
(413569.247000) vcan0 00000002#3E9E62 R
(413569.483000) vcan0 00000001#3F9F63 R
(413569.727000) vcan0 00000002#40A064 R
(413569.962000) vcan0 00000001#41A165 R
(413570.199000) vcan0 00000002#42A266 R
(413570.439000) vcan0 00000001#43A367 R
(413570.683000) vcan0 00000002#44A468 R
(413570.919000) vcan0 00000001#45A569 R
(413571.155000) vcan0 00000002#46A66A R
(413571.396000) vcan0 00000001#47A76B R
(413571.640000) vcan0 00000002#48A86C R
(413571.875000) vcan0 00000001#49A96D R
(413572.111000) vcan0 00000002#4AAA6E R
(413572.349000) vcan0 00000001#4B556F R
(413572.585000) vcan0 00000002#4C5670 R
(413572.829000) vcan0 00000001#4D5771 R
(413573.065000) vcan0 00000002#4E5872 R
(413573.307000) vcan0 00000001#4F5973 R
(413573.543000) vcan0 00000002#505A74 R
(413573.786000) vcan0 00000001#515B75 R
(413574.022000) vcan0 00000002#525C76 R
(413574.263000) vcan0 00000001#535D77 R
(413574.499000) vcan0 00000002#545E78 R
(413574.743000) vcan0 00000001#005F79 R
(413574.978000) vcan0 00000002#01607A R
(413575.217000) vcan0 00000001#02617B R
(413575.453000) vcan0 00000002#03627C R
(413575.697000) vcan0 00000001#04637D R
(413575.932000) vcan0 00000002#05647E R
(413576.168000) vcan0 00000001#06657F R
(413576.410000) vcan0 00000002#076680 R
(413576.654000) vcan0 00000001#086781 R
(413576.890000) vcan0 00000002#096882 R
(413577.125000) vcan0 00000001#0A6983 R
(413577.363000) vcan0 00000002#0B6A84 R
(413577.599000) vcan0 00000001#0C6B85 R
(413577.843000) vcan0 00000002#0D6C86 R
(413578.079000) vcan0 00000001#0E6D87 R
(413578.317000) vcan0 00000002#0F6E88 R
(413578.553000) vcan0 00000001#106F89 R
(413578.796000) vcan0 00000002#11708A R
(413579.032000) vcan0 00000001#12718B R
(413579.273000) vcan0 00000002#13728C R
(413579.509000) vcan0 00000001#14738D R
(413579.753000) vcan0 00000002#15748E R
(413579.989000) vcan0 00000001#16758F R
(413580.230000) vcan0 00000002#177690 R
(413580.466000) vcan0 00000001#187791 R
(413580.710000) vcan0 00000002#197892 R
(413580.946000) vcan0 00000001#1A7993 R
(413581.182000) vcan0 00000002#1B7A94 R
(413581.423000) vcan0 00000001#1C7B95 R
(413581.667000) vcan0 00000002#1D7C96 R
(413581.902000) vcan0 00000001#1E7D97 R
(413582.138000) vcan0 00000002#1F7E98 R
(413582.380000) vcan0 00000001#207F99 R
(413582.615000) vcan0 00000002#21809A R
(413582.859000) vcan0 00000001#22819B R
(413583.095000) vcan0 00000002#23829C R
(413583.333000) vcan0 00000001#24839D R
(413583.569000) vcan0 00000002#25849E R
(413583.812000) vcan0 00000001#26859F R
(413584.048000) vcan0 00000002#2786A0 R
(413584.290000) vcan0 00000001#2887A1 R
(413584.526000) vcan0 00000002#2988A2 R
(413584.769000) vcan0 00000001#2A89A3 R
(413585.005000) vcan0 00000002#2B8AA4 R
(413585.247000) vcan0 00000001#2C8BA5 R
(413585.482000) vcan0 00000002#2D8CA6 R
(413585.726000) vcan0 00000001#2E8DA7 R
(413585.962000) vcan0 00000002#2F8EA8 R
(413586.198000) vcan0 00000001#308FA9 R
(413586.439000) vcan0 00000002#3190AA R
(413586.683000) vcan0 00000001#3291AB R
(413586.919000) vcan0 00000002#3392AC R
(413587.155000) vcan0 00000001#3493AD R
(413587.396000) vcan0 00000002#3594AE R
(413587.640000) vcan0 00000001#3695AF R
(413587.876000) vcan0 00000002#3796B0 R
(413588.111000) vcan0 00000001#3897B1 R
(413588.349000) vcan0 00000002#3998B2 R
(413588.585000) vcan0 00000001#3A99B3 R
(413588.829000) vcan0 00000002#3B9AB4 R
(413589.065000) vcan0 00000001#3C9BB5 R
(413589.306000) vcan0 00000002#3D9CB6 R
(413589.542000) vcan0 00000001#3E9DB7 R
(413589.786000) vcan0 00000002#3F9EB8 R
(413590.022000) vcan0 00000001#409FB9 R
(413590.263000) vcan0 00000002#41A0BA R
(413590.499000) vcan0 00000001#42A1BB R
(413590.743000) vcan0 00000002#43A2BC R
(413590.979000) vcan0 00000001#44A3BD R
(413591.217000) vcan0 00000002#45A4BE R
(413591.452000) vcan0 00000001#46A5BF R
(413591.696000) vcan0 00000002#47A6C0 R
(413591.932000) vcan0 00000001#48A7C1 R
(413592.168000) vcan0 00000002#49A8C2 R
(413592.410000) vcan0 00000001#4AA9C3 R
(413592.654000) vcan0 00000002#4BAAC4 R
(413592.890000) vcan0 00000001#4C55C5 R
(413593.125000) vcan0 00000002#4D56C6 R
(413593.363000) vcan0 00000001#4E57C7 R
(413593.599000) vcan0 00000002#4F58C8 R
(413593.843000) vcan0 00000001#5059C9 R
(413594.079000) vcan0 00000002#515ACA R
(413594.317000) vcan0 00000001#525BCB R
(413594.553000) vcan0 00000002#535CCC R
(413594.796000) vcan0 00000001#545DCD R
(413595.032000) vcan0 00000002#005ECE R
(413595.273000) vcan0 00000001#015FCF R
(413595.509000) vcan0 00000002#0260D0 R
(413595.753000) vcan0 00000001#0361D1 R
(413595.989000) vcan0 00000002#0462D2 R
(413596.230000) vcan0 00000001#0563D3 R
(413596.466000) vcan0 00000002#0664D4 R
(413596.710000) vcan0 00000001#0765D5 R
(413596.946000) vcan0 00000002#0866D6 R
(413597.182000) vcan0 00000001#0967D7 R
(413597.423000) vcan0 00000002#0A68D8 R
(413597.667000) vcan0 00000001#0B69D9 R
(413597.902000) vcan0 00000002#0C6ADA R
(413598.138000) vcan0 00000001#0D6BDB R
(413598.380000) vcan0 00000002#0E6CDC R
(413598.615000) vcan0 00000001#0F6DDD R
(413598.859000) vcan0 00000002#106EDE R
(413599.095000) vcan0 00000001#116FDF R
(413599.333000) vcan0 00000002#1270E0 R
(413599.569000) vcan0 00000001#1371E1 R
(413599.812000) vcan0 00000002#1472E2 R
(413600.048000) vcan0 00000001#1573E3 R
(413600.290000) vcan0 00000002#1674E4 R
(413600.526000) vcan0 00000001#1775E5 R
(413600.769000) vcan0 00000002#1876E6 R
(413601.005000) vcan0 00000001#1977E7 R
(413601.247000) vcan0 00000002#1A78E8 R
(413601.483000) vcan0 00000001#1B79E9 R
(413601.727000) vcan0 00000002#1C7AEA R
(413601.962000) vcan0 00000001#1D7BEB R
(413602.199000) vcan0 00000002#1E7CEC R
(413602.439000) vcan0 00000001#1F7DED R
(413602.683000) vcan0 00000002#207EEE R
(413602.919000) vcan0 00000001#217FEF R
(413603.155000) vcan0 00000002#2280F0 R
(413603.396000) vcan0 00000001#2381F1 R
(413603.640000) vcan0 00000002#2482F2 R
(413603.875000) vcan0 00000001#2583F3 R
(413604.111000) vcan0 00000002#2684F4 R
(413604.349000) vcan0 00000001#2785F5 R
(413604.585000) vcan0 00000002#2886F6 R
(413604.829000) vcan0 00000001#2987F7 R
(413605.065000) vcan0 00000002#2A88F8 R
(413605.307000) vcan0 00000001#2B89F9 R
(413605.543000) vcan0 00000002#2C8AFA R
(413605.786000) vcan0 00000001#2D8BFB R
(413606.022000) vcan0 00000002#2E8CFC R
(413606.263000) vcan0 00000001#2F8DFD R
(413606.499000) vcan0 00000002#308EFE R
(413606.743000) vcan0 00000001#318FFF R
(413606.978000) vcan0 00000002#329000 R
(413607.217000) vcan0 00000001#339101 R
(413607.453000) vcan0 00000002#349202 R
(413607.697000) vcan0 00000001#359303 R
(413607.932000) vcan0 00000002#369404 R
(413608.168000) vcan0 00000001#379505 R
(413608.410000) vcan0 00000002#389606 R
(413608.654000) vcan0 00000001#399707 R
(413608.890000) vcan0 00000002#3A9808 R
(413609.125000) vcan0 00000001#3B9909 R
(413609.363000) vcan0 00000002#3C9A0A R
(413609.599000) vcan0 00000001#3D9B0B R
(413609.843000) vcan0 00000002#3E9C0C R
(413610.079000) vcan0 00000001#3F9D0D R
(413610.317000) vcan0 00000002#409E0E R
(413610.553000) vcan0 00000001#419F0F R
(413610.796000) vcan0 00000002#42A010 R
(413611.032000) vcan0 00000001#43A111 R
(413611.273000) vcan0 00000002#44A212 R
(413611.509000) vcan0 00000001#45A313 R
(413611.753000) vcan0 00000002#46A414 R
(413611.989000) vcan0 00000001#47A515 R
(413612.230000) vcan0 00000002#48A616 R
(413612.466000) vcan0 00000001#49A717 R
(413612.710000) vcan0 00000002#4AA818 R
(413612.946000) vcan0 00000001#4BA919 R
(413613.182000) vcan0 00000002#4CAA1A R
(413613.423000) vcan0 00000001#4D551B R
(413613.667000) vcan0 00000002#4E561C R
(413613.902000) vcan0 00000001#4F571D R
(413614.138000) vcan0 00000002#50581E R
(413614.380000) vcan0 00000001#51591F R
(413614.615000) vcan0 00000002#525A20 R
(413614.859000) vcan0 00000001#535B21 R
(413615.095000) vcan0 00000002#545C22 R
(413615.333000) vcan0 00000001#005D23 R
(413615.569000) vcan0 00000002#015E24 R
(413615.812000) vcan0 00000001#025F25 R
(413616.048000) vcan0 00000002#036026 R
(413616.290000) vcan0 00000001#046127 R
(413616.526000) vcan0 00000002#056228 R
(413616.769000) vcan0 00000001#066329 R
(413617.005000) vcan0 00000002#07642A R
(413617.247000) vcan0 00000001#08652B R
(413617.482000) vcan0 00000002#09662C R
(413617.726000) vcan0 00000001#0A672D R
(413617.962000) vcan0 00000002#0B682E R
(413618.198000) vcan0 00000001#0C692F R
(413618.439000) vcan0 00000002#0D6A30 R
(413618.683000) vcan0 00000001#0E6B31 R
(413618.919000) vcan0 00000002#0F6C32 R
(413619.155000) vcan0 00000001#106D33 R
(413619.396000) vcan0 00000002#116E34 R
(413619.640000) vcan0 00000001#126F35 R
(413619.876000) vcan0 00000002#137036 R
(413620.111000) vcan0 00000001#147137 R
(413620.349000) vcan0 00000002#157238 R
(413620.585000) vcan0 00000001#167339 R
(413620.829000) vcan0 00000002#17743A R
(413621.065000) vcan0 00000001#18753B R
(413621.306000) vcan0 00000002#19763C R
(413621.542000) vcan0 00000001#1A773D R
(413621.786000) vcan0 00000002#1B783E R
(413622.022000) vcan0 00000001#1C793F R
(413622.263000) vcan0 00000002#1D7A40 R
(413622.499000) vcan0 00000001#1E7B41 R
(413622.743000) vcan0 00000002#1F7C42 R
(413622.979000) vcan0 00000001#207D43 R
(413623.217000) vcan0 00000002#217E44 R
(413623.452000) vcan0 00000001#227F45 R
(413623.696000) vcan0 00000002#238046 R
(413623.932000) vcan0 00000001#248147 R
(413624.168000) vcan0 00000002#258248 R
(413624.410000) vcan0 00000001#268349 R
(413624.654000) vcan0 00000002#27844A R
(413624.890000) vcan0 00000001#28854B R
(413625.125000) vcan0 00000002#29864C R
(413625.363000) vcan0 00000001#2A874D R
(413625.599000) vcan0 00000002#2B884E R
(413625.843000) vcan0 00000001#2C894F R
(413626.079000) vcan0 00000002#2D8A50 R
(413626.317000) vcan0 00000001#2E8B51 R
(413626.553000) vcan0 00000002#2F8C52 R
(413626.796000) vcan0 00000001#308D53 R
(413627.032000) vcan0 00000002#318E54 R
(413627.273000) vcan0 00000001#328F55 R
(413627.509000) vcan0 00000002#339056 R
(413627.753000) vcan0 00000001#349157 R
(413627.989000) vcan0 00000002#359258 R
(413628.230000) vcan0 00000001#369359 R
(413628.466000) vcan0 00000002#37945A R
(413628.710000) vcan0 00000001#38955B R
(413628.946000) vcan0 00000002#39965C R
(413629.182000) vcan0 00000001#3A975D R
(413629.423000) vcan0 00000002#3B985E R
(413629.667000) vcan0 00000001#3C995F R
(413629.902000) vcan0 00000002#3D9A60 R
(413630.138000) vcan0 00000001#3E9B61 R
(413630.380000) vcan0 00000002#3F9C62 R
(413630.615000) vcan0 00000001#409D63 R
(413630.859000) vcan0 00000002#419E64 R
(413631.095000) vcan0 00000001#429F65 R
(413631.333000) vcan0 00000002#43A066 R
(413631.569000) vcan0 00000001#44A167 R
(413631.812000) vcan0 00000002#45A268 R
(413632.048000) vcan0 00000001#46A369 R
(413632.290000) vcan0 00000002#47A46A R
(413632.526000) vcan0 00000001#48A56B R
(413632.769000) vcan0 00000002#49A66C R
(413633.005000) vcan0 00000001#4AA76D R
(413633.247000) vcan0 00000002#4BA86E R
(413633.483000) vcan0 00000001#4CA96F R
(413633.727000) vcan0 00000002#4DAA70 R
(413633.962000) vcan0 00000001#4E5571 R
(413634.199000) vcan0 00000002#4F5672 R
(413634.439000) vcan0 00000001#505773 R
(413634.683000) vcan0 00000002#515874 R
(413634.919000) vcan0 00000001#525975 R
(413635.155000) vcan0 00000002#535A76 R
(413635.396000) vcan0 00000001#545B77 R
(413635.640000) vcan0 00000002#005C78 R
(413635.875000) vcan0 00000001#015D79 R
(413636.111000) vcan0 00000002#025E7A R
(413636.349000) vcan0 00000001#035F7B R
(413636.585000) vcan0 00000002#04607C R
(413636.829000) vcan0 00000001#05617D R
(413637.064000) vcan0 00000002#06627E R
(413637.306000) vcan0 00000001#07637F R
(413637.542000) vcan0 00000002#086480 R
(413637.786000) vcan0 00000001#096581 R
(413638.021000) vcan0 00000002#0A6682 R
(413638.263000) vcan0 00000001#0B6783 R
(413638.499000) vcan0 00000002#0C6884 R
(413638.743000) vcan0 00000001#0D6985 R
(413638.979000) vcan0 00000002#0E6A86 R
(413639.217000) vcan0 00000001#0F6B87 R
(413639.452000) vcan0 00000002#106C88 R
(413639.696000) vcan0 00000001#116D89 R
(413639.932000) vcan0 00000002#126E8A R
(413640.168000) vcan0 00000001#136F8B R
(413640.410000) vcan0 00000002#14708C R
(413640.654000) vcan0 00000001#15718D R
(413640.889000) vcan0 00000002#16728E R
(413641.125000) vcan0 00000001#17738F R
(413641.363000) vcan0 00000002#187490 R
(413641.599000) vcan0 00000001#197591 R
(413641.843000) vcan0 00000002#1A7692 R
(413642.078000) vcan0 00000001#1B7793 R
(413642.316000) vcan0 00000002#1C7894 R
(413642.552000) vcan0 00000001#1D7995 R
(413642.796000) vcan0 00000002#1E7A96 R
(413643.032000) vcan0 00000001#1F7B97 R
(413643.273000) vcan0 00000002#207C98 R
(413643.509000) vcan0 00000001#217D99 R
(413643.753000) vcan0 00000002#227E9A R
(413643.989000) vcan0 00000001#237F9B R
(413644.230000) vcan0 00000002#24809C R
(413644.466000) vcan0 00000001#25819D R
(413644.710000) vcan0 00000002#26829E R
(413644.946000) vcan0 00000001#27839F R
(413645.182000) vcan0 00000002#2884A0 R
(413645.424000) vcan0 00000001#2985A1 R
(413645.668000) vcan0 00000002#2A86A2 R
(413645.903000) vcan0 00000001#2B87A3 R
(413646.139000) vcan0 00000002#2C88A4 R
(413646.379000) vcan0 00000001#2D89A5 R
(413646.615000) vcan0 00000002#2E8AA6 R
(413646.859000) vcan0 00000001#2F8BA7 R
(413647.095000) vcan0 00000002#308CA8 R
(413647.333000) vcan0 00000001#318DA9 R
(413647.569000) vcan0 00000002#328EAA R
(413647.812000) vcan0 00000001#338FAB R
(413648.048000) vcan0 00000002#3490AC R
(413648.290000) vcan0 00000001#3591AD R
(413648.526000) vcan0 00000002#3692AE R
(413648.769000) vcan0 00000001#3793AF R
(413649.005000) vcan0 00000002#3894B0 R
(413649.247000) vcan0 00000001#3995B1 R
(413649.483000) vcan0 00000002#3A96B2 R
(413649.727000) vcan0 00000001#3B97B3 R
(413649.962000) vcan0 00000002#3C98B4 R
(413650.199000) vcan0 00000001#3D99B5 R
(413650.439000) vcan0 00000002#3E9AB6 R
(413650.683000) vcan0 00000001#3F9BB7 R
(413650.919000) vcan0 00000002#409CB8 R
(413651.154000) vcan0 00000001#419DB9 R
(413651.396000) vcan0 00000002#429EBA R
(413651.640000) vcan0 00000001#439FBB R
(413651.876000) vcan0 00000002#44A0BC R
(413652.111000) vcan0 00000001#45A1BD R
(413652.349000) vcan0 00000002#46A2BE R
(413652.585000) vcan0 00000001#47A3BF R
(413652.829000) vcan0 00000002#48A4C0 R
(413653.064000) vcan0 00000001#49A5C1 R
(413653.306000) vcan0 00000002#4AA6C2 R
(413653.542000) vcan0 00000001#4BA7C3 R
(413653.785000) vcan0 00000002#4CA8C4 R
(413654.021000) vcan0 00000001#4DA9C5 R
(413654.263000) vcan0 00000002#4EAAC6 R
(413654.499000) vcan0 00000001#4F55C7 R
(413654.743000) vcan0 00000002#5056C8 R
(413654.978000) vcan0 00000001#5157C9 R
(413655.217000) vcan0 00000002#5258CA R
(413655.453000) vcan0 00000001#5359CB R
(413655.696000) vcan0 00000002#545ACC R
(413655.932000) vcan0 00000001#005BCD R
(413656.168000) vcan0 00000002#015CCE R
(413656.409000) vcan0 00000001#025DCF R
(413656.653000) vcan0 00000002#035ED0 R
(413656.889000) vcan0 00000001#045FD1 R
(413657.125000) vcan0 00000002#0560D2 R
(413657.363000) vcan0 00000001#0661D3 R
(413657.599000) vcan0 00000002#0762D4 R
(413657.843000) vcan0 00000001#0863D5 R
(413658.078000) vcan0 00000002#0964D6 R
(413658.316000) vcan0 00000001#0A65D7 R
(413658.552000) vcan0 00000002#0B66D8 R
(413658.796000) vcan0 00000001#0C67D9 R
(413659.032000) vcan0 00000002#0D68DA R
(413659.273000) vcan0 00000001#0E69DB R
(413659.509000) vcan0 00000002#0F6ADC R
(413659.753000) vcan0 00000001#106BDD R
(413659.989000) vcan0 00000002#116CDE R
(413660.230000) vcan0 00000001#126DDF R
(413660.466000) vcan0 00000002#136EE0 R
(413660.710000) vcan0 00000001#146FE1 R
(413660.946000) vcan0 00000002#1570E2 R
(413661.182000) vcan0 00000001#1671E3 R
(413661.423000) vcan0 00000002#1772E4 R
(413661.667000) vcan0 00000001#1873E5 R
(413661.902000) vcan0 00000002#1974E6 R
(413662.138000) vcan0 00000001#1A75E7 R
(413662.380000) vcan0 00000002#1B76E8 R
(413662.615000) vcan0 00000001#1C77E9 R
(413662.859000) vcan0 00000002#1D78EA R
(413663.095000) vcan0 00000001#1E79EB R
(413663.333000) vcan0 00000002#1F7AEC R
(413663.569000) vcan0 00000001#207BED R
(413663.812000) vcan0 00000002#217CEE R
(413664.048000) vcan0 00000001#227DEF R
(413664.290000) vcan0 00000002#237EF0 R
(413664.526000) vcan0 00000001#247FF1 R
(413664.769000) vcan0 00000002#2580F2 R
(413665.005000) vcan0 00000001#2681F3 R
(413665.247000) vcan0 00000002#2782F4 R
(413665.483000) vcan0 00000001#2883F5 R
(413665.727000) vcan0 00000002#2984F6 R
(413665.962000) vcan0 00000001#2A85F7 R
(413666.199000) vcan0 00000002#2B86F8 R
(413666.439000) vcan0 00000001#2C87F9 R
(413666.683000) vcan0 00000002#2D88FA R
(413666.919000) vcan0 00000001#2E89FB R
(413667.155000) vcan0 00000002#2F8AFC R
(413667.396000) vcan0 00000001#308BFD R
(413667.640000) vcan0 00000002#318CFE R
(413667.875000) vcan0 00000001#328DFF R
(413668.111000) vcan0 00000002#338E00 R
(413668.349000) vcan0 00000001#348F01 R
(413668.585000) vcan0 00000002#359002 R
(413668.829000) vcan0 00000001#369103 R
(413669.065000) vcan0 00000002#379204 R
(413669.307000) vcan0 00000001#389305 R
(413669.543000) vcan0 00000002#399406 R
(413669.786000) vcan0 00000001#3A9507 R
(413670.022000) vcan0 00000002#3B9608 R
(413670.263000) vcan0 00000001#3C9709 R
(413670.499000) vcan0 00000002#3D980A R
(413670.743000) vcan0 00000001#3E990B R
(413670.978000) vcan0 00000002#3F9A0C R
(413671.217000) vcan0 00000001#409B0D R
(413671.453000) vcan0 00000002#419C0E R
(413671.697000) vcan0 00000001#429D0F R
(413671.932000) vcan0 00000002#439E10 R
(413672.168000) vcan0 00000001#449F11 R
(413672.410000) vcan0 00000002#45A012 R
(413672.654000) vcan0 00000001#46A113 R
(413672.890000) vcan0 00000002#47A214 R
(413673.125000) vcan0 00000001#48A315 R
(413673.363000) vcan0 00000002#49A416 R
(413673.599000) vcan0 00000001#4AA517 R
(413673.843000) vcan0 00000002#4BA618 R
(413674.079000) vcan0 00000001#4CA719 R
(413674.317000) vcan0 00000002#4DA81A R
(413674.553000) vcan0 00000001#4EA91B R
(413674.796000) vcan0 00000002#4FAA1C R
(413675.032000) vcan0 00000001#50551D R
(413675.273000) vcan0 00000002#51561E R
(413675.509000) vcan0 00000001#52571F R
(413675.753000) vcan0 00000002#535820 R
(413675.989000) vcan0 00000001#545921 R
(413676.230000) vcan0 00000002#005A22 R
(413676.466000) vcan0 00000001#015B23 R
(413676.710000) vcan0 00000002#025C24 R
(413676.946000) vcan0 00000001#035D25 R
(413677.182000) vcan0 00000002#045E26 R
(413677.423000) vcan0 00000001#055F27 R
(413677.667000) vcan0 00000002#066028 R
(413677.902000) vcan0 00000001#076129 R
(413678.138000) vcan0 00000002#08622A R
(413678.380000) vcan0 00000001#09632B R
(413678.615000) vcan0 00000002#0A642C R
(413678.859000) vcan0 00000001#0B652D R
(413679.095000) vcan0 00000002#0C662E R
(413679.333000) vcan0 00000001#0D672F R
(413679.568000) vcan0 00000002#0E6830 R
(413679.812000) vcan0 00000001#0F6931 R
(413680.048000) vcan0 00000002#106A32 R
(413680.290000) vcan0 00000001#116B33 R
(413680.526000) vcan0 00000002#126C34 R
(413680.769000) vcan0 00000001#136D35 R
(413681.005000) vcan0 00000002#146E36 R
(413681.247000) vcan0 00000001#156F37 R
(413681.483000) vcan0 00000002#167038 R
(413681.727000) vcan0 00000001#177139 R
(413681.962000) vcan0 00000002#18723A R
(413682.199000) vcan0 00000001#19733B R
(413682.439000) vcan0 00000002#1A743C R
(413682.683000) vcan0 00000001#1B753D R
(413682.919000) vcan0 00000002#1C763E R
(413683.155000) vcan0 00000001#1D773F R
(413683.396000) vcan0 00000002#1E7840 R
(413683.640000) vcan0 00000001#1F7941 R
(413683.875000) vcan0 00000002#207A42 R
(413684.111000) vcan0 00000001#217B43 R
(413684.349000) vcan0 00000002#227C44 R
(413684.585000) vcan0 00000001#237D45 R
(413684.829000) vcan0 00000002#247E46 R
(413685.064000) vcan0 00000001#257F47 R
(413685.306000) vcan0 00000002#268048 R
(413685.542000) vcan0 00000001#278149 R
(413685.786000) vcan0 00000002#28824A R
(413686.021000) vcan0 00000001#29834B R
(413686.263000) vcan0 00000002#2A844C R
(413686.499000) vcan0 00000001#2B854D R
(413686.743000) vcan0 00000002#2C864E R
(413686.979000) vcan0 00000001#2D874F R
(413687.217000) vcan0 00000002#2E8850 R
(413687.452000) vcan0 00000001#2F8951 R
(413687.696000) vcan0 00000002#308A52 R
(413687.932000) vcan0 00000001#318B53 R
(413688.168000) vcan0 00000002#328C54 R
(413688.410000) vcan0 00000001#338D55 R
(413688.654000) vcan0 00000002#348E56 R
(413688.890000) vcan0 00000001#358F57 R
(413689.125000) vcan0 00000002#369058 R
(413689.363000) vcan0 00000001#379159 R
(413689.599000) vcan0 00000002#38925A R
(413689.843000) vcan0 00000001#39935B R
(413690.079000) vcan0 00000002#3A945C R
(413690.317000) vcan0 00000001#3B955D R
(413690.553000) vcan0 00000002#3C965E R
(413690.796000) vcan0 00000001#3D975F R
(413691.032000) vcan0 00000002#3E9860 R
(413691.273000) vcan0 00000001#3F9961 R
(413691.509000) vcan0 00000002#409A62 R
(413691.753000) vcan0 00000001#419B63 R
(413691.989000) vcan0 00000002#429C64 R
(413692.230000) vcan0 00000001#439D65 R
(413692.466000) vcan0 00000002#449E66 R
(413692.710000) vcan0 00000001#459F67 R
(413692.946000) vcan0 00000002#46A068 R
(413693.182000) vcan0 00000001#47A169 R
(413693.423000) vcan0 00000002#48A26A R
(413693.667000) vcan0 00000001#49A36B R
(413693.902000) vcan0 00000002#4AA46C R
(413694.138000) vcan0 00000001#4BA56D R
(413694.380000) vcan0 00000002#4CA66E R
(413694.615000) vcan0 00000001#4DA76F R
(413694.859000) vcan0 00000002#4EA870 R
(413695.095000) vcan0 00000001#4FA971 R
(413695.333000) vcan0 00000002#50AA72 R
(413695.569000) vcan0 00000001#515573 R
(413695.812000) vcan0 00000002#525674 R
(413696.048000) vcan0 00000001#535775 R
(413696.290000) vcan0 00000002#545876 R
(413696.525000) vcan0 00000001#005977 R
(413696.769000) vcan0 00000002#015A78 R
(413697.005000) vcan0 00000001#025B79 R
(413697.247000) vcan0 00000002#035C7A R
(413697.482000) vcan0 00000001#045D7B R
(413697.726000) vcan0 00000002#055E7C R
(413697.962000) vcan0 00000001#065F7D R
(413698.198000) vcan0 00000002#07607E R
(413698.439000) vcan0 00000001#08617F R
(413698.683000) vcan0 00000002#096280 R
(413698.919000) vcan0 00000001#0A6381 R
(413699.155000) vcan0 00000002#0B6482 R
(413699.396000) vcan0 00000001#0C6583 R
(413699.640000) vcan0 00000002#0D6684 R
(413699.875000) vcan0 00000001#0E6785 R
(413700.111000) vcan0 00000002#0F6886 R
(413700.349000) vcan0 00000001#106987 R
(413700.585000) vcan0 00000002#116A88 R
(413700.829000) vcan0 00000001#126B89 R
(413701.065000) vcan0 00000002#136C8A R
(413701.307000) vcan0 00000001#146D8B R
(413701.543000) vcan0 00000002#156E8C R
(413701.786000) vcan0 00000001#166F8D R
(413702.022000) vcan0 00000002#17708E R
(413702.263000) vcan0 00000001#18718F R
(413702.499000) vcan0 00000002#197290 R
(413702.743000) vcan0 00000001#1A7391 R
(413702.978000) vcan0 00000002#1B7492 R
(413703.217000) vcan0 00000001#1C7593 R
(413703.453000) vcan0 00000002#1D7694 R
(413703.697000) vcan0 00000001#1E7795 R
(413703.932000) vcan0 00000002#1F7896 R
(413704.168000) vcan0 00000001#207997 R
(413704.410000) vcan0 00000002#217A98 R
(413704.654000) vcan0 00000001#227B99 R
(413704.890000) vcan0 00000002#237C9A R
(413705.125000) vcan0 00000001#247D9B R
(413705.363000) vcan0 00000002#257E9C R
(413705.599000) vcan0 00000001#267F9D R
(413705.843000) vcan0 00000002#27809E R
(413706.079000) vcan0 00000001#28819F R
(413706.317000) vcan0 00000002#2982A0 R
(413706.553000) vcan0 00000001#2A83A1 R
(413706.796000) vcan0 00000002#2B84A2 R
(413707.032000) vcan0 00000001#2C85A3 R
(413707.273000) vcan0 00000002#2D86A4 R
(413707.509000) vcan0 00000001#2E87A5 R
(413707.753000) vcan0 00000002#2F88A6 R
(413707.989000) vcan0 00000001#3089A7 R
(413708.230000) vcan0 00000002#318AA8 R
(413708.466000) vcan0 00000001#328BA9 R
(413708.710000) vcan0 00000002#338CAA R
(413708.946000) vcan0 00000001#348DAB R
(413709.182000) vcan0 00000002#358EAC R
(413709.423000) vcan0 00000001#368FAD R
(413709.667000) vcan0 00000002#3790AE R
(413709.902000) vcan0 00000001#3891AF R
(413710.138000) vcan0 00000002#3992B0 R
(413710.380000) vcan0 00000001#3A93B1 R
(413710.615000) vcan0 00000002#3B94B2 R
(413710.859000) vcan0 00000001#3C95B3 R
(413711.095000) vcan0 00000002#3D96B4 R
(413711.333000) vcan0 00000001#3E97B5 R
(413711.569000) vcan0 00000002#3F98B6 R
(413711.812000) vcan0 00000001#4099B7 R
(413712.048000) vcan0 00000002#419AB8 R
(413712.290000) vcan0 00000001#429BB9 R
(413712.526000) vcan0 00000002#439CBA R
(413712.769000) vcan0 00000001#449DBB R
(413713.005000) vcan0 00000002#459EBC R
(413713.247000) vcan0 00000001#469FBD R
(413713.482000) vcan0 00000002#47A0BE R
(413713.726000) vcan0 00000001#48A1BF R
(413713.962000) vcan0 00000002#49A2C0 R
(413714.198000) vcan0 00000001#4AA3C1 R
(413714.439000) vcan0 00000002#4BA4C2 R
(413714.683000) vcan0 00000001#4CA5C3 R
(413714.919000) vcan0 00000002#4DA6C4 R
(413715.155000) vcan0 00000001#4EA7C5 R
(413715.396000) vcan0 00000002#4FA8C6 R
(413715.640000) vcan0 00000001#50A9C7 R
(413715.876000) vcan0 00000002#51AAC8 R
(413716.111000) vcan0 00000001#5255C9 R
(413716.349000) vcan0 00000002#5356CA R
(413716.585000) vcan0 00000001#5457CB R
(413716.829000) vcan0 00000002#0058CC R
(413717.064000) vcan0 00000001#0159CD R
(413717.306000) vcan0 00000002#025ACE R
(413717.542000) vcan0 00000001#035BCF R
(413717.785000) vcan0 00000002#045CD0 R
(413718.021000) vcan0 00000001#055DD1 R
(413718.263000) vcan0 00000002#065ED2 R
(413718.499000) vcan0 00000001#075FD3 R
(413718.743000) vcan0 00000002#0860D4 R
(413718.979000) vcan0 00000001#0961D5 R
(413719.217000) vcan0 00000002#0A62D6 R
(413719.453000) vcan0 00000001#0B63D7 R
(413719.697000) vcan0 00000002#0C64D8 R
(413719.932000) vcan0 00000001#0D65D9 R
(413720.168000) vcan0 00000002#0E66DA R
(413720.410000) vcan0 00000001#0F67DB R
(413720.654000) vcan0 00000002#1068DC R
(413720.890000) vcan0 00000001#1169DD R
(413721.125000) vcan0 00000002#126ADE R
(413721.363000) vcan0 00000001#136BDF R
(413721.599000) vcan0 00000002#146CE0 R
(413721.843000) vcan0 00000001#156DE1 R
(413722.079000) vcan0 00000002#166EE2 R
(413722.317000) vcan0 00000001#176FE3 R
(413722.553000) vcan0 00000002#1870E4 R
(413722.796000) vcan0 00000001#1971E5 R
(413723.032000) vcan0 00000002#1A72E6 R
(413723.273000) vcan0 00000001#1B73E7 R
(413723.509000) vcan0 00000002#1C74E8 R
(413723.753000) vcan0 00000001#1D75E9 R
(413723.989000) vcan0 00000002#1E76EA R
(413724.230000) vcan0 00000001#1F77EB R
(413724.466000) vcan0 00000002#2078EC R
(413724.710000) vcan0 00000001#2179ED R
(413724.946000) vcan0 00000002#227AEE R
(413725.182000) vcan0 00000001#237BEF R
(413725.423000) vcan0 00000002#247CF0 R
(413725.667000) vcan0 00000001#257DF1 R
(413725.902000) vcan0 00000002#267EF2 R
(413726.138000) vcan0 00000001#277FF3 R
(413726.380000) vcan0 00000002#2880F4 R
(413726.615000) vcan0 00000001#2981F5 R
(413726.859000) vcan0 00000002#2A82F6 R
(413727.095000) vcan0 00000001#2B83F7 R
(413727.333000) vcan0 00000002#2C84F8 R
(413727.569000) vcan0 00000001#2D85F9 R
(413727.812000) vcan0 00000002#2E86FA R
(413728.048000) vcan0 00000001#2F87FB R
(413728.290000) vcan0 00000002#3088FC R
(413728.526000) vcan0 00000001#3189FD R
(413728.769000) vcan0 00000002#328AFE R
(413729.005000) vcan0 00000001#338BFF R
(413729.247000) vcan0 00000002#348C00 R
(413729.483000) vcan0 00000001#358D01 R
(413729.727000) vcan0 00000002#368E02 R
(413729.962000) vcan0 00000001#378F03 R
(413730.199000) vcan0 00000002#389004 R
(413730.439000) vcan0 00000001#399105 R
(413730.683000) vcan0 00000002#3A9206 R
(413730.919000) vcan0 00000001#3B9307 R
(413731.155000) vcan0 00000002#3C9408 R
(413731.396000) vcan0 00000001#3D9509 R
(413731.640000) vcan0 00000002#3E960A R
(413731.875000) vcan0 00000001#3F970B R
(413732.111000) vcan0 00000002#40980C R
(413732.349000) vcan0 00000001#41990D R
(413732.585000) vcan0 00000002#429A0E R
(413732.829000) vcan0 00000001#439B0F R
(413733.065000) vcan0 00000002#449C10 R
(413733.307000) vcan0 00000001#459D11 R
(413733.543000) vcan0 00000002#469E12 R
(413733.786000) vcan0 00000001#479F13 R
(413734.022000) vcan0 00000002#48A014 R
(413734.263000) vcan0 00000001#49A115 R
(413734.499000) vcan0 00000002#4AA216 R
(413734.743000) vcan0 00000001#4BA317 R
(413734.978000) vcan0 00000002#4CA418 R
(413735.217000) vcan0 00000001#4DA519 R
(413735.453000) vcan0 00000002#4EA61A R
(413735.697000) vcan0 00000001#4FA71B R
(413735.932000) vcan0 00000002#50A81C R
(413736.168000) vcan0 00000001#51A91D R
(413736.410000) vcan0 00000002#52AA1E R
(413736.654000) vcan0 00000001#53551F R
(413736.890000) vcan0 00000002#545620 R
(413737.125000) vcan0 00000001#005721 R
(413737.363000) vcan0 00000002#015822 R
(413737.599000) vcan0 00000001#025923 R
(413737.843000) vcan0 00000002#035A24 R
(413738.079000) vcan0 00000001#045B25 R
(413738.317000) vcan0 00000002#055C26 R
(413738.553000) vcan0 00000001#065D27 R
(413738.796000) vcan0 00000002#075E28 R
(413739.032000) vcan0 00000001#085F29 R
(413739.273000) vcan0 00000002#09602A R
(413739.509000) vcan0 00000001#0A612B R
(413739.753000) vcan0 00000002#0B622C R
(413739.989000) vcan0 00000001#0C632D R
(413740.230000) vcan0 00000002#0D642E R
(413740.466000) vcan0 00000001#0E652F R
(413740.710000) vcan0 00000002#0F6630 R
(413740.946000) vcan0 00000001#106731 R
(413741.182000) vcan0 00000002#116832 R
(413741.423000) vcan0 00000001#126933 R
(413741.667000) vcan0 00000002#136A34 R
(413741.902000) vcan0 00000001#146B35 R
(413742.138000) vcan0 00000002#156C36 R
(413742.380000) vcan0 00000001#166D37 R
(413742.615000) vcan0 00000002#176E38 R
(413742.859000) vcan0 00000001#186F39 R
(413743.095000) vcan0 00000002#19703A R
(413743.333000) vcan0 00000001#1A713B R
(413743.569000) vcan0 00000002#1B723C R
(413743.812000) vcan0 00000001#1C733D R
(413744.048000) vcan0 00000002#1D743E R
(413744.290000) vcan0 00000001#1E753F R
(413744.526000) vcan0 00000002#1F7640 R
(413744.769000) vcan0 00000001#207741 R
(413745.005000) vcan0 00000002#217842 R
(413745.247000) vcan0 00000001#227943 R
(413745.482000) vcan0 00000002#237A44 R
(413745.726000) vcan0 00000001#247B45 R
(413745.962000) vcan0 00000002#257C46 R
(413746.198000) vcan0 00000001#267D47 R
(413746.439000) vcan0 00000002#277E48 R
(413746.683000) vcan0 00000001#287F49 R
(413746.919000) vcan0 00000002#29804A R
(413747.155000) vcan0 00000001#2A814B R
(413747.396000) vcan0 00000002#2B824C R
(413747.640000) vcan0 00000001#2C834D R
(413747.876000) vcan0 00000002#2D844E R
(413748.111000) vcan0 00000001#2E854F R
(413748.349000) vcan0 00000002#2F8650 R
(413748.585000) vcan0 00000001#308751 R
(413748.829000) vcan0 00000002#318852 R
(413749.065000) vcan0 00000001#328953 R
(413749.306000) vcan0 00000002#338A54 R
(413749.542000) vcan0 00000001#348B55 R
(413749.786000) vcan0 00000002#358C56 R
(413750.022000) vcan0 00000001#368D57 R
(413750.263000) vcan0 00000002#378E58 R
(413750.499000) vcan0 00000001#388F59 R
(413750.743000) vcan0 00000002#39905A R
(413750.979000) vcan0 00000001#3A915B R
(413751.217000) vcan0 00000002#3B925C R
(413751.452000) vcan0 00000001#3C935D R
(413751.696000) vcan0 00000002#3D945E R
(413751.932000) vcan0 00000001#3E955F R
(413752.168000) vcan0 00000002#3F9660 R
(413752.410000) vcan0 00000001#409761 R
(413752.654000) vcan0 00000002#419862 R
(413752.890000) vcan0 00000001#429963 R
(413753.125000) vcan0 00000002#439A64 R
(413753.363000) vcan0 00000001#449B65 R
(413753.599000) vcan0 00000002#459C66 R
(413753.843000) vcan0 00000001#469D67 R
(413754.079000) vcan0 00000002#479E68 R
(413754.317000) vcan0 00000001#489F69 R
(413754.553000) vcan0 00000002#49A06A R
(413754.796000) vcan0 00000001#4AA16B R
(413755.032000) vcan0 00000002#4BA26C R
(413755.273000) vcan0 00000001#4CA36D R
(413755.509000) vcan0 00000002#4DA46E R
(413755.753000) vcan0 00000001#4EA56F R
(413755.989000) vcan0 00000002#4FA670 R
(413756.230000) vcan0 00000001#50A771 R
(413756.466000) vcan0 00000002#51A872 R
(413756.710000) vcan0 00000001#52A973 R
(413756.946000) vcan0 00000002#53AA74 R
(413757.182000) vcan0 00000001#545575 R
(413757.423000) vcan0 00000002#005676 R
(413757.667000) vcan0 00000001#015777 R
(413757.902000) vcan0 00000002#025878 R
(413758.138000) vcan0 00000001#035979 R
(413758.380000) vcan0 00000002#045A7A R
(413758.615000) vcan0 00000001#055B7B R
(413758.859000) vcan0 00000002#065C7C R
(413759.095000) vcan0 00000001#075D7D R
(413759.333000) vcan0 00000002#085E7E R
(413759.569000) vcan0 00000001#095F7F R
(413759.812000) vcan0 00000002#0A6080 R
(413760.048000) vcan0 00000001#0B6181 R
(413760.290000) vcan0 00000002#0C6282 R
(413760.526000) vcan0 00000001#0D6383 R
(413760.769000) vcan0 00000002#0E6484 R
(413761.005000) vcan0 00000001#0F6585 R
(413761.247000) vcan0 00000002#106686 R
(413761.483000) vcan0 00000001#116787 R
(413761.727000) vcan0 00000002#126888 R
(413761.962000) vcan0 00000001#136989 R
(413762.199000) vcan0 00000002#146A8A R
(413762.439000) vcan0 00000001#156B8B R
(413762.683000) vcan0 00000002#166C8C R
(413762.919000) vcan0 00000001#176D8D R
(413763.155000) vcan0 00000002#186E8E R
(413763.396000) vcan0 00000001#196F8F R
(413763.640000) vcan0 00000002#1A7090 R
(413763.875000) vcan0 00000001#1B7191 R
(413764.111000) vcan0 00000002#1C7292 R
(413764.349000) vcan0 00000001#1D7393 R
(413764.585000) vcan0 00000002#1E7494 R
(413764.829000) vcan0 00000001#1F7595 R
(413765.065000) vcan0 00000002#207696 R
(413765.307000) vcan0 00000001#217797 R
(413765.543000) vcan0 00000002#227898 R
(413765.786000) vcan0 00000001#237999 R
(413766.022000) vcan0 00000002#247A9A R
(413766.263000) vcan0 00000001#257B9B R
(413766.499000) vcan0 00000002#267C9C R
(413766.743000) vcan0 00000001#277D9D R
(413766.978000) vcan0 00000002#287E9E R
(413767.217000) vcan0 00000001#297F9F R
(413767.453000) vcan0 00000002#2A80A0 R
(413767.697000) vcan0 00000001#2B81A1 R
(413767.932000) vcan0 00000002#2C82A2 R
(413768.168000) vcan0 00000001#2D83A3 R
(413768.410000) vcan0 00000002#2E84A4 R
(413768.654000) vcan0 00000001#2F85A5 R
(413768.890000) vcan0 00000002#3086A6 R
(413769.125000) vcan0 00000001#3187A7 R
(413769.363000) vcan0 00000002#3288A8 R
(413769.599000) vcan0 00000001#3389A9 R
(413769.843000) vcan0 00000002#348AAA R
(413770.079000) vcan0 00000001#358BAB R
(413770.317000) vcan0 00000002#368CAC R
(413770.553000) vcan0 00000001#378DAD R
(413770.796000) vcan0 00000002#388EAE R
(413771.032000) vcan0 00000001#398FAF R
(413771.273000) vcan0 00000002#3A90B0 R
(413771.509000) vcan0 00000001#3B91B1 R
(413771.753000) vcan0 00000002#3C92B2 R
(413771.989000) vcan0 00000001#3D93B3 R
(413772.230000) vcan0 00000002#3E94B4 R
(413772.466000) vcan0 00000001#3F95B5 R
(413772.710000) vcan0 00000002#4096B6 R
(413772.946000) vcan0 00000001#4197B7 R
(413773.182000) vcan0 00000002#4298B8 R
(413773.423000) vcan0 00000001#4399B9 R
(413773.667000) vcan0 00000002#449ABA R
(413773.902000) vcan0 00000001#459BBB R
(413774.138000) vcan0 00000002#469CBC R
(413774.380000) vcan0 00000001#479DBD R
(413774.615000) vcan0 00000002#489EBE R
(413774.859000) vcan0 00000001#499FBF R
(413775.095000) vcan0 00000002#4AA0C0 R
(413775.333000) vcan0 00000001#4BA1C1 R
(413775.569000) vcan0 00000002#4CA2C2 R
(413775.812000) vcan0 00000001#4DA3C3 R
(413776.048000) vcan0 00000002#4EA4C4 R
(413776.290000) vcan0 00000001#4FA5C5 R
(413776.526000) vcan0 00000002#50A6C6 R
(413776.769000) vcan0 00000001#51A7C7 R
(413777.005000) vcan0 00000002#52A8C8 R
(413777.247000) vcan0 00000001#53A9C9 R
(413777.482000) vcan0 00000002#54AACA R
(413777.726000) vcan0 00000001#0055CB R
(413777.962000) vcan0 00000002#0156CC R
(413778.198000) vcan0 00000001#0257CD R
(413778.439000) vcan0 00000002#0358CE R
(413778.683000) vcan0 00000001#0459CF R
(413778.919000) vcan0 00000002#055AD0 R
(413779.155000) vcan0 00000001#065BD1 R
(413779.396000) vcan0 00000002#075CD2 R
(413779.640000) vcan0 00000001#085DD3 R
(413779.875000) vcan0 00000002#095ED4 R
(413780.111000) vcan0 00000001#0A5FD5 R
(413780.349000) vcan0 00000002#0B60D6 R
(413780.585000) vcan0 00000001#0C61D7 R
(413780.829000) vcan0 00000002#0D62D8 R
(413781.064000) vcan0 00000001#0E63D9 R
(413781.306000) vcan0 00000002#0F64DA R
(413781.542000) vcan0 00000001#1065DB R
(413781.786000) vcan0 00000002#1166DC R
(413782.021000) vcan0 00000001#1267DD R
(413782.263000) vcan0 00000002#1368DE R
(413782.499000) vcan0 00000001#1469DF R
(413782.743000) vcan0 00000002#156AE0 R
(413782.979000) vcan0 00000001#166BE1 R
(413783.217000) vcan0 00000002#176CE2 R
(413783.452000) vcan0 00000001#186DE3 R
(413783.696000) vcan0 00000002#196EE4 R
(413783.932000) vcan0 00000001#1A6FE5 R
(413784.168000) vcan0 00000002#1B70E6 R
(413784.410000) vcan0 00000001#1C71E7 R
(413784.654000) vcan0 00000002#1D72E8 R
(413784.890000) vcan0 00000001#1E73E9 R
(413785.125000) vcan0 00000002#1F74EA R
(413785.363000) vcan0 00000001#2075EB R
(413785.599000) vcan0 00000002#2176EC R
(413785.843000) vcan0 00000001#2277ED R
(413786.079000) vcan0 00000002#2378EE R
(413786.317000) vcan0 00000001#2479EF R
(413786.553000) vcan0 00000002#257AF0 R
(413786.796000) vcan0 00000001#267BF1 R
(413787.032000) vcan0 00000002#277CF2 R
(413787.273000) vcan0 00000001#287DF3 R
(413787.509000) vcan0 00000002#297EF4 R
(413787.753000) vcan0 00000001#2A7FF5 R
(413787.989000) vcan0 00000002#2B80F6 R
(413788.230000) vcan0 00000001#2C81F7 R
(413788.466000) vcan0 00000002#2D82F8 R
(413788.710000) vcan0 00000001#2E83F9 R
(413788.946000) vcan0 00000002#2F84FA R
(413789.182000) vcan0 00000001#3085FB R
(413789.423000) vcan0 00000002#3186FC R
(413789.667000) vcan0 00000001#3287FD R
(413789.902000) vcan0 00000002#3388FE R
(413790.138000) vcan0 00000001#3489FF R
(413790.380000) vcan0 00000002#358A00 R
(413790.615000) vcan0 00000001#368B01 R
(413790.859000) vcan0 00000002#378C02 R
(413791.095000) vcan0 00000001#388D03 R
(413791.333000) vcan0 00000002#398E04 R
(413791.569000) vcan0 00000001#3A8F05 R
(413791.812000) vcan0 00000002#3B9006 R
(413792.048000) vcan0 00000001#3C9107 R
(413792.290000) vcan0 00000002#3D9208 R
(413792.526000) vcan0 00000001#3E9309 R
(413792.769000) vcan0 00000002#3F940A R
(413793.005000) vcan0 00000001#40950B R
(413793.247000) vcan0 00000002#41960C R
(413793.483000) vcan0 00000001#42970D R
(413793.727000) vcan0 00000002#43980E R
(413793.962000) vcan0 00000001#44990F R
(413794.199000) vcan0 00000002#459A10 R
(413794.439000) vcan0 00000001#469B11 R
(413794.683000) vcan0 00000002#479C12 R
(413794.919000) vcan0 00000001#489D13 R
(413795.155000) vcan0 00000002#499E14 R
(413795.396000) vcan0 00000001#4A9F15 R
(413795.640000) vcan0 00000002#4BA016 R
(413795.875000) vcan0 00000001#4CA117 R
(413796.111000) vcan0 00000002#4DA218 R
(413796.349000) vcan0 00000001#4EA319 R
(413796.585000) vcan0 00000002#4FA41A R
(413796.829000) vcan0 00000001#50A51B R
(413797.065000) vcan0 00000002#51A61C R
(413797.307000) vcan0 00000001#52A71D R
(413797.543000) vcan0 00000002#53A81E R
(413797.786000) vcan0 00000001#54A91F R
(413798.022000) vcan0 00000002#00AA20 R
(413798.263000) vcan0 00000001#015521 R
(413798.499000) vcan0 00000002#025622 R
(413798.743000) vcan0 00000001#035723 R
(413798.978000) vcan0 00000002#045824 R
(413799.217000) vcan0 00000001#055925 R
(413799.453000) vcan0 00000002#065A26 R
(413799.697000) vcan0 00000001#075B27 R
(413799.932000) vcan0 00000002#085C28 R
(413800.168000) vcan0 00000001#095D29 R
(413800.410000) vcan0 00000002#0A5E2A R
(413800.654000) vcan0 00000001#0B5F2B R
(413800.890000) vcan0 00000002#0C602C R
(413801.125000) vcan0 00000001#0D612D R
(413801.363000) vcan0 00000002#0E622E R
(413801.599000) vcan0 00000001#0F632F R
(413801.843000) vcan0 00000002#106430 R
(413802.079000) vcan0 00000001#116531 R
(413802.317000) vcan0 00000002#126632 R
(413802.553000) vcan0 00000001#136733 R
(413802.796000) vcan0 00000002#146834 R
(413803.032000) vcan0 00000001#156935 R
(413803.273000) vcan0 00000002#166A36 R
(413803.509000) vcan0 00000001#176B37 R
(413803.753000) vcan0 00000002#186C38 R
(413803.989000) vcan0 00000001#196D39 R
(413804.230000) vcan0 00000002#1A6E3A R
(413804.466000) vcan0 00000001#1B6F3B R
(413804.710000) vcan0 00000002#1C703C R
(413804.946000) vcan0 00000001#1D713D R
(413805.182000) vcan0 00000002#1E723E R
(413805.423000) vcan0 00000001#1F733F R
(413805.667000) vcan0 00000002#207440 R
(413805.902000) vcan0 00000001#217541 R
(413806.138000) vcan0 00000002#227642 R
(413806.380000) vcan0 00000001#237743 R
(413806.615000) vcan0 00000002#247844 R
(413806.859000) vcan0 00000001#257945 R
(413807.095000) vcan0 00000002#267A46 R
(413807.333000) vcan0 00000001#277B47 R
(413807.569000) vcan0 00000002#287C48 R
(413807.812000) vcan0 00000001#297D49 R
(413808.048000) vcan0 00000002#2A7E4A R
(413808.290000) vcan0 00000001#2B7F4B R
(413808.526000) vcan0 00000002#2C804C R
(413808.769000) vcan0 00000001#2D814D R
(413809.005000) vcan0 00000002#2E824E R
(413809.247000) vcan0 00000001#2F834F R
(413809.482000) vcan0 00000002#308450 R
(413809.726000) vcan0 00000001#318551 R
(413809.962000) vcan0 00000002#328652 R
(413810.198000) vcan0 00000001#338753 R
(413810.439000) vcan0 00000002#348854 R
(413810.683000) vcan0 00000001#358955 R
(413810.919000) vcan0 00000002#368A56 R
(413811.155000) vcan0 00000001#378B57 R
(413811.396000) vcan0 00000002#388C58 R
(413811.640000) vcan0 00000001#398D59 R
(413811.876000) vcan0 00000002#3A8E5A R
(413812.111000) vcan0 00000001#3B8F5B R
(413812.349000) vcan0 00000002#3C905C R
(413812.585000) vcan0 00000001#3D915D R
(413812.829000) vcan0 00000002#3E925E R
(413813.065000) vcan0 00000001#3F935F R
(413813.306000) vcan0 00000002#409460 R
(413813.542000) vcan0 00000001#419561 R
(413813.786000) vcan0 00000002#429662 R
(413814.022000) vcan0 00000001#439763 R
(413814.263000) vcan0 00000002#449864 R
(413814.499000) vcan0 00000001#459965 R
(413814.743000) vcan0 00000002#469A66 R
(413814.979000) vcan0 00000001#479B67 R
(413815.217000) vcan0 00000002#489C68 R
(413815.452000) vcan0 00000001#499D69 R
(413815.696000) vcan0 00000002#4A9E6A R
(413815.932000) vcan0 00000001#4B9F6B R
(413816.168000) vcan0 00000002#4CA06C R
(413816.410000) vcan0 00000001#4DA16D R
(413816.654000) vcan0 00000002#4EA26E R
(413816.890000) vcan0 00000001#4FA36F R
(413817.125000) vcan0 00000002#50A470 R
(413817.363000) vcan0 00000001#51A571 R
(413817.599000) vcan0 00000002#52A672 R
(413817.843000) vcan0 00000001#53A773 R
(413818.079000) vcan0 00000002#54A874 R
(413818.317000) vcan0 00000001#00A975 R
(413818.553000) vcan0 00000002#01AA76 R
(413818.796000) vcan0 00000001#025577 R
(413819.032000) vcan0 00000002#035678 R
(413819.273000) vcan0 00000001#045779 R
(413819.509000) vcan0 00000002#05587A R
(413819.753000) vcan0 00000001#06597B R
(413819.989000) vcan0 00000002#075A7C R
(413820.230000) vcan0 00000001#085B7D R
(413820.466000) vcan0 00000002#095C7E R
(413820.710000) vcan0 00000001#0A5D7F R
(413820.946000) vcan0 00000002#0B5E80 R
(413821.182000) vcan0 00000001#0C5F81 R
(413821.423000) vcan0 00000002#0D6082 R
(413821.667000) vcan0 00000001#0E6183 R
(413821.902000) vcan0 00000002#0F6284 R
(413822.138000) vcan0 00000001#106385 R
(413822.380000) vcan0 00000002#116486 R
(413822.615000) vcan0 00000001#126587 R
(413822.859000) vcan0 00000002#136688 R
(413823.095000) vcan0 00000001#146789 R
(413823.333000) vcan0 00000002#15688A R
(413823.569000) vcan0 00000001#16698B R
(413823.812000) vcan0 00000002#176A8C R
(413824.048000) vcan0 00000001#186B8D R
(413824.290000) vcan0 00000002#196C8E R
(413824.526000) vcan0 00000001#1A6D8F R
(413824.769000) vcan0 00000002#1B6E90 R
(413825.005000) vcan0 00000001#1C6F91 R
(413825.247000) vcan0 00000002#1D7092 R
(413825.483000) vcan0 00000001#1E7193 R
(413825.727000) vcan0 00000002#1F7294 R
(413825.962000) vcan0 00000001#207395 R
(413826.199000) vcan0 00000002#217496 R
(413826.439000) vcan0 00000001#227597 R
(413826.683000) vcan0 00000002#237698 R
(413826.919000) vcan0 00000001#247799 R
(413827.155000) vcan0 00000002#25789A R
(413827.396000) vcan0 00000001#26799B R
(413827.640000) vcan0 00000002#277A9C R
(413827.875000) vcan0 00000001#287B9D R
(413828.111000) vcan0 00000002#297C9E R
(413828.349000) vcan0 00000001#2A7D9F R
(413828.585000) vcan0 00000002#2B7EA0 R
(413828.829000) vcan0 00000001#2C7FA1 R
(413829.065000) vcan0 00000002#2D80A2 R
(413829.307000) vcan0 00000001#2E81A3 R
(413829.543000) vcan0 00000002#2F82A4 R
(413829.786000) vcan0 00000001#3083A5 R
(413830.022000) vcan0 00000002#3184A6 R
(413830.263000) vcan0 00000001#3285A7 R
(413830.499000) vcan0 00000002#3386A8 R
(413830.743000) vcan0 00000001#3487A9 R
(413830.978000) vcan0 00000002#3588AA R
(413831.217000) vcan0 00000001#3689AB R
(413831.453000) vcan0 00000002#378AAC R
(413831.697000) vcan0 00000001#388BAD R
(413831.932000) vcan0 00000002#398CAE R
(413832.168000) vcan0 00000001#3A8DAF R
(413832.410000) vcan0 00000002#3B8EB0 R
(413832.654000) vcan0 00000001#3C8FB1 R
(413832.890000) vcan0 00000002#3D90B2 R
(413833.125000) vcan0 00000001#3E91B3 R
(413833.363000) vcan0 00000002#3F92B4 R
(413833.599000) vcan0 00000001#4093B5 R
(413833.843000) vcan0 00000002#4194B6 R
(413834.079000) vcan0 00000001#4295B7 R
(413834.317000) vcan0 00000002#4396B8 R
(413834.553000) vcan0 00000001#4497B9 R
(413834.796000) vcan0 00000002#4598BA R
(413835.032000) vcan0 00000001#4699BB R
(413835.273000) vcan0 00000002#479ABC R
(413835.509000) vcan0 00000001#489BBD R
(413835.753000) vcan0 00000002#499CBE R
(413835.989000) vcan0 00000001#4A9DBF R
(413836.230000) vcan0 00000002#4B9EC0 R
(413836.466000) vcan0 00000001#4C9FC1 R
(413836.710000) vcan0 00000002#4DA0C2 R
(413836.946000) vcan0 00000001#4EA1C3 R
(413837.182000) vcan0 00000002#4FA2C4 R
(413837.423000) vcan0 00000001#50A3C5 R
(413837.667000) vcan0 00000002#51A4C6 R
(413837.902000) vcan0 00000001#52A5C7 R
(413838.138000) vcan0 00000002#53A6C8 R
(413838.380000) vcan0 00000001#54A7C9 R
(413838.615000) vcan0 00000002#00A8CA R
(413838.859000) vcan0 00000001#01A9CB R
(413839.095000) vcan0 00000002#02AACC R
(413839.333000) vcan0 00000001#0355CD R
(413839.568000) vcan0 00000002#0456CE R
(413839.812000) vcan0 00000001#0557CF R
(413840.048000) vcan0 00000002#0658D0 R
(413840.290000) vcan0 00000001#0759D1 R
(413840.526000) vcan0 00000002#085AD2 R
(413840.769000) vcan0 00000001#095BD3 R
(413841.005000) vcan0 00000002#0A5CD4 R
(413841.247000) vcan0 00000001#0B5DD5 R
(413841.483000) vcan0 00000002#0C5ED6 R
(413841.727000) vcan0 00000001#0D5FD7 R
(413841.962000) vcan0 00000002#0E60D8 R
(413842.199000) vcan0 00000001#0F61D9 R
(413842.439000) vcan0 00000002#1062DA R
(413842.683000) vcan0 00000001#1163DB R
(413842.919000) vcan0 00000002#1264DC R
(413843.155000) vcan0 00000001#1365DD R
(413843.396000) vcan0 00000002#1466DE R
(413843.640000) vcan0 00000001#1567DF R
(413843.875000) vcan0 00000002#1668E0 R
(413844.111000) vcan0 00000001#1769E1 R
(413844.349000) vcan0 00000002#186AE2 R
(413844.585000) vcan0 00000001#196BE3 R
(413844.829000) vcan0 00000002#1A6CE4 R
(413845.064000) vcan0 00000001#1B6DE5 R
(413845.306000) vcan0 00000002#1C6EE6 R
(413845.542000) vcan0 00000001#1D6FE7 R
(413845.786000) vcan0 00000002#1E70E8 R
(413846.021000) vcan0 00000001#1F71E9 R
(413846.263000) vcan0 00000002#2072EA R
(413846.499000) vcan0 00000001#2173EB R
(413846.743000) vcan0 00000002#2274EC R
(413846.979000) vcan0 00000001#2375ED R
(413847.217000) vcan0 00000002#2476EE R
(413847.452000) vcan0 00000001#2577EF R
(413847.696000) vcan0 00000002#2678F0 R
(413847.932000) vcan0 00000001#2779F1 R
(413848.168000) vcan0 00000002#287AF2 R
(413848.410000) vcan0 00000001#297BF3 R
(413848.654000) vcan0 00000002#2A7CF4 R
(413848.890000) vcan0 00000001#2B7DF5 R
(413849.125000) vcan0 00000002#2C7EF6 R
(413849.363000) vcan0 00000001#2D7FF7 R
(413849.599000) vcan0 00000002#2E80F8 R
(413849.843000) vcan0 00000001#2F81F9 R
(413850.079000) vcan0 00000002#3082FA R
(413850.317000) vcan0 00000001#3183FB R
(413850.553000) vcan0 00000002#3284FC R
(413850.796000) vcan0 00000001#3385FD R
(413851.032000) vcan0 00000002#3486FE R
(413851.273000) vcan0 00000001#3587FF R
(413851.509000) vcan0 00000002#368800 R
(413851.753000) vcan0 00000001#378901 R
(413851.989000) vcan0 00000002#388A02 R
(413852.230000) vcan0 00000001#398B03 R
(413852.466000) vcan0 00000002#3A8C04 R
(413852.710000) vcan0 00000001#3B8D05 R
(413852.946000) vcan0 00000002#3C8E06 R
(413853.182000) vcan0 00000001#3D8F07 R
(413853.423000) vcan0 00000002#3E9008 R
(413853.667000) vcan0 00000001#3F9109 R
(413853.902000) vcan0 00000002#40920A R
(413854.138000) vcan0 00000001#41930B R
(413854.380000) vcan0 00000002#42940C R
(413854.615000) vcan0 00000001#43950D R
(413854.859000) vcan0 00000002#44960E R
(413855.095000) vcan0 00000001#45970F R
(413855.333000) vcan0 00000002#469810 R
(413855.569000) vcan0 00000001#479911 R
(413855.812000) vcan0 00000002#489A12 R
(413856.048000) vcan0 00000001#499B13 R
(413856.290000) vcan0 00000002#4A9C14 R
(413856.526000) vcan0 00000001#4B9D15 R
(413856.769000) vcan0 00000002#4C9E16 R
(413857.005000) vcan0 00000001#4D9F17 R
(413857.247000) vcan0 00000002#4EA018 R
(413857.483000) vcan0 00000001#4FA119 R
(413857.727000) vcan0 00000002#50A21A R
(413857.962000) vcan0 00000001#51A31B R
(413858.199000) vcan0 00000002#52A41C R
(413858.439000) vcan0 00000001#53A51D R
(413858.683000) vcan0 00000002#54A61E R
(413858.919000) vcan0 00000001#00A71F R
(413859.155000) vcan0 00000002#01A820 R
(413859.396000) vcan0 00000001#02A921 R
(413859.640000) vcan0 00000002#03AA22 R
(413859.875000) vcan0 00000001#045523 R
(413860.111000) vcan0 00000002#055624 R
(413860.349000) vcan0 00000001#065725 R
(413860.585000) vcan0 00000002#075826 R
(413860.829000) vcan0 00000001#085927 R
(413861.064000) vcan0 00000002#095A28 R
(413861.306000) vcan0 00000001#0A5B29 R
(413861.542000) vcan0 00000002#0B5C2A R
(413861.786000) vcan0 00000001#0C5D2B R
(413862.021000) vcan0 00000002#0D5E2C R
(413862.263000) vcan0 00000001#0E5F2D R
(413862.499000) vcan0 00000002#0F602E R
(413862.743000) vcan0 00000001#10612F R
(413862.979000) vcan0 00000002#116230 R
(413863.217000) vcan0 00000001#126331 R
(413863.452000) vcan0 00000002#136432 R
(413863.696000) vcan0 00000001#146533 R
(413863.932000) vcan0 00000002#156634 R
(413864.168000) vcan0 00000001#166735 R
(413864.410000) vcan0 00000002#176836 R
(413864.654000) vcan0 00000001#186937 R
(413864.889000) vcan0 00000002#196A38 R
(413865.125000) vcan0 00000001#1A6B39 R
(413865.363000) vcan0 00000002#1B6C3A R
(413865.599000) vcan0 00000001#1C6D3B R
(413865.843000) vcan0 00000002#1D6E3C R
(413866.078000) vcan0 00000001#1E6F3D R
(413866.316000) vcan0 00000002#1F703E R
(413866.552000) vcan0 00000001#20713F R
(413866.796000) vcan0 00000002#217240 R
(413867.032000) vcan0 00000001#227341 R
(413867.273000) vcan0 00000002#237442 R
(413867.509000) vcan0 00000001#247543 R
(413867.753000) vcan0 00000002#257644 R
(413867.989000) vcan0 00000001#267745 R
(413868.230000) vcan0 00000002#277846 R
(413868.466000) vcan0 00000001#287947 R
(413868.710000) vcan0 00000002#297A48 R
(413868.946000) vcan0 00000001#2A7B49 R
(413869.182000) vcan0 00000002#2B7C4A R
(413869.424000) vcan0 00000001#2C7D4B R
(413869.668000) vcan0 00000002#2D7E4C R
(413869.903000) vcan0 00000001#2E7F4D R
(413870.139000) vcan0 00000002#2F804E R
(413870.379000) vcan0 00000001#30814F R
(413870.615000) vcan0 00000002#318250 R
(413870.859000) vcan0 00000001#328351 R
(413871.095000) vcan0 00000002#338452 R
(413871.333000) vcan0 00000001#348553 R
(413871.569000) vcan0 00000002#358654 R
(413871.812000) vcan0 00000001#368755 R
(413872.048000) vcan0 00000002#378856 R
(413872.290000) vcan0 00000001#388957 R
(413872.526000) vcan0 00000002#398A58 R
(413872.769000) vcan0 00000001#3A8B59 R
(413873.005000) vcan0 00000002#3B8C5A R
(413873.247000) vcan0 00000001#3C8D5B R
(413873.483000) vcan0 00000002#3D8E5C R
(413873.727000) vcan0 00000001#3E8F5D R
(413873.962000) vcan0 00000002#3F905E R
(413874.199000) vcan0 00000001#40915F R
(413874.439000) vcan0 00000002#419260 R
(413874.683000) vcan0 00000001#429361 R
(413874.919000) vcan0 00000002#439462 R
(413875.154000) vcan0 00000001#449563 R
(413875.396000) vcan0 00000002#459664 R
(413875.640000) vcan0 00000001#469765 R
(413875.876000) vcan0 00000002#479866 R
(413876.111000) vcan0 00000001#489967 R
(413876.349000) vcan0 00000002#499A68 R
(413876.585000) vcan0 00000001#4A9B69 R
(413876.829000) vcan0 00000002#4B9C6A R
(413877.064000) vcan0 00000001#4C9D6B R
(413877.306000) vcan0 00000002#4D9E6C R
(413877.542000) vcan0 00000001#4E9F6D R
(413877.785000) vcan0 00000002#4FA06E R
(413878.021000) vcan0 00000001#50A16F R
(413878.263000) vcan0 00000002#51A270 R
(413878.499000) vcan0 00000001#52A371 R
(413878.743000) vcan0 00000002#53A472 R
(413878.978000) vcan0 00000001#54A573 R
(413879.217000) vcan0 00000002#00A674 R
(413879.453000) vcan0 00000001#01A775 R
(413879.697000) vcan0 00000002#02A876 R
(413879.932000) vcan0 00000001#03A977 R
(413880.168000) vcan0 00000002#04AA78 R
(413880.410000) vcan0 00000001#055579 R
(413880.654000) vcan0 00000002#06567A R
(413880.890000) vcan0 00000001#07577B R
(413881.125000) vcan0 00000002#08587C R
(413881.363000) vcan0 00000001#09597D R
(413881.599000) vcan0 00000002#0A5A7E R
(413881.843000) vcan0 00000001#0B5B7F R
(413882.079000) vcan0 00000002#0C5C80 R
(413882.317000) vcan0 00000001#0D5D81 R
(413882.553000) vcan0 00000002#0E5E82 R
(413882.796000) vcan0 00000001#0F5F83 R
(413883.032000) vcan0 00000002#106084 R
(413883.273000) vcan0 00000001#116185 R
(413883.509000) vcan0 00000002#126286 R
(413883.753000) vcan0 00000001#136387 R
(413883.989000) vcan0 00000002#146488 R
(413884.230000) vcan0 00000001#156589 R
(413884.466000) vcan0 00000002#16668A R
(413884.710000) vcan0 00000001#17678B R
(413884.946000) vcan0 00000002#18688C R
(413885.182000) vcan0 00000001#19698D R
(413885.423000) vcan0 00000002#1A6A8E R
(413885.667000) vcan0 00000001#1B6B8F R
(413885.902000) vcan0 00000002#1C6C90 R
(413886.138000) vcan0 00000001#1D6D91 R
(413886.380000) vcan0 00000002#1E6E92 R
(413886.615000) vcan0 00000001#1F6F93 R
(413886.859000) vcan0 00000002#207094 R
(413887.095000) vcan0 00000001#217195 R
(413887.333000) vcan0 00000002#227296 R
(413887.569000) vcan0 00000001#237397 R
(413887.812000) vcan0 00000002#247498 R
(413888.048000) vcan0 00000001#257599 R
(413888.290000) vcan0 00000002#26769A R
(413888.526000) vcan0 00000001#27779B R
(413888.769000) vcan0 00000002#28789C R
(413889.005000) vcan0 00000001#29799D R
(413889.247000) vcan0 00000002#2A7A9E R
(413889.483000) vcan0 00000001#2B7B9F R
(413889.727000) vcan0 00000002#2C7CA0 R
(413889.962000) vcan0 00000001#2D7DA1 R
(413890.199000) vcan0 00000002#2E7EA2 R
(413890.439000) vcan0 00000001#2F7FA3 R
(413890.683000) vcan0 00000002#3080A4 R
(413890.919000) vcan0 00000001#3181A5 R
(413891.155000) vcan0 00000002#3282A6 R
(413891.396000) vcan0 00000001#3383A7 R
(413891.640000) vcan0 00000002#3484A8 R
(413891.875000) vcan0 00000001#3585A9 R
(413892.111000) vcan0 00000002#3686AA R
(413892.349000) vcan0 00000001#3787AB R
(413892.585000) vcan0 00000002#3888AC R
(413892.829000) vcan0 00000001#3989AD R
(413893.065000) vcan0 00000002#3A8AAE R
(413893.307000) vcan0 00000001#3B8BAF R
(413893.543000) vcan0 00000002#3C8CB0 R
(413893.786000) vcan0 00000001#3D8DB1 R
(413894.022000) vcan0 00000002#3E8EB2 R
(413894.263000) vcan0 00000001#3F8FB3 R
(413894.499000) vcan0 00000002#4090B4 R
(413894.743000) vcan0 00000001#4191B5 R
(413894.978000) vcan0 00000002#4292B6 R
(413895.217000) vcan0 00000001#4393B7 R
(413895.453000) vcan0 00000002#4494B8 R
(413895.697000) vcan0 00000001#4595B9 R
(413895.932000) vcan0 00000002#4696BA R
(413896.168000) vcan0 00000001#4797BB R
(413896.410000) vcan0 00000002#4898BC R
(413896.654000) vcan0 00000001#4999BD R
(413896.890000) vcan0 00000002#4A9ABE R
(413897.125000) vcan0 00000001#4B9BBF R
(413897.363000) vcan0 00000002#4C9CC0 R
(413897.599000) vcan0 00000001#4D9DC1 R
(413897.843000) vcan0 00000002#4E9EC2 R
(413898.079000) vcan0 00000001#4F9FC3 R
(413898.317000) vcan0 00000002#50A0C4 R
(413898.553000) vcan0 00000001#51A1C5 R
(413898.796000) vcan0 00000002#52A2C6 R
(413899.032000) vcan0 00000001#53A3C7 R
(413899.273000) vcan0 00000002#54A4C8 R
(413899.509000) vcan0 00000001#00A5C9 R
(413899.753000) vcan0 00000002#01A6CA R
(413899.989000) vcan0 00000001#02A7CB R
(413900.230000) vcan0 00000002#03A8CC R
(413900.466000) vcan0 00000001#04A9CD R
(413900.710000) vcan0 00000002#05AACE R
(413900.946000) vcan0 00000001#0655CF R
(413901.182000) vcan0 00000002#0756D0 R
(413901.423000) vcan0 00000001#0857D1 R
(413901.667000) vcan0 00000002#0958D2 R
(413901.902000) vcan0 00000001#0A59D3 R
(413902.138000) vcan0 00000002#0B5AD4 R
(413902.380000) vcan0 00000001#0C5BD5 R
(413902.615000) vcan0 00000002#0D5CD6 R
(413902.859000) vcan0 00000001#0E5DD7 R
(413903.095000) vcan0 00000002#0F5ED8 R
(413903.333000) vcan0 00000001#105FD9 R
(413903.568000) vcan0 00000002#1160DA R
(413903.812000) vcan0 00000001#1261DB R
(413904.048000) vcan0 00000002#1362DC R
(413904.290000) vcan0 00000001#1463DD R
(413904.526000) vcan0 00000002#1564DE R
(413904.769000) vcan0 00000001#1665DF R
(413905.005000) vcan0 00000002#1766E0 R
(413905.247000) vcan0 00000001#1867E1 R
(413905.483000) vcan0 00000002#1968E2 R
(413905.727000) vcan0 00000001#1A69E3 R
(413905.962000) vcan0 00000002#1B6AE4 R
(413906.199000) vcan0 00000001#1C6BE5 R
(413906.439000) vcan0 00000002#1D6CE6 R
(413906.683000) vcan0 00000001#1E6DE7 R
(413906.919000) vcan0 00000002#1F6EE8 R
