(322607.532000) vcan0 00000001#00A1AA R
(322608.532000) vcan0 00000002#01A2AB R
(322609.532000) vcan0 00000001#02A3AC R
(322610.532000) vcan0 00000002#03A4AD R
(322615.532000) vcan0 00000001#08A9B2 R
(322616.532000) vcan0 00000002#09AAB3 R
(322617.532000) vcan0 00000001#0A55B4 R
(322618.532000) vcan0 00000002#0B56B5 R
(322619.532000) vcan0 00000001#0C57B6 R
(322620.532000) vcan0 00000002#0D58B7 R
(322621.532000) vcan0 00000001#0E59B8 R
(322622.532000) vcan0 00000002#0F5AB9 R
(322623.532000) vcan0 00000001#105BBA R
(322624.532000) vcan0 00000002#115CBB R
(322625.532000) vcan0 00000001#125DBC R
(322626.532000) vcan0 00000002#135EBD R
(322627.532000) vcan0 00000001#145FBE R
(322628.532000) vcan0 00000002#1560BF R
(322629.532000) vcan0 00000001#1661C0 R
(322630.532000) vcan0 00000002#1762C1 R
(322631.532000) vcan0 00000001#1863C2 R
(322632.532000) vcan0 00000002#1964C3 R
(322633.532000) vcan0 00000001#1A65C4 R
(322634.532000) vcan0 00000002#1B66C5 R
(322635.532000) vcan0 00000001#1C67C6 R
(322636.532000) vcan0 00000002#1D68C7 R
(322637.532000) vcan0 00000001#1E69C8 R
(322638.532000) vcan0 00000002#1F6AC9 R
(322639.532000) vcan0 00000001#206BCA R
(322640.532000) vcan0 00000002#216CCB R
(322641.532000) vcan0 00000001#226DCC R
(322642.532000) vcan0 00000002#236ECD R
(322643.532000) vcan0 00000001#246FCE R
(322644.532000) vcan0 00000002#2570CF R
(322645.532000) vcan0 00000001#2671D0 R
(322646.532000) vcan0 00000002#2772D1 R
(322647.532000) vcan0 00000001#2873D2 R
(322648.532000) vcan0 00000002#2974D3 R
(322649.532000) vcan0 00000001#2A75D4 R
(322650.532000) vcan0 00000002#2B76D5 R
(322651.532000) vcan0 00000001#2C77D6 R
(322652.532000) vcan0 00000002#2D78D7 R
(322653.532000) vcan0 00000001#2E79D8 R
(322654.532000) vcan0 00000002#2F7AD9 R
(322655.532000) vcan0 00000001#307BDA R
(322656.532000) vcan0 00000002#317CDB R
(322657.532000) vcan0 00000001#327DDC R
(322658.532000) vcan0 00000002#337EDD R
(322659.532000) vcan0 00000001#347FDE R
(322660.532000) vcan0 00000002#3580DF R
(322661.532000) vcan0 00000001#3681E0 R
(322662.532000) vcan0 00000002#3782E1 R
(322663.532000) vcan0 00000001#3883E2 R
(322664.532000) vcan0 00000002#3984E3 R
(322665.532000) vcan0 00000001#3A85E4 R
(322666.532000) vcan0 00000002#3B86E5 R
(322667.532000) vcan0 00000001#3C87E6 R
(322668.532000) vcan0 00000002#3D88E7 R
(322669.532000) vcan0 00000001#3E89E8 R
(322670.532000) vcan0 00000002#3F8AE9 R
(322671.532000) vcan0 00000001#408BEA R
(322672.532000) vcan0 00000002#418CEB R
(322673.532000) vcan0 00000001#428DEC R
(322674.532000) vcan0 00000002#438EED R
(322675.532000) vcan0 00000001#448FEE R
(322676.532000) vcan0 00000002#4590EF R
(322677.532000) vcan0 00000001#4691F0 R
(322678.532000) vcan0 00000002#4792F1 R
(322679.532000) vcan0 00000001#4893F2 R
(322680.532000) vcan0 00000002#4994F3 R
(322681.532000) vcan0 00000001#4A95F4 R
(322682.532000) vcan0 00000002#4B96F5 R
(322683.532000) vcan0 00000001#4C97F6 R
(322684.532000) vcan0 00000002#4D98F7 R
(322685.532000) vcan0 00000001#4E99F8 R
(322686.532000) vcan0 00000002#4F9AF9 R
(322687.532000) vcan0 00000001#509BFA R
(322688.532000) vcan0 00000002#519CFB R
(322689.532000) vcan0 00000001#529DFC R
(322690.532000) vcan0 00000002#539EFD R
(322691.532000) vcan0 00000001#549FFE R
(322692.532000) vcan0 00000002#00A0AA R
(322693.532000) vcan0 00000001#01A1AB R
(322694.532000) vcan0 00000002#02A2AC R
(322695.532000) vcan0 00000001#03A3AD R
(322696.532000) vcan0 00000002#04A4AE R
(322697.532000) vcan0 00000001#05A5AF R
(322698.532000) vcan0 00000002#06A6B0 R
(322699.532000) vcan0 00000001#07A7B1 R
(322700.532000) vcan0 00000002#08A8B2 R
(322701.532000) vcan0 00000001#09A9B3 R
(322702.532000) vcan0 00000002#0AAAB4 R
(322703.532000) vcan0 00000001#0B55B5 R
(322704.532000) vcan0 00000002#0C56B6 R
(322705.532000) vcan0 00000001#0D57B7 R
(322706.532000) vcan0 00000002#0E58B8 R
(322707.532000) vcan0 00000001#0F59B9 R
(322708.532000) vcan0 00000002#105ABA R
(322709.532000) vcan0 00000001#115BBB R
(322710.532000) vcan0 00000002#125CBC R
(322711.532000) vcan0 00000001#135DBD R
(322712.532000) vcan0 00000002#145EBE R
(322713.532000) vcan0 00000001#155FBF R
(322714.532000) vcan0 00000002#1660C0 R
(322715.532000) vcan0 00000001#1761C1 R
(322716.532000) vcan0 00000002#1862C2 R
(322717.532000) vcan0 00000001#1963C3 R
(322718.532000) vcan0 00000002#1A64C4 R
(322719.532000) vcan0 00000001#1B65C5 R
(322720.532000) vcan0 00000002#1C66C6 R
(322721.532000) vcan0 00000001#1D67C7 R
(322722.532000) vcan0 00000002#1E68C8 R
(322723.532000) vcan0 00000001#1F69C9 R
(322724.532000) vcan0 00000002#206ACA R
(322725.532000) vcan0 00000001#216BCB R
(322726.532000) vcan0 00000002#226CCC R
(322727.532000) vcan0 00000001#236DCD R
(322728.532000) vcan0 00000002#246ECE R
(322729.532000) vcan0 00000001#256FCF R
(322730.532000) vcan0 00000002#2670D0 R
(322731.532000) vcan0 00000001#2771D1 R
(322732.532000) vcan0 00000002#2872D2 R
(322733.532000) vcan0 00000001#2973D3 R
(322734.532000) vcan0 00000002#2A74D4 R
(322735.532000) vcan0 00000001#2B75D5 R
(322736.532000) vcan0 00000002#2C76D6 R
(322737.532000) vcan0 00000001#2D77D7 R
(322738.532000) vcan0 00000002#2E78D8 R
(322739.532000) vcan0 00000001#2F79D9 R
(322740.532000) vcan0 00000002#307ADA R
(322741.532000) vcan0 00000001#317BDB R
(322742.532000) vcan0 00000002#327CDC R
(322743.532000) vcan0 00000001#337DDD R
(322744.532000) vcan0 00000002#347EDE R
(322745.532000) vcan0 00000001#357FDF R
(322746.532000) vcan0 00000002#3680E0 R
(322747.532000) vcan0 00000001#3781E1 R
(322748.532000) vcan0 00000002#3882E2 R
(322749.532000) vcan0 00000001#3983E3 R
(322750.532000) vcan0 00000002#3A84E4 R
(322751.532000) vcan0 00000001#3B85E5 R
(322752.532000) vcan0 00000002#3C86E6 R
(322753.532000) vcan0 00000001#3D87E7 R
(322754.532000) vcan0 00000002#3E88E8 R
(322755.532000) vcan0 00000001#3F89E9 R
(322756.532000) vcan0 00000002#408AEA R
(322757.532000) vcan0 00000001#418BEB R
(322758.532000) vcan0 00000002#428CEC R
(322759.532000) vcan0 00000001#438DED R
(322760.532000) vcan0 00000002#448EEE R
(322761.532000) vcan0 00000001#458FEF R
(322762.532000) vcan0 00000002#4690F0 R
(322763.532000) vcan0 00000001#4791F1 R
(322764.532000) vcan0 00000002#4892F2 R
(322765.532000) vcan0 00000001#4993F3 R
(322766.532000) vcan0 00000002#4A94F4 R
(322767.532000) vcan0 00000001#4B95F5 R
(322768.532000) vcan0 00000002#4C96F6 R
(322769.532000) vcan0 00000001#4D97F7 R
(322770.532000) vcan0 00000002#4E98F8 R
(322771.532000) vcan0 00000001#4F99F9 R
(322772.532000) vcan0 00000002#509AFA R
(322773.532000) vcan0 00000001#519BFB R
(322774.532000) vcan0 00000002#529CFC R
(322775.532000) vcan0 00000001#539DFD R
(322776.532000) vcan0 00000002#549EFE R
(322777.532000) vcan0 00000001#009FAA R
(322778.532000) vcan0 00000002#01A0AB R
(322779.532000) vcan0 00000001#02A1AC R
(322780.532000) vcan0 00000002#03A2AD R
(322781.532000) vcan0 00000001#04A3AE R
(322782.532000) vcan0 00000002#05A4AF R
(322783.532000) vcan0 00000001#06A5B0 R
(322784.532000) vcan0 00000002#07A6B1 R
(322785.532000) vcan0 00000001#08A7B2 R
(322786.532000) vcan0 00000002#09A8B3 R
(322787.532000) vcan0 00000001#0AA9B4 R
(322788.532000) vcan0 00000002#0BAAB5 R
(322789.532000) vcan0 00000001#0C55B6 R
(322790.532000) vcan0 00000002#0D56B7 R
(322791.532000) vcan0 00000001#0E57B8 R
(322792.532000) vcan0 00000002#0F58B9 R
(322793.532000) vcan0 00000001#1059BA R
(322794.532000) vcan0 00000002#115ABB R
(322795.532000) vcan0 00000001#125BBC R
(322796.532000) vcan0 00000002#135CBD R
(322797.532000) vcan0 00000001#145DBE R
(322798.532000) vcan0 00000002#155EBF R
(322799.532000) vcan0 00000001#165FC0 R
(322800.532000) vcan0 00000002#1760C1 R
(322801.532000) vcan0 00000001#1861C2 R
(322802.532000) vcan0 00000002#1962C3 R
(322803.532000) vcan0 00000001#1A63C4 R
(322804.532000) vcan0 00000002#1B64C5 R
(322805.532000) vcan0 00000001#1C65C6 R
(322806.532000) vcan0 00000002#1D66C7 R
(322807.532000) vcan0 00000001#1E67C8 R
(322808.532000) vcan0 00000002#1F68C9 R
(322809.532000) vcan0 00000001#2069CA R
(322810.532000) vcan0 00000002#216ACB R
(322811.532000) vcan0 00000001#226BCC R
(322812.532000) vcan0 00000002#236CCD R
(322813.532000) vcan0 00000001#246DCE R
(322814.532000) vcan0 00000002#256ECF R
(322815.532000) vcan0 00000001#266FD0 R
(322816.532000) vcan0 00000002#2770D1 R
(322817.532000) vcan0 00000001#2871D2 R
(322818.532000) vcan0 00000002#2972D3 R
(322819.532000) vcan0 00000001#2A73D4 R
(322820.532000) vcan0 00000002#2B74D5 R
(322821.532000) vcan0 00000001#2C75D6 R
(322822.532000) vcan0 00000002#2D76D7 R
(322823.532000) vcan0 00000001#2E77D8 R
(322824.532000) vcan0 00000002#2F78D9 R
(322825.532000) vcan0 00000001#3079DA R
(322826.532000) vcan0 00000002#317ADB R
(322827.532000) vcan0 00000001#327BDC R
(322828.532000) vcan0 00000002#337CDD R
(322829.532000) vcan0 00000001#347DDE R
(322830.532000) vcan0 00000002#357EDF R
(322831.532000) vcan0 00000001#367FE0 R
(322832.532000) vcan0 00000002#3780E1 R
(322833.532000) vcan0 00000001#3881E2 R
(322834.532000) vcan0 00000002#3982E3 R
(322835.532000) vcan0 00000001#3A83E4 R
(322836.532000) vcan0 00000002#3B84E5 R
(322837.532000) vcan0 00000001#3C85E6 R
(322838.532000) vcan0 00000002#3D86E7 R
(322839.532000) vcan0 00000001#3E87E8 R
(322840.532000) vcan0 00000002#3F88E9 R
(322841.532000) vcan0 00000001#4089EA R
(322842.532000) vcan0 00000002#418AEB R
(322843.532000) vcan0 00000001#428BEC R
(322844.532000) vcan0 00000002#438CED R
(322845.532000) vcan0 00000001#448DEE R
(322846.532000) vcan0 00000002#458EEF R
(322847.532000) vcan0 00000001#468FF0 R
(322848.532000) vcan0 00000002#4790F1 R
(322849.532000) vcan0 00000001#4891F2 R
(322850.532000) vcan0 00000002#4992F3 R
(322851.532000) vcan0 00000001#4A93F4 R
(322852.532000) vcan0 00000002#4B94F5 R
(322853.532000) vcan0 00000001#4C95F6 R
(322854.532000) vcan0 00000002#4D96F7 R
(322855.532000) vcan0 00000001#4E97F8 R
(322856.532000) vcan0 00000002#4F98F9 R
(322857.532000) vcan0 00000001#5099FA R
(322858.532000) vcan0 00000002#519AFB R
(322859.532000) vcan0 00000001#529BFC R
(322860.532000) vcan0 00000002#539CFD R
(322861.532000) vcan0 00000001#549DFE R
(322862.532000) vcan0 00000002#009EAA R
(322863.532000) vcan0 00000001#019FAB R
(322864.532000) vcan0 00000002#02A0AC R
(322865.532000) vcan0 00000001#03A1AD R
(322866.532000) vcan0 00000002#04A2AE R
(322867.532000) vcan0 00000001#05A3AF R
(322868.532000) vcan0 00000002#06A4B0 R
(322869.532000) vcan0 00000001#07A5B1 R
(322870.532000) vcan0 00000002#08A6B2 R
(322871.532000) vcan0 00000001#09A7B3 R
(322872.532000) vcan0 00000002#0AA8B4 R
(322873.532000) vcan0 00000001#0BA9B5 R
(322874.532000) vcan0 00000002#0CAAB6 R
(322875.532000) vcan0 00000001#0D55B7 R
(322876.532000) vcan0 00000002#0E56B8 R
(322877.532000) vcan0 00000001#0F57B9 R
(322878.532000) vcan0 00000002#1058BA R
(322879.532000) vcan0 00000001#1159BB R
(322880.532000) vcan0 00000002#125ABC R
(322881.532000) vcan0 00000001#135BBD R
(322882.532000) vcan0 00000002#145CBE R
(322883.532000) vcan0 00000001#155DBF R
(322884.532000) vcan0 00000002#165EC0 R
(322885.532000) vcan0 00000001#175FC1 R
(322886.532000) vcan0 00000002#1860C2 R
(322887.532000) vcan0 00000001#1961C3 R
(322888.532000) vcan0 00000002#1A62C4 R
(322889.532000) vcan0 00000001#1B63C5 R
(322890.532000) vcan0 00000002#1C64C6 R
(322891.532000) vcan0 00000001#1D65C7 R
(322892.532000) vcan0 00000002#1E66C8 R
(322893.532000) vcan0 00000001#1F67C9 R
(322894.532000) vcan0 00000002#2068CA R
(322895.532000) vcan0 00000001#2169CB R
(322896.532000) vcan0 00000002#226ACC R
(322897.532000) vcan0 00000001#236BCD R
(322898.532000) vcan0 00000002#246CCE R
(322899.532000) vcan0 00000001#256DCF R
(322900.532000) vcan0 00000002#266ED0 R
(322901.532000) vcan0 00000001#276FD1 R
(322902.532000) vcan0 00000002#2870D2 R
(322903.532000) vcan0 00000001#2971D3 R
(322904.532000) vcan0 00000002#2A72D4 R
(322905.532000) vcan0 00000001#2B73D5 R
(322906.532000) vcan0 00000002#2C74D6 R
(322907.532000) vcan0 00000001#2D75D7 R
(322908.532000) vcan0 00000002#2E76D8 R
(322909.532000) vcan0 00000001#2F77D9 R
(322910.532000) vcan0 00000002#3078DA R
(322911.532000) vcan0 00000001#3179DB R
(322912.532000) vcan0 00000002#327ADC R
(322913.532000) vcan0 00000001#337BDD R
(322914.532000) vcan0 00000002#347CDE R
(322915.532000) vcan0 00000001#357DDF R
(322916.532000) vcan0 00000002#367EE0 R
(322917.532000) vcan0 00000001#377FE1 R
(322918.532000) vcan0 00000002#3880E2 R
(322919.532000) vcan0 00000001#3981E3 R
(322920.532000) vcan0 00000002#3A82E4 R
(322921.532000) vcan0 00000001#3B83E5 R
(322922.532000) vcan0 00000002#3C84E6 R
(322923.532000) vcan0 00000001#3D85E7 R
(322924.532000) vcan0 00000002#3E86E8 R
(322925.532000) vcan0 00000001#3F87E9 R
(322926.532000) vcan0 00000002#4088EA R
(322927.532000) vcan0 00000001#4189EB R
(322928.532000) vcan0 00000002#428AEC R
(322929.532000) vcan0 00000001#438BED R
(322930.532000) vcan0 00000002#448CEE R
(322931.532000) vcan0 00000001#458DEF R
(322932.532000) vcan0 00000002#468EF0 R
(322933.532000) vcan0 00000001#478FF1 R
(322934.532000) vcan0 00000002#4890F2 R
(322935.532000) vcan0 00000001#4991F3 R
(322936.532000) vcan0 00000002#4A92F4 R
(322937.532000) vcan0 00000001#4B93F5 R
(322938.532000) vcan0 00000002#4C94F6 R
(322939.532000) vcan0 00000001#4D95F7 R
(322940.532000) vcan0 00000002#4E96F8 R
(322941.532000) vcan0 00000001#4F97F9 R
(322942.532000) vcan0 00000002#5098FA R
(322943.532000) vcan0 00000001#5199FB R
(322944.532000) vcan0 00000002#529AFC R
(322945.532000) vcan0 00000001#539BFD R
(322946.532000) vcan0 00000002#549CFE R
(322947.532000) vcan0 00000001#009DAA R
(322948.532000) vcan0 00000002#019EAB R
(322949.532000) vcan0 00000001#029FAC R
(322950.532000) vcan0 00000002#03A0AD R
(322951.532000) vcan0 00000001#04A1AE R
(322952.532000) vcan0 00000002#05A2AF R
(322953.532000) vcan0 00000001#06A3B0 R
(322954.532000) vcan0 00000002#07A4B1 R
(322955.532000) vcan0 00000001#08A5B2 R
(322956.532000) vcan0 00000002#09A6B3 R
(322957.532000) vcan0 00000001#0AA7B4 R
(322958.532000) vcan0 00000002#0BA8B5 R
(322959.532000) vcan0 00000001#0CA9B6 R
(322960.532000) vcan0 00000002#0DAAB7 R
(322961.532000) vcan0 00000001#0E55B8 R
(322962.532000) vcan0 00000002#0F56B9 R
(322963.532000) vcan0 00000001#1057BA R
(322964.532000) vcan0 00000002#1158BB R
(322965.532000) vcan0 00000001#1259BC R
(322966.532000) vcan0 00000002#135ABD R
(322967.532000) vcan0 00000001#145BBE R
(322968.532000) vcan0 00000002#155CBF R
(322969.532000) vcan0 00000001#165DC0 R
(322970.532000) vcan0 00000002#175EC1 R
(322971.532000) vcan0 00000001#185FC2 R
(322972.532000) vcan0 00000002#1960C3 R
(322973.532000) vcan0 00000001#1A61C4 R
(322974.532000) vcan0 00000002#1B62C5 R
(322975.532000) vcan0 00000001#1C63C6 R
(322976.532000) vcan0 00000002#1D64C7 R
(322977.532000) vcan0 00000001#1E65C8 R
(322978.532000) vcan0 00000002#1F66C9 R
(322979.532000) vcan0 00000001#2067CA R
(322980.532000) vcan0 00000002#2168CB R
(322981.532000) vcan0 00000001#2269CC R
(322982.532000) vcan0 00000002#236ACD R
(322983.532000) vcan0 00000001#246BCE R
(322984.532000) vcan0 00000002#256CCF R
(322985.532000) vcan0 00000001#266DD0 R
(322986.532000) vcan0 00000002#276ED1 R
(322987.532000) vcan0 00000001#286FD2 R
(322988.532000) vcan0 00000002#2970D3 R
(322989.532000) vcan0 00000001#2A71D4 R
(322990.532000) vcan0 00000002#2B72D5 R
(322991.532000) vcan0 00000001#2C73D6 R
(322992.532000) vcan0 00000002#2D74D7 R
(322993.532000) vcan0 00000001#2E75D8 R
(322994.532000) vcan0 00000002#2F76D9 R
(322995.532000) vcan0 00000001#3077DA R
(322996.532000) vcan0 00000002#3178DB R
(322997.532000) vcan0 00000001#3279DC R
(322998.532000) vcan0 00000002#337ADD R
(322999.532000) vcan0 00000001#347BDE R
(323000.532000) vcan0 00000002#357CDF R
(323001.532000) vcan0 00000001#367DE0 R
(323002.532000) vcan0 00000002#377EE1 R
(323003.532000) vcan0 00000001#387FE2 R
(323004.532000) vcan0 00000002#3980E3 R
(323005.532000) vcan0 00000001#3A81E4 R
(323006.532000) vcan0 00000002#3B82E5 R
(323007.532000) vcan0 00000001#3C83E6 R
(323008.532000) vcan0 00000002#3D84E7 R
(323009.532000) vcan0 00000001#3E85E8 R
(323010.532000) vcan0 00000002#3F86E9 R
(323011.532000) vcan0 00000001#4087EA R
(323012.532000) vcan0 00000002#4188EB R
(323013.532000) vcan0 00000001#4289EC R
(323014.532000) vcan0 00000002#438AED R
(323015.532000) vcan0 00000001#448BEE R
(323016.532000) vcan0 00000002#458CEF R
(323017.532000) vcan0 00000001#468DF0 R
(323018.532000) vcan0 00000002#478EF1 R
(323019.532000) vcan0 00000001#488FF2 R
(323020.532000) vcan0 00000002#4990F3 R
(323021.532000) vcan0 00000001#4A91F4 R
(323022.532000) vcan0 00000002#4B92F5 R
(323023.532000) vcan0 00000001#4C93F6 R
(323024.532000) vcan0 00000002#4D94F7 R
(323025.532000) vcan0 00000001#4E95F8 R
(323026.532000) vcan0 00000002#4F96F9 R
(323027.532000) vcan0 00000001#5097FA R
(323028.532000) vcan0 00000002#5198FB R
(323029.532000) vcan0 00000001#5299FC R
(323030.532000) vcan0 00000002#539AFD R
(323031.532000) vcan0 00000001#549BFE R
(323032.532000) vcan0 00000002#009CAA R
(323033.532000) vcan0 00000001#019DAB R
(323034.532000) vcan0 00000002#029EAC R
(323035.532000) vcan0 00000001#039FAD R
(323036.532000) vcan0 00000002#04A0AE R
(323037.532000) vcan0 00000001#05A1AF R
(323038.532000) vcan0 00000002#06A2B0 R
(323039.532000) vcan0 00000001#07A3B1 R
(323040.532000) vcan0 00000002#08A4B2 R
(323041.532000) vcan0 00000001#09A5B3 R
(323042.532000) vcan0 00000002#0AA6B4 R
(323043.532000) vcan0 00000001#0BA7B5 R
(323044.532000) vcan0 00000002#0CA8B6 R
(323045.532000) vcan0 00000001#0DA9B7 R
(323046.532000) vcan0 00000002#0EAAB8 R
(323047.532000) vcan0 00000001#0F55B9 R
(323048.532000) vcan0 00000002#1056BA R
(323049.532000) vcan0 00000001#1157BB R
(323050.532000) vcan0 00000002#1258BC R
(323051.532000) vcan0 00000001#1359BD R
(323052.532000) vcan0 00000002#145ABE R
(323053.532000) vcan0 00000001#155BBF R
(323054.532000) vcan0 00000002#165CC0 R
(323055.532000) vcan0 00000001#175DC1 R
(323056.532000) vcan0 00000002#185EC2 R
(323057.532000) vcan0 00000001#195FC3 R
(323058.532000) vcan0 00000002#1A60C4 R
(323059.532000) vcan0 00000001#1B61C5 R
(323060.532000) vcan0 00000002#1C62C6 R
(323061.532000) vcan0 00000001#1D63C7 R
(323062.532000) vcan0 00000002#1E64C8 R
(323063.532000) vcan0 00000001#1F65C9 R
(323064.532000) vcan0 00000002#2066CA R
(323065.532000) vcan0 00000001#2167CB R
(323066.532000) vcan0 00000002#2268CC R
(323067.532000) vcan0 00000001#2369CD R
(323068.532000) vcan0 00000002#246ACE R
(323069.532000) vcan0 00000001#256BCF R
(323070.532000) vcan0 00000002#266CD0 R
(323071.532000) vcan0 00000001#276DD1 R
(323072.532000) vcan0 00000002#286ED2 R
(323073.532000) vcan0 00000001#296FD3 R
(323074.532000) vcan0 00000002#2A70D4 R
(323075.532000) vcan0 00000001#2B71D5 R
(323076.532000) vcan0 00000002#2C72D6 R
(323077.532000) vcan0 00000001#2D73D7 R
(323078.532000) vcan0 00000002#2E74D8 R
(323079.532000) vcan0 00000001#2F75D9 R
(323080.532000) vcan0 00000002#3076DA R
(323081.532000) vcan0 00000001#3177DB R
(323082.532000) vcan0 00000002#3278DC R
(323083.532000) vcan0 00000001#3379DD R
(323084.532000) vcan0 00000002#347ADE R
(323085.532000) vcan0 00000001#357BDF R
(323086.532000) vcan0 00000002#367CE0 R
(323087.532000) vcan0 00000001#377DE1 R
(323088.532000) vcan0 00000002#387EE2 R
(323089.532000) vcan0 00000001#397FE3 R
(323090.532000) vcan0 00000002#3A80E4 R
(323091.532000) vcan0 00000001#3B81E5 R
(323092.532000) vcan0 00000002#3C82E6 R
(323093.532000) vcan0 00000001#3D83E7 R
(323094.532000) vcan0 00000002#3E84E8 R
(323095.532000) vcan0 00000001#3F85E9 R
(323096.532000) vcan0 00000002#4086EA R
(323097.532000) vcan0 00000001#4187EB R
(323098.532000) vcan0 00000002#4288EC R
(323099.532000) vcan0 00000001#4389ED R
(323100.532000) vcan0 00000002#448AEE R
(323101.532000) vcan0 00000001#458BEF R
(323102.532000) vcan0 00000002#468CF0 R
(323103.532000) vcan0 00000001#478DF1 R
(323104.532000) vcan0 00000002#488EF2 R
(323105.532000) vcan0 00000001#498FF3 R
(323106.532000) vcan0 00000002#4A90F4 R
(323107.532000) vcan0 00000001#4B91F5 R
(323108.532000) vcan0 00000002#4C92F6 R
(323109.532000) vcan0 00000001#4D93F7 R
(323110.532000) vcan0 00000002#4E94F8 R
(323111.532000) vcan0 00000001#4F95F9 R
(323112.532000) vcan0 00000002#5096FA R
(323113.532000) vcan0 00000001#5197FB R
(323114.532000) vcan0 00000002#5298FC R
(323115.532000) vcan0 00000001#5399FD R
(323116.532000) vcan0 00000002#549AFE R
(323117.532000) vcan0 00000001#009BAA R
(323118.532000) vcan0 00000002#019CAB R
(323119.532000) vcan0 00000001#029DAC R
(323120.532000) vcan0 00000002#039EAD R
(323121.532000) vcan0 00000001#049FAE R
(323122.532000) vcan0 00000002#05A0AF R
(323123.532000) vcan0 00000001#06A1B0 R
(323124.532000) vcan0 00000002#07A2B1 R
(323125.532000) vcan0 00000001#08A3B2 R
(323126.532000) vcan0 00000002#09A4B3 R
(323127.532000) vcan0 00000001#0AA5B4 R
(323128.532000) vcan0 00000002#0BA6B5 R
(323129.532000) vcan0 00000001#0CA7B6 R
(323130.532000) vcan0 00000002#0DA8B7 R
(323131.532000) vcan0 00000001#0EA9B8 R
(323132.532000) vcan0 00000002#0FAAB9 R
(323133.532000) vcan0 00000001#1055BA R
(323134.532000) vcan0 00000002#1156BB R
(323135.532000) vcan0 00000001#1257BC R
(323136.532000) vcan0 00000002#1358BD R
(323137.532000) vcan0 00000001#1459BE R
(323138.532000) vcan0 00000002#155ABF R
(323139.532000) vcan0 00000001#165BC0 R
(323140.532000) vcan0 00000002#175CC1 R
(323141.532000) vcan0 00000001#185DC2 R
(323142.532000) vcan0 00000002#195EC3 R
(323143.532000) vcan0 00000001#1A5FC4 R
(323144.532000) vcan0 00000002#1B60C5 R
(323145.532000) vcan0 00000001#1C61C6 R
(323146.532000) vcan0 00000002#1D62C7 R
(323147.532000) vcan0 00000001#1E63C8 R
(323148.532000) vcan0 00000002#1F64C9 R
(323149.532000) vcan0 00000001#2065CA R
(323150.532000) vcan0 00000002#2166CB R
(323151.532000) vcan0 00000001#2267CC R
(323152.532000) vcan0 00000002#2368CD R
(323153.532000) vcan0 00000001#2469CE R
(323154.532000) vcan0 00000002#256ACF R
(323155.532000) vcan0 00000001#266BD0 R
(323156.532000) vcan0 00000002#276CD1 R
(323157.532000) vcan0 00000001#286DD2 R
(323158.532000) vcan0 00000002#296ED3 R
(323159.532000) vcan0 00000001#2A6FD4 R
(323160.532000) vcan0 00000002#2B70D5 R
(323161.532000) vcan0 00000001#2C71D6 R
(323162.532000) vcan0 00000002#2D72D7 R
(323163.532000) vcan0 00000001#2E73D8 R
(323164.532000) vcan0 00000002#2F74D9 R
(323165.532000) vcan0 00000001#3075DA R
(323166.532000) vcan0 00000002#3176DB R
(323167.532000) vcan0 00000001#3277DC R
(323168.532000) vcan0 00000002#3378DD R
(323169.532000) vcan0 00000001#3479DE R
(323170.532000) vcan0 00000002#357ADF R
(323171.532000) vcan0 00000001#367BE0 R
(323172.532000) vcan0 00000002#377CE1 R
(323173.532000) vcan0 00000001#387DE2 R
(323174.532000) vcan0 00000002#397EE3 R
(323175.532000) vcan0 00000001#3A7FE4 R
(323176.532000) vcan0 00000002#3B80E5 R
(323177.532000) vcan0 00000001#3C81E6 R
(323178.532000) vcan0 00000002#3D82E7 R
(323179.532000) vcan0 00000001#3E83E8 R
(323180.532000) vcan0 00000002#3F84E9 R
(323181.532000) vcan0 00000001#4085EA R
(323182.532000) vcan0 00000002#4186EB R
(323183.532000) vcan0 00000001#4287EC R
(323184.532000) vcan0 00000002#4388ED R
(323185.532000) vcan0 00000001#4489EE R
(323186.532000) vcan0 00000002#458AEF R
(323187.532000) vcan0 00000001#468BF0 R
(323188.532000) vcan0 00000002#478CF1 R
(323189.532000) vcan0 00000001#488DF2 R
(323190.532000) vcan0 00000002#498EF3 R
(323191.532000) vcan0 00000001#4A8FF4 R
(323192.532000) vcan0 00000002#4B90F5 R
(323193.532000) vcan0 00000001#4C91F6 R
(323194.532000) vcan0 00000002#4D92F7 R
(323195.532000) vcan0 00000001#4E93F8 R
(323196.532000) vcan0 00000002#4F94F9 R
(323197.532000) vcan0 00000001#5095FA R
(323198.532000) vcan0 00000002#5196FB R
(323199.532000) vcan0 00000001#5297FC R
(323200.532000) vcan0 00000002#5398FD R
(323201.532000) vcan0 00000001#5499FE R
(323202.532000) vcan0 00000002#009AAA R
(323203.532000) vcan0 00000001#019BAB R
(323204.532000) vcan0 00000002#029CAC R
(323205.532000) vcan0 00000001#039DAD R
(323206.532000) vcan0 00000002#049EAE R
(323207.532000) vcan0 00000001#059FAF R
(323208.532000) vcan0 00000002#06A0B0 R
(323209.532000) vcan0 00000001#07A1B1 R
(323210.532000) vcan0 00000002#08A2B2 R
(323211.532000) vcan0 00000001#09A3B3 R
(323212.532000) vcan0 00000002#0AA4B4 R
(323213.532000) vcan0 00000001#0BA5B5 R
(323214.532000) vcan0 00000002#0CA6B6 R
(323215.532000) vcan0 00000001#0DA7B7 R
(323216.532000) vcan0 00000002#0EA8B8 R
(323217.532000) vcan0 00000001#0FA9B9 R
(323218.532000) vcan0 00000002#10AABA R
(323219.532000) vcan0 00000001#1155BB R
(323220.532000) vcan0 00000002#1256BC R
(323221.532000) vcan0 00000001#1357BD R
(323222.532000) vcan0 00000002#1458BE R
(323223.532000) vcan0 00000001#1559BF R
(323224.532000) vcan0 00000002#165AC0 R
(323225.532000) vcan0 00000001#175BC1 R
(323226.532000) vcan0 00000002#185CC2 R
(323227.532000) vcan0 00000001#195DC3 R
(323228.532000) vcan0 00000002#1A5EC4 R
(323229.532000) vcan0 00000001#1B5FC5 R
(323230.532000) vcan0 00000002#1C60C6 R
(323231.532000) vcan0 00000001#1D61C7 R
(323232.532000) vcan0 00000002#1E62C8 R
(323233.532000) vcan0 00000001#1F63C9 R
(323234.532000) vcan0 00000002#2064CA R
(323235.532000) vcan0 00000001#2165CB R
(323236.532000) vcan0 00000002#2266CC R
(323237.532000) vcan0 00000001#2367CD R
(323238.532000) vcan0 00000002#2468CE R
(323239.532000) vcan0 00000001#2569CF R
(323240.532000) vcan0 00000002#266AD0 R
(323241.532000) vcan0 00000001#276BD1 R
(323242.532000) vcan0 00000002#286CD2 R
(323243.532000) vcan0 00000001#296DD3 R
(323244.532000) vcan0 00000002#2A6ED4 R
(323245.532000) vcan0 00000001#2B6FD5 R
(323246.532000) vcan0 00000002#2C70D6 R
(323247.532000) vcan0 00000001#2D71D7 R
(323248.532000) vcan0 00000002#2E72D8 R
(323249.532000) vcan0 00000001#2F73D9 R
(323250.532000) vcan0 00000002#3074DA R
(323251.532000) vcan0 00000001#3175DB R
(323252.532000) vcan0 00000002#3276DC R
(323253.532000) vcan0 00000001#3377DD R
(323254.532000) vcan0 00000002#3478DE R
(323255.532000) vcan0 00000001#3579DF R
(323256.532000) vcan0 00000002#367AE0 R
(323257.532000) vcan0 00000001#377BE1 R
(323258.532000) vcan0 00000002#387CE2 R
(323259.532000) vcan0 00000001#397DE3 R
(323260.532000) vcan0 00000002#3A7EE4 R
(323261.532000) vcan0 00000001#3B7FE5 R
(323262.532000) vcan0 00000002#3C80E6 R
(323263.532000) vcan0 00000001#3D81E7 R
(323264.532000) vcan0 00000002#3E82E8 R
(323265.532000) vcan0 00000001#3F83E9 R
(323266.532000) vcan0 00000002#4084EA R
(323267.532000) vcan0 00000001#4185EB R
(323268.532000) vcan0 00000002#4286EC R
(323269.532000) vcan0 00000001#4387ED R
(323270.532000) vcan0 00000002#4488EE R
(323271.532000) vcan0 00000001#4589EF R
(323272.532000) vcan0 00000002#468AF0 R
(323273.532000) vcan0 00000001#478BF1 R
(323274.532000) vcan0 00000002#488CF2 R
(323275.532000) vcan0 00000001#498DF3 R
(323276.532000) vcan0 00000002#4A8EF4 R
(323277.532000) vcan0 00000001#4B8FF5 R
(323278.532000) vcan0 00000002#4C90F6 R
(323279.532000) vcan0 00000001#4D91F7 R
(323280.532000) vcan0 00000002#4E92F8 R
(323281.532000) vcan0 00000001#4F93F9 R
(323282.532000) vcan0 00000002#5094FA R
(323283.532000) vcan0 00000001#5195FB R
(323284.532000) vcan0 00000002#5296FC R
(323285.532000) vcan0 00000001#5397FD R
(323286.532000) vcan0 00000002#5498FE R
(323287.532000) vcan0 00000001#0099AA R
(323288.532000) vcan0 00000002#019AAB R
(323289.532000) vcan0 00000001#029BAC R
(323290.532000) vcan0 00000002#039CAD R
(323291.532000) vcan0 00000001#049DAE R
(323292.532000) vcan0 00000002#059EAF R
(323293.532000) vcan0 00000001#069FB0 R
(323294.532000) vcan0 00000002#07A0B1 R
(323295.532000) vcan0 00000001#08A1B2 R
(323296.532000) vcan0 00000002#09A2B3 R
(323297.532000) vcan0 00000001#0AA3B4 R
(323298.532000) vcan0 00000002#0BA4B5 R
(323299.532000) vcan0 00000001#0CA5B6 R
(323300.532000) vcan0 00000002#0DA6B7 R
(323301.532000) vcan0 00000001#0EA7B8 R
(323302.532000) vcan0 00000002#0FA8B9 R
(323303.532000) vcan0 00000001#10A9BA R
(323304.532000) vcan0 00000002#11AABB R
(323305.532000) vcan0 00000001#1255BC R
(323306.532000) vcan0 00000002#1356BD R
(323307.532000) vcan0 00000001#1457BE R
(323308.532000) vcan0 00000002#1558BF R
(323309.532000) vcan0 00000001#1659C0 R
(323310.532000) vcan0 00000002#175AC1 R
(323311.532000) vcan0 00000001#185BC2 R
(323312.532000) vcan0 00000002#195CC3 R
(323313.532000) vcan0 00000001#1A5DC4 R
(323314.532000) vcan0 00000002#1B5EC5 R
(323315.532000) vcan0 00000001#1C5FC6 R
(323316.532000) vcan0 00000002#1D60C7 R
(323317.532000) vcan0 00000001#1E61C8 R
(323318.532000) vcan0 00000002#1F62C9 R
(323319.532000) vcan0 00000001#2063CA R
(323320.532000) vcan0 00000002#2164CB R
(323321.532000) vcan0 00000001#2265CC R
(323322.532000) vcan0 00000002#2366CD R
(323323.532000) vcan0 00000001#2467CE R
(323324.532000) vcan0 00000002#2568CF R
(323325.532000) vcan0 00000001#2669D0 R
(323326.532000) vcan0 00000002#276AD1 R
(323327.532000) vcan0 00000001#286BD2 R
(323328.532000) vcan0 00000002#296CD3 R
(323329.532000) vcan0 00000001#2A6DD4 R
(323330.532000) vcan0 00000002#2B6ED5 R
(323331.532000) vcan0 00000001#2C6FD6 R
(323332.532000) vcan0 00000002#2D70D7 R
(323333.532000) vcan0 00000001#2E71D8 R
(323334.532000) vcan0 00000002#2F72D9 R
(323335.532000) vcan0 00000001#3073DA R
(323336.532000) vcan0 00000002#3174DB R
(323337.532000) vcan0 00000001#3275DC R
(323338.532000) vcan0 00000002#3376DD R
(323339.532000) vcan0 00000001#3477DE R
(323340.532000) vcan0 00000002#3578DF R
(323341.532000) vcan0 00000001#3679E0 R
(323342.532000) vcan0 00000002#377AE1 R
(323343.532000) vcan0 00000001#387BE2 R
(323344.532000) vcan0 00000002#397CE3 R
(323345.532000) vcan0 00000001#3A7DE4 R
(323346.532000) vcan0 00000002#3B7EE5 R
(323347.532000) vcan0 00000001#3C7FE6 R
(323348.532000) vcan0 00000002#3D80E7 R
(323349.532000) vcan0 00000001#3E81E8 R
(323350.532000) vcan0 00000002#3F82E9 R
(323351.532000) vcan0 00000001#4083EA R
(323352.532000) vcan0 00000002#4184EB R
(323353.532000) vcan0 00000001#4285EC R
(323354.532000) vcan0 00000002#4386ED R
(323355.532000) vcan0 00000001#4487EE R
(323356.532000) vcan0 00000002#4588EF R
(323357.532000) vcan0 00000001#4689F0 R
(323358.532000) vcan0 00000002#478AF1 R
(323359.532000) vcan0 00000001#488BF2 R
(323360.532000) vcan0 00000002#498CF3 R
(323361.532000) vcan0 00000001#4A8DF4 R
(323362.532000) vcan0 00000002#4B8EF5 R
(323363.532000) vcan0 00000001#4C8FF6 R
(323364.532000) vcan0 00000002#4D90F7 R
(323365.532000) vcan0 00000001#4E91F8 R
(323366.532000) vcan0 00000002#4F92F9 R
(323367.532000) vcan0 00000001#5093FA R
(323368.532000) vcan0 00000002#5194FB R
(323369.532000) vcan0 00000001#5295FC R
(323370.532000) vcan0 00000002#5396FD R
(323371.532000) vcan0 00000001#5497FE R
(323372.532000) vcan0 00000002#0098AA R
(323373.532000) vcan0 00000001#0199AB R
(323374.532000) vcan0 00000002#029AAC R
(323375.532000) vcan0 00000001#039BAD R
(323376.532000) vcan0 00000002#049CAE R
(323377.532000) vcan0 00000001#059DAF R
(323378.532000) vcan0 00000002#069EB0 R
(323379.532000) vcan0 00000001#079FB1 R
(323380.532000) vcan0 00000002#08A0B2 R
(323381.532000) vcan0 00000001#09A1B3 R
(323382.532000) vcan0 00000002#0AA2B4 R
(323383.532000) vcan0 00000001#0BA3B5 R
(323384.532000) vcan0 00000002#0CA4B6 R
(323385.532000) vcan0 00000001#0DA5B7 R
(323386.532000) vcan0 00000002#0EA6B8 R
(323387.532000) vcan0 00000001#0FA7B9 R
(323388.532000) vcan0 00000002#10A8BA R
(323389.532000) vcan0 00000001#11A9BB R
(323390.532000) vcan0 00000002#12AABC R
(323391.532000) vcan0 00000001#1355BD R
(323392.532000) vcan0 00000002#1456BE R
(323393.532000) vcan0 00000001#1557BF R
(323394.532000) vcan0 00000002#1658C0 R
(323395.532000) vcan0 00000001#1759C1 R
(323396.532000) vcan0 00000002#185AC2 R
(323397.532000) vcan0 00000001#195BC3 R
(323398.532000) vcan0 00000002#1A5CC4 R
(323399.532000) vcan0 00000001#1B5DC5 R
(323400.532000) vcan0 00000002#1C5EC6 R
(323401.532000) vcan0 00000001#1D5FC7 R
(323402.532000) vcan0 00000002#1E60C8 R
(323403.532000) vcan0 00000001#1F61C9 R
(323404.532000) vcan0 00000002#2062CA R
(323405.532000) vcan0 00000001#2163CB R
(323406.532000) vcan0 00000002#2264CC R
(323407.532000) vcan0 00000001#2365CD R
(323408.532000) vcan0 00000002#2466CE R
(323409.532000) vcan0 00000001#2567CF R
(323410.532000) vcan0 00000002#2668D0 R
(323411.532000) vcan0 00000001#2769D1 R
(323412.532000) vcan0 00000002#286AD2 R
(323413.532000) vcan0 00000001#296BD3 R
(323414.532000) vcan0 00000002#2A6CD4 R
(323415.532000) vcan0 00000001#2B6DD5 R
(323416.532000) vcan0 00000002#2C6ED6 R
(323417.532000) vcan0 00000001#2D6FD7 R
(323418.532000) vcan0 00000002#2E70D8 R
(323419.532000) vcan0 00000001#2F71D9 R
(323420.532000) vcan0 00000002#3072DA R
(323421.532000) vcan0 00000001#3173DB R
(323422.532000) vcan0 00000002#3274DC R
(323423.532000) vcan0 00000001#3375DD R
(323424.532000) vcan0 00000002#3476DE R
(323425.532000) vcan0 00000001#3577DF R
(323426.532000) vcan0 00000002#3678E0 R
(323427.532000) vcan0 00000001#3779E1 R
(323428.532000) vcan0 00000002#387AE2 R
(323429.532000) vcan0 00000001#397BE3 R
(323430.532000) vcan0 00000002#3A7CE4 R
(323431.532000) vcan0 00000001#3B7DE5 R
(323432.532000) vcan0 00000002#3C7EE6 R
(323433.532000) vcan0 00000001#3D7FE7 R
(323434.532000) vcan0 00000002#3E80E8 R
(323435.532000) vcan0 00000001#3F81E9 R
(323436.532000) vcan0 00000002#4082EA R
(323437.532000) vcan0 00000001#4183EB R
(323438.532000) vcan0 00000002#4284EC R
(323439.532000) vcan0 00000001#4385ED R
(323440.532000) vcan0 00000002#4486EE R
(323441.532000) vcan0 00000001#4587EF R
(323442.532000) vcan0 00000002#4688F0 R
(323443.532000) vcan0 00000001#4789F1 R
(323444.532000) vcan0 00000002#488AF2 R
(323445.532000) vcan0 00000001#498BF3 R
(323446.532000) vcan0 00000002#4A8CF4 R
(323447.532000) vcan0 00000001#4B8DF5 R
(323448.532000) vcan0 00000002#4C8EF6 R
(323449.532000) vcan0 00000001#4D8FF7 R
(323450.532000) vcan0 00000002#4E90F8 R
(323451.532000) vcan0 00000001#4F91F9 R
(323452.532000) vcan0 00000002#5092FA R
(323453.532000) vcan0 00000001#5193FB R
(323454.532000) vcan0 00000002#5294FC R
(323455.532000) vcan0 00000001#5395FD R
(323456.532000) vcan0 00000002#5496FE R
(323457.532000) vcan0 00000001#0097AA R
(323458.532000) vcan0 00000002#0198AB R
(323459.532000) vcan0 00000001#0299AC R
(323460.532000) vcan0 00000002#039AAD R
(323461.532000) vcan0 00000001#049BAE R
(323462.532000) vcan0 00000002#059CAF R
(323463.532000) vcan0 00000001#069DB0 R
(323464.532000) vcan0 00000002#079EB1 R
(323465.532000) vcan0 00000001#089FB2 R
(323466.532000) vcan0 00000002#09A0B3 R
(323467.532000) vcan0 00000001#0AA1B4 R
(323468.532000) vcan0 00000002#0BA2B5 R
(323469.532000) vcan0 00000001#0CA3B6 R
(323470.532000) vcan0 00000002#0DA4B7 R
(323471.532000) vcan0 00000001#0EA5B8 R
(323472.532000) vcan0 00000002#0FA6B9 R
(323473.532000) vcan0 00000001#10A7BA R
(323474.532000) vcan0 00000002#11A8BB R
(323475.532000) vcan0 00000001#12A9BC R
(323476.532000) vcan0 00000002#13AABD R
(323477.532000) vcan0 00000001#1455BE R
(323478.532000) vcan0 00000002#1556BF R
(323479.532000) vcan0 00000001#1657C0 R
(323480.532000) vcan0 00000002#1758C1 R
(323481.532000) vcan0 00000001#1859C2 R
(323482.532000) vcan0 00000002#195AC3 R
(323483.532000) vcan0 00000001#1A5BC4 R
(323484.532000) vcan0 00000002#1B5CC5 R
(323485.532000) vcan0 00000001#1C5DC6 R
(323486.532000) vcan0 00000002#1D5EC7 R
(323487.532000) vcan0 00000001#1E5FC8 R
(323488.532000) vcan0 00000002#1F60C9 R
(323489.532000) vcan0 00000001#2061CA R
(323490.532000) vcan0 00000002#2162CB R
(323491.532000) vcan0 00000001#2263CC R
(323492.532000) vcan0 00000002#2364CD R
(323493.532000) vcan0 00000001#2465CE R
(323494.532000) vcan0 00000002#2566CF R
(323495.532000) vcan0 00000001#2667D0 R
(323496.532000) vcan0 00000002#2768D1 R
(323497.532000) vcan0 00000001#2869D2 R
(323498.532000) vcan0 00000002#296AD3 R
(323499.532000) vcan0 00000001#2A6BD4 R
(323500.532000) vcan0 00000002#2B6CD5 R
(323501.532000) vcan0 00000001#2C6DD6 R
(323502.532000) vcan0 00000002#2D6ED7 R
(323503.532000) vcan0 00000001#2E6FD8 R
(323504.532000) vcan0 00000002#2F70D9 R
(323505.532000) vcan0 00000001#3071DA R
(323506.532000) vcan0 00000002#3172DB R
(323507.532000) vcan0 00000001#3273DC R
(323508.532000) vcan0 00000002#3374DD R
(323509.532000) vcan0 00000001#3475DE R
(323510.532000) vcan0 00000002#3576DF R
(323511.532000) vcan0 00000001#3677E0 R
(323512.532000) vcan0 00000002#3778E1 R
(323513.532000) vcan0 00000001#3879E2 R
(323514.532000) vcan0 00000002#397AE3 R
(323515.532000) vcan0 00000001#3A7BE4 R
(323516.532000) vcan0 00000002#3B7CE5 R
(323517.532000) vcan0 00000001#3C7DE6 R
(323518.532000) vcan0 00000002#3D7EE7 R
(323519.532000) vcan0 00000001#3E7FE8 R
(323520.532000) vcan0 00000002#3F80E9 R
(323521.532000) vcan0 00000001#4081EA R
(323522.532000) vcan0 00000002#4182EB R
(323523.532000) vcan0 00000001#4283EC R
(323524.532000) vcan0 00000002#4384ED R
(323525.532000) vcan0 00000001#4485EE R
(323526.532000) vcan0 00000002#4586EF R
(323527.532000) vcan0 00000001#4687F0 R
(323528.532000) vcan0 00000002#4788F1 R
(323529.532000) vcan0 00000001#4889F2 R
(323530.532000) vcan0 00000002#498AF3 R
(323531.532000) vcan0 00000001#4A8BF4 R
(323532.532000) vcan0 00000002#4B8CF5 R
(323533.532000) vcan0 00000001#4C8DF6 R
(323534.532000) vcan0 00000002#4D8EF7 R
(323535.532000) vcan0 00000001#4E8FF8 R
(323536.532000) vcan0 00000002#4F90F9 R
(323537.532000) vcan0 00000001#5091FA R
(323538.532000) vcan0 00000002#5192FB R
(323539.532000) vcan0 00000001#5293FC R
(323540.532000) vcan0 00000002#5394FD R
(323541.532000) vcan0 00000001#5495FE R
(323542.532000) vcan0 00000002#0096AA R
(323543.532000) vcan0 00000001#0197AB R
(323544.532000) vcan0 00000002#0298AC R
(323545.532000) vcan0 00000001#0399AD R
(323546.532000) vcan0 00000002#049AAE R
(323547.532000) vcan0 00000001#059BAF R
(323548.532000) vcan0 00000002#069CB0 R
(323549.532000) vcan0 00000001#079DB1 R
(323550.532000) vcan0 00000002#089EB2 R
(323551.532000) vcan0 00000001#099FB3 R
(323552.532000) vcan0 00000002#0AA0B4 R
(323553.532000) vcan0 00000001#0BA1B5 R
(323554.532000) vcan0 00000002#0CA2B6 R
(323555.532000) vcan0 00000001#0DA3B7 R
(323556.532000) vcan0 00000002#0EA4B8 R
(323557.532000) vcan0 00000001#0FA5B9 R
(323558.532000) vcan0 00000002#10A6BA R
(323559.532000) vcan0 00000001#11A7BB R
(323560.532000) vcan0 00000002#12A8BC R
(323561.532000) vcan0 00000001#13A9BD R
(323562.532000) vcan0 00000002#14AABE R
(323563.532000) vcan0 00000001#1555BF R
(323564.532000) vcan0 00000002#1656C0 R
(323565.532000) vcan0 00000001#1757C1 R
(323566.532000) vcan0 00000002#1858C2 R
(323567.532000) vcan0 00000001#1959C3 R
(323568.532000) vcan0 00000002#1A5AC4 R
(323569.532000) vcan0 00000001#1B5BC5 R
(323570.532000) vcan0 00000002#1C5CC6 R
(323571.532000) vcan0 00000001#1D5DC7 R
(323572.532000) vcan0 00000002#1E5EC8 R
(323573.532000) vcan0 00000001#1F5FC9 R
(323574.532000) vcan0 00000002#2060CA R
(323575.532000) vcan0 00000001#2161CB R
(323576.532000) vcan0 00000002#2262CC R
(323577.532000) vcan0 00000001#2363CD R
(323578.532000) vcan0 00000002#2464CE R
(323579.532000) vcan0 00000001#2565CF R
(323580.532000) vcan0 00000002#2666D0 R
(323581.532000) vcan0 00000001#2767D1 R
(323582.532000) vcan0 00000002#2868D2 R
(323583.532000) vcan0 00000001#2969D3 R
(323584.532000) vcan0 00000002#2A6AD4 R
(323585.532000) vcan0 00000001#2B6BD5 R
(323586.532000) vcan0 00000002#2C6CD6 R
(323587.532000) vcan0 00000001#2D6DD7 R
(323588.532000) vcan0 00000002#2E6ED8 R
(323589.532000) vcan0 00000001#2F6FD9 R
(323590.532000) vcan0 00000002#3070DA R
(323591.532000) vcan0 00000001#3171DB R
(323592.532000) vcan0 00000002#3272DC R
(323593.532000) vcan0 00000001#3373DD R
(323594.532000) vcan0 00000002#3474DE R
(323595.532000) vcan0 00000001#3575DF R
(323596.532000) vcan0 00000002#3676E0 R
(323597.532000) vcan0 00000001#3777E1 R
(323598.532000) vcan0 00000002#3878E2 R
(323599.532000) vcan0 00000001#3979E3 R
(323600.532000) vcan0 00000002#3A7AE4 R
(323601.532000) vcan0 00000001#3B7BE5 R
(323602.532000) vcan0 00000002#3C7CE6 R
(323603.532000) vcan0 00000001#3D7DE7 R
(323604.532000) vcan0 00000002#3E7EE8 R
(323605.532000) vcan0 00000001#3F7FE9 R
(323606.532000) vcan0 00000002#4080EA R
(323607.532000) vcan0 00000001#4181EB R
(323608.532000) vcan0 00000002#4282EC R
(323609.532000) vcan0 00000001#4383ED R
(323610.532000) vcan0 00000002#4484EE R
(323611.532000) vcan0 00000001#4585EF R
(323612.532000) vcan0 00000002#4686F0 R
(323613.532000) vcan0 00000001#4787F1 R
(323614.532000) vcan0 00000002#4888F2 R
(323615.532000) vcan0 00000001#4989F3 R
(323616.532000) vcan0 00000002#4A8AF4 R
(323617.532000) vcan0 00000001#4B8BF5 R
(323618.532000) vcan0 00000002#4C8CF6 R
(323619.532000) vcan0 00000001#4D8DF7 R
(323620.532000) vcan0 00000002#4E8EF8 R
(323621.532000) vcan0 00000001#4F8FF9 R
(323622.532000) vcan0 00000002#5090FA R
(323623.532000) vcan0 00000001#5191FB R
(323624.532000) vcan0 00000002#5292FC R
(323625.532000) vcan0 00000001#5393FD R
(323626.532000) vcan0 00000002#5494FE R
(323627.532000) vcan0 00000001#0095AA R
(323628.532000) vcan0 00000002#0196AB R
(323629.532000) vcan0 00000001#0297AC R
(323630.532000) vcan0 00000002#0398AD R
(323631.532000) vcan0 00000001#0499AE R
(323632.532000) vcan0 00000002#059AAF R
(323633.532000) vcan0 00000001#069BB0 R
(323634.532000) vcan0 00000002#079CB1 R
(323635.532000) vcan0 00000001#089DB2 R
(323636.532000) vcan0 00000002#099EB3 R
(323637.532000) vcan0 00000001#0A9FB4 R
(323638.532000) vcan0 00000002#0BA0B5 R
(323639.532000) vcan0 00000001#0CA1B6 R
(323640.532000) vcan0 00000002#0DA2B7 R
(323641.532000) vcan0 00000001#0EA3B8 R
(323642.532000) vcan0 00000002#0FA4B9 R
(323643.532000) vcan0 00000001#10A5BA R
(323644.532000) vcan0 00000002#11A6BB R
(323645.532000) vcan0 00000001#12A7BC R
(323646.532000) vcan0 00000002#13A8BD R
(323647.532000) vcan0 00000001#14A9BE R
(323648.532000) vcan0 00000002#15AABF R
(323649.532000) vcan0 00000001#1655C0 R
(323650.532000) vcan0 00000002#1756C1 R
(323651.532000) vcan0 00000001#1857C2 R
(323652.532000) vcan0 00000002#1958C3 R
(323653.532000) vcan0 00000001#1A59C4 R
(323654.532000) vcan0 00000002#1B5AC5 R
(323655.532000) vcan0 00000001#1C5BC6 R
(323656.532000) vcan0 00000002#1D5CC7 R
(323657.532000) vcan0 00000001#1E5DC8 R
(323658.532000) vcan0 00000002#1F5EC9 R
(323659.532000) vcan0 00000001#205FCA R
(323660.532000) vcan0 00000002#2160CB R
(323661.532000) vcan0 00000001#2261CC R
(323662.532000) vcan0 00000002#2362CD R
(323663.532000) vcan0 00000001#2463CE R
(323664.532000) vcan0 00000002#2564CF R
(323665.532000) vcan0 00000001#2665D0 R
(323666.532000) vcan0 00000002#2766D1 R
(323667.532000) vcan0 00000001#2867D2 R
(323668.532000) vcan0 00000002#2968D3 R
(323669.532000) vcan0 00000001#2A69D4 R
(323670.532000) vcan0 00000002#2B6AD5 R
(323671.532000) vcan0 00000001#2C6BD6 R
(323672.532000) vcan0 00000002#2D6CD7 R
(323673.532000) vcan0 00000001#2E6DD8 R
(323674.532000) vcan0 00000002#2F6ED9 R
(323675.532000) vcan0 00000001#306FDA R
(323676.532000) vcan0 00000002#3170DB R
(323677.532000) vcan0 00000001#3271DC R
(323678.532000) vcan0 00000002#3372DD R
(323679.532000) vcan0 00000001#3473DE R
(323680.532000) vcan0 00000002#3574DF R
(323681.532000) vcan0 00000001#3675E0 R
(323682.532000) vcan0 00000002#3776E1 R
(323683.532000) vcan0 00000001#3877E2 R
(323684.532000) vcan0 00000002#3978E3 R
(323685.532000) vcan0 00000001#3A79E4 R
(323686.532000) vcan0 00000002#3B7AE5 R
(323687.532000) vcan0 00000001#3C7BE6 R
(323688.532000) vcan0 00000002#3D7CE7 R
(323689.532000) vcan0 00000001#3E7DE8 R
(323690.532000) vcan0 00000002#3F7EE9 R
(323691.532000) vcan0 00000001#407FEA R
(323692.532000) vcan0 00000002#4180EB R
(323693.532000) vcan0 00000001#4281EC R
(323694.532000) vcan0 00000002#4382ED R
(323695.532000) vcan0 00000001#4483EE R
(323696.532000) vcan0 00000002#4584EF R
(323697.532000) vcan0 00000001#4685F0 R
(323698.532000) vcan0 00000002#4786F1 R
(323699.532000) vcan0 00000001#4887F2 R
(323700.532000) vcan0 00000002#4988F3 R
(323701.532000) vcan0 00000001#4A89F4 R
(323702.532000) vcan0 00000002#4B8AF5 R
(323703.532000) vcan0 00000001#4C8BF6 R
(323704.532000) vcan0 00000002#4D8CF7 R
(323705.532000) vcan0 00000001#4E8DF8 R
(323706.532000) vcan0 00000002#4F8EF9 R
(323707.532000) vcan0 00000001#508FFA R
(323708.532000) vcan0 00000002#5190FB R
(323709.532000) vcan0 00000001#5291FC R
(323710.532000) vcan0 00000002#5392FD R
(323711.532000) vcan0 00000001#5493FE R
(323712.532000) vcan0 00000002#0094AA R
(323713.532000) vcan0 00000001#0195AB R
(323714.532000) vcan0 00000002#0296AC R
(323715.532000) vcan0 00000001#0397AD R
(323716.532000) vcan0 00000002#0498AE R
(323717.532000) vcan0 00000001#0599AF R
(323718.532000) vcan0 00000002#069AB0 R
(323719.532000) vcan0 00000001#079BB1 R
(323720.532000) vcan0 00000002#089CB2 R
(323721.532000) vcan0 00000001#099DB3 R
(323722.532000) vcan0 00000002#0A9EB4 R
(323723.532000) vcan0 00000001#0B9FB5 R
(323724.532000) vcan0 00000002#0CA0B6 R
(323725.532000) vcan0 00000001#0DA1B7 R
(323726.532000) vcan0 00000002#0EA2B8 R
(323727.532000) vcan0 00000001#0FA3B9 R
(323728.532000) vcan0 00000002#10A4BA R
(323729.532000) vcan0 00000001#11A5BB R
(323730.532000) vcan0 00000002#12A6BC R
(323731.532000) vcan0 00000001#13A7BD R
(323732.532000) vcan0 00000002#14A8BE R
(323733.532000) vcan0 00000001#15A9BF R
(323734.532000) vcan0 00000002#16AAC0 R
(323735.532000) vcan0 00000001#1755C1 R
(323736.532000) vcan0 00000002#1856C2 R
(323737.532000) vcan0 00000001#1957C3 R
(323738.532000) vcan0 00000002#1A58C4 R
(323739.532000) vcan0 00000001#1B59C5 R
(323740.532000) vcan0 00000002#1C5AC6 R
(323741.532000) vcan0 00000001#1D5BC7 R
(323742.532000) vcan0 00000002#1E5CC8 R
(323743.532000) vcan0 00000001#1F5DC9 R
(323744.532000) vcan0 00000002#205ECA R
(323745.532000) vcan0 00000001#215FCB R
(323746.532000) vcan0 00000002#2260CC R
(323747.532000) vcan0 00000001#2361CD R
(323748.532000) vcan0 00000002#2462CE R
(323749.532000) vcan0 00000001#2563CF R
(323750.532000) vcan0 00000002#2664D0 R
(323751.532000) vcan0 00000001#2765D1 R
(323752.532000) vcan0 00000002#2866D2 R
(323753.532000) vcan0 00000001#2967D3 R
(323754.532000) vcan0 00000002#2A68D4 R
(323755.532000) vcan0 00000001#2B69D5 R
(323756.532000) vcan0 00000002#2C6AD6 R
(323757.532000) vcan0 00000001#2D6BD7 R
(323758.532000) vcan0 00000002#2E6CD8 R
(323759.532000) vcan0 00000001#2F6DD9 R
(323760.532000) vcan0 00000002#306EDA R
(323761.532000) vcan0 00000001#316FDB R
(323762.532000) vcan0 00000002#3270DC R
(323763.532000) vcan0 00000001#3371DD R
(323764.532000) vcan0 00000002#3472DE R
(323765.532000) vcan0 00000001#3573DF R
(323766.532000) vcan0 00000002#3674E0 R
(323767.532000) vcan0 00000001#3775E1 R
(323768.532000) vcan0 00000002#3876E2 R
(323769.532000) vcan0 00000001#3977E3 R
(323770.532000) vcan0 00000002#3A78E4 R
(323771.532000) vcan0 00000001#3B79E5 R
(323772.532000) vcan0 00000002#3C7AE6 R
(323773.532000) vcan0 00000001#3D7BE7 R
(323774.532000) vcan0 00000002#3E7CE8 R
(323775.532000) vcan0 00000001#3F7DE9 R
(323776.532000) vcan0 00000002#407EEA R
(323777.532000) vcan0 00000001#417FEB R
(323778.532000) vcan0 00000002#4280EC R
(323779.532000) vcan0 00000001#4381ED R
(323780.532000) vcan0 00000002#4482EE R
(323781.532000) vcan0 00000001#4583EF R
(323782.532000) vcan0 00000002#4684F0 R
(323783.532000) vcan0 00000001#4785F1 R
(323784.532000) vcan0 00000002#4886F2 R
(323785.532000) vcan0 00000001#4987F3 R
(323786.532000) vcan0 00000002#4A88F4 R
(323787.532000) vcan0 00000001#4B89F5 R
(323788.532000) vcan0 00000002#4C8AF6 R
(323789.532000) vcan0 00000001#4D8BF7 R
(323790.532000) vcan0 00000002#4E8CF8 R
(323791.532000) vcan0 00000001#4F8DF9 R
(323792.532000) vcan0 00000002#508EFA R
(323793.532000) vcan0 00000001#518FFB R
(323794.532000) vcan0 00000002#5290FC R
(323795.532000) vcan0 00000001#5391FD R
(323796.532000) vcan0 00000002#5492FE R
(323797.532000) vcan0 00000001#0093AA R
(323798.532000) vcan0 00000002#0194AB R
(323799.532000) vcan0 00000001#0295AC R
(323800.532000) vcan0 00000002#0396AD R
(323801.532000) vcan0 00000001#0497AE R
(323802.532000) vcan0 00000002#0598AF R
(323803.532000) vcan0 00000001#0699B0 R
(323804.532000) vcan0 00000002#079AB1 R
(323805.532000) vcan0 00000001#089BB2 R
(323806.532000) vcan0 00000002#099CB3 R
(323807.532000) vcan0 00000001#0A9DB4 R
(323808.532000) vcan0 00000002#0B9EB5 R
(323809.532000) vcan0 00000001#0C9FB6 R
(323810.532000) vcan0 00000002#0DA0B7 R
(323811.532000) vcan0 00000001#0EA1B8 R
(323812.532000) vcan0 00000002#0FA2B9 R
(323813.532000) vcan0 00000001#10A3BA R
(323814.532000) vcan0 00000002#11A4BB R
(323815.532000) vcan0 00000001#12A5BC R
(323816.532000) vcan0 00000002#13A6BD R
(323817.532000) vcan0 00000001#14A7BE R
(323818.532000) vcan0 00000002#15A8BF R
(323819.532000) vcan0 00000001#16A9C0 R
(323820.532000) vcan0 00000002#17AAC1 R
(323821.532000) vcan0 00000001#1855C2 R
(323822.532000) vcan0 00000002#1956C3 R
(323823.532000) vcan0 00000001#1A57C4 R
(323824.532000) vcan0 00000002#1B58C5 R
(323825.532000) vcan0 00000001#1C59C6 R
(323826.532000) vcan0 00000002#1D5AC7 R
(323827.532000) vcan0 00000001#1E5BC8 R
(323828.532000) vcan0 00000002#1F5CC9 R
(323829.532000) vcan0 00000001#205DCA R
(323830.532000) vcan0 00000002#215ECB R
(323831.532000) vcan0 00000001#225FCC R
(323832.532000) vcan0 00000002#2360CD R
(323833.532000) vcan0 00000001#2461CE R
(323834.532000) vcan0 00000002#2562CF R
(323835.532000) vcan0 00000001#2663D0 R
(323836.532000) vcan0 00000002#2764D1 R
(323837.532000) vcan0 00000001#2865D2 R
(323838.532000) vcan0 00000002#2966D3 R
(323839.532000) vcan0 00000001#2A67D4 R
(323840.532000) vcan0 00000002#2B68D5 R
(323841.532000) vcan0 00000001#2C69D6 R
(323842.532000) vcan0 00000002#2D6AD7 R
(323843.532000) vcan0 00000001#2E6BD8 R
(323844.532000) vcan0 00000002#2F6CD9 R
(323845.532000) vcan0 00000001#306DDA R
(323846.532000) vcan0 00000002#316EDB R
(323847.532000) vcan0 00000001#326FDC R
(323848.532000) vcan0 00000002#3370DD R
(323849.532000) vcan0 00000001#3471DE R
(323850.532000) vcan0 00000002#3572DF R
(323851.532000) vcan0 00000001#3673E0 R
(323852.532000) vcan0 00000002#3774E1 R
(323853.532000) vcan0 00000001#3875E2 R
(323854.532000) vcan0 00000002#3976E3 R
(323855.532000) vcan0 00000001#3A77E4 R
(323856.532000) vcan0 00000002#3B78E5 R
(323857.532000) vcan0 00000001#3C79E6 R
(323858.532000) vcan0 00000002#3D7AE7 R
(323859.532000) vcan0 00000001#3E7BE8 R
(323860.532000) vcan0 00000002#3F7CE9 R
(323861.532000) vcan0 00000001#407DEA R
(323862.532000) vcan0 00000002#417EEB R
(323863.532000) vcan0 00000001#427FEC R
(323864.532000) vcan0 00000002#4380ED R
(323865.532000) vcan0 00000001#4481EE R
(323866.532000) vcan0 00000002#4582EF R
(323867.532000) vcan0 00000001#4683F0 R
(323868.532000) vcan0 00000002#4784F1 R
(323869.532000) vcan0 00000001#4885F2 R
(323870.532000) vcan0 00000002#4986F3 R
(323871.532000) vcan0 00000001#4A87F4 R
(323872.532000) vcan0 00000002#4B88F5 R
(323873.532000) vcan0 00000001#4C89F6 R
(323874.532000) vcan0 00000002#4D8AF7 R
(323875.532000) vcan0 00000001#4E8BF8 R
(323876.532000) vcan0 00000002#4F8CF9 R
(323877.532000) vcan0 00000001#508DFA R
(323878.532000) vcan0 00000002#518EFB R
(323879.532000) vcan0 00000001#528FFC R
(323880.532000) vcan0 00000002#5390FD R
(323881.532000) vcan0 00000001#5491FE R
(323882.532000) vcan0 00000002#0092AA R
(323883.532000) vcan0 00000001#0193AB R
(323884.532000) vcan0 00000002#0294AC R
(323885.532000) vcan0 00000001#0395AD R
(323886.532000) vcan0 00000002#0496AE R
(323887.532000) vcan0 00000001#0597AF R
(323888.532000) vcan0 00000002#0698B0 R
(323889.532000) vcan0 00000001#0799B1 R
(323890.532000) vcan0 00000002#089AB2 R
(323891.532000) vcan0 00000001#099BB3 R
(323892.532000) vcan0 00000002#0A9CB4 R
(323893.532000) vcan0 00000001#0B9DB5 R
(323894.532000) vcan0 00000002#0C9EB6 R
(323895.532000) vcan0 00000001#0D9FB7 R
(323896.532000) vcan0 00000002#0EA0B8 R
(323897.532000) vcan0 00000001#0FA1B9 R
(323898.532000) vcan0 00000002#10A2BA R
(323899.532000) vcan0 00000001#11A3BB R
(323900.532000) vcan0 00000002#12A4BC R
(323901.532000) vcan0 00000001#13A5BD R
(323902.532000) vcan0 00000002#14A6BE R
(323903.532000) vcan0 00000001#15A7BF R
(323904.532000) vcan0 00000002#16A8C0 R
(323905.532000) vcan0 00000001#17A9C1 R
(323906.532000) vcan0 00000002#18AAC2 R
(323907.532000) vcan0 00000001#1955C3 R
(323908.532000) vcan0 00000002#1A56C4 R
(323909.532000) vcan0 00000001#1B57C5 R
(323910.532000) vcan0 00000002#1C58C6 R
(323911.532000) vcan0 00000001#1D59C7 R
(323912.532000) vcan0 00000002#1E5AC8 R
(323913.532000) vcan0 00000001#1F5BC9 R
(323914.532000) vcan0 00000002#205CCA R
(323915.532000) vcan0 00000001#215DCB R
(323916.532000) vcan0 00000002#225ECC R
(323917.532000) vcan0 00000001#235FCD R
(323918.532000) vcan0 00000002#2460CE R
(323919.532000) vcan0 00000001#2561CF R
(323920.532000) vcan0 00000002#2662D0 R
(323921.532000) vcan0 00000001#2763D1 R
(323922.532000) vcan0 00000002#2864D2 R
(323923.532000) vcan0 00000001#2965D3 R
(323924.532000) vcan0 00000002#2A66D4 R
(323925.532000) vcan0 00000001#2B67D5 R
(323926.532000) vcan0 00000002#2C68D6 R
(323927.532000) vcan0 00000001#2D69D7 R
(323928.532000) vcan0 00000002#2E6AD8 R
(323929.532000) vcan0 00000001#2F6BD9 R
(323930.532000) vcan0 00000002#306CDA R
(323931.532000) vcan0 00000001#316DDB R
(323932.532000) vcan0 00000002#326EDC R
(323933.532000) vcan0 00000001#336FDD R
(323934.532000) vcan0 00000002#3470DE R
(323935.532000) vcan0 00000001#3571DF R
(323936.532000) vcan0 00000002#3672E0 R
(323937.532000) vcan0 00000001#3773E1 R
(323938.532000) vcan0 00000002#3874E2 R
(323939.532000) vcan0 00000001#3975E3 R
(323940.532000) vcan0 00000002#3A76E4 R
(323941.532000) vcan0 00000001#3B77E5 R
(323942.532000) vcan0 00000002#3C78E6 R
(323943.532000) vcan0 00000001#3D79E7 R
(323944.532000) vcan0 00000002#3E7AE8 R
(323945.532000) vcan0 00000001#3F7BE9 R
(323946.532000) vcan0 00000002#407CEA R
(323947.532000) vcan0 00000001#417DEB R
(323948.532000) vcan0 00000002#427EEC R
(323949.532000) vcan0 00000001#437FED R
(323950.532000) vcan0 00000002#4480EE R
(323951.532000) vcan0 00000001#4581EF R
(323952.532000) vcan0 00000002#4682F0 R
(323953.532000) vcan0 00000001#4783F1 R
(323954.532000) vcan0 00000002#4884F2 R
(323955.532000) vcan0 00000001#4985F3 R
(323956.532000) vcan0 00000002#4A86F4 R
(323957.532000) vcan0 00000001#4B87F5 R
(323958.532000) vcan0 00000002#4C88F6 R
(323959.532000) vcan0 00000001#4D89F7 R
(323960.532000) vcan0 00000002#4E8AF8 R
(323961.532000) vcan0 00000001#4F8BF9 R
(323962.532000) vcan0 00000002#508CFA R
(323963.532000) vcan0 00000001#518DFB R
(323964.532000) vcan0 00000002#528EFC R
(323965.532000) vcan0 00000001#538FFD R
(323966.532000) vcan0 00000002#5490FE R
(323967.532000) vcan0 00000001#0091AA R
(323968.532000) vcan0 00000002#0192AB R
(323969.532000) vcan0 00000001#0293AC R
(323970.532000) vcan0 00000002#0394AD R
(323971.532000) vcan0 00000001#0495AE R
(323972.532000) vcan0 00000002#0596AF R
(323973.532000) vcan0 00000001#0697B0 R
(323974.532000) vcan0 00000002#0798B1 R
(323975.532000) vcan0 00000001#0899B2 R
(323976.532000) vcan0 00000002#099AB3 R
(323977.532000) vcan0 00000001#0A9BB4 R
(323978.532000) vcan0 00000002#0B9CB5 R
(323979.532000) vcan0 00000001#0C9DB6 R
(323980.532000) vcan0 00000002#0D9EB7 R
(323981.532000) vcan0 00000001#0E9FB8 R
(323982.532000) vcan0 00000002#0FA0B9 R
(323983.532000) vcan0 00000001#10A1BA R
(323984.532000) vcan0 00000002#11A2BB R
(323985.532000) vcan0 00000001#12A3BC R
(323986.532000) vcan0 00000002#13A4BD R
(323987.532000) vcan0 00000001#14A5BE R
(323988.532000) vcan0 00000002#15A6BF R
(323989.532000) vcan0 00000001#16A7C0 R
(323990.532000) vcan0 00000002#17A8C1 R
(323991.532000) vcan0 00000001#18A9C2 R
(323992.532000) vcan0 00000002#19AAC3 R
(323993.532000) vcan0 00000001#1A55C4 R
(323994.532000) vcan0 00000002#1B56C5 R
(323995.532000) vcan0 00000001#1C57C6 R
(323996.532000) vcan0 00000002#1D58C7 R
(323997.532000) vcan0 00000001#1E59C8 R
(323998.532000) vcan0 00000002#1F5AC9 R
(323999.532000) vcan0 00000001#205BCA R
(324000.532000) vcan0 00000002#215CCB R
(324001.532000) vcan0 00000001#225DCC R
(324002.532000) vcan0 00000002#235ECD R
(324003.532000) vcan0 00000001#245FCE R
(324004.532000) vcan0 00000002#2560CF R
(324005.532000) vcan0 00000001#2661D0 R
(324006.532000) vcan0 00000002#2762D1 R
(324007.532000) vcan0 00000001#2863D2 R
(324008.532000) vcan0 00000002#2964D3 R
(324009.532000) vcan0 00000001#2A65D4 R
(324010.532000) vcan0 00000002#2B66D5 R
(324011.532000) vcan0 00000001#2C67D6 R
(324012.532000) vcan0 00000002#2D68D7 R
(324013.532000) vcan0 00000001#2E69D8 R
(324014.532000) vcan0 00000002#2F6AD9 R
(324015.532000) vcan0 00000001#306BDA R
(324016.532000) vcan0 00000002#316CDB R
(324017.532000) vcan0 00000001#326DDC R
(324018.532000) vcan0 00000002#336EDD R
(324019.532000) vcan0 00000001#346FDE R
(324020.532000) vcan0 00000002#3570DF R
(324021.532000) vcan0 00000001#3671E0 R
(324022.532000) vcan0 00000002#3772E1 R
(324023.532000) vcan0 00000001#3873E2 R
(324024.532000) vcan0 00000002#3974E3 R
(324025.532000) vcan0 00000001#3A75E4 R
(324026.532000) vcan0 00000002#3B76E5 R
(324027.532000) vcan0 00000001#3C77E6 R
(324028.532000) vcan0 00000002#3D78E7 R
(324029.532000) vcan0 00000001#3E79E8 R
(324030.532000) vcan0 00000002#3F7AE9 R
(324031.532000) vcan0 00000001#407BEA R
(324032.532000) vcan0 00000002#417CEB R
(324033.532000) vcan0 00000001#427DEC R
(324034.532000) vcan0 00000002#437EED R
(324035.532000) vcan0 00000001#447FEE R
(324036.532000) vcan0 00000002#4580EF R
(324037.532000) vcan0 00000001#4681F0 R
(324038.532000) vcan0 00000002#4782F1 R
(324039.532000) vcan0 00000001#4883F2 R
(324040.532000) vcan0 00000002#4984F3 R
(324041.532000) vcan0 00000001#4A85F4 R
(324042.532000) vcan0 00000002#4B86F5 R
(324043.532000) vcan0 00000001#4C87F6 R
(324044.532000) vcan0 00000002#4D88F7 R
(324045.532000) vcan0 00000001#4E89F8 R
(324046.532000) vcan0 00000002#4F8AF9 R
(324047.532000) vcan0 00000001#508BFA R
(324048.532000) vcan0 00000002#518CFB R
(324049.532000) vcan0 00000001#528DFC R
(324050.532000) vcan0 00000002#538EFD R
(324051.532000) vcan0 00000001#548FFE R
(324052.532000) vcan0 00000002#0090AA R
(324053.532000) vcan0 00000001#0191AB R
(324054.532000) vcan0 00000002#0292AC R
(324055.532000) vcan0 00000001#0393AD R
(324056.532000) vcan0 00000002#0494AE R
(324057.532000) vcan0 00000001#0595AF R
(324058.532000) vcan0 00000002#0696B0 R
(324059.532000) vcan0 00000001#0797B1 R
(324060.532000) vcan0 00000002#0898B2 R
(324061.532000) vcan0 00000001#0999B3 R
(324062.532000) vcan0 00000002#0A9AB4 R
(324063.532000) vcan0 00000001#0B9BB5 R
(324064.532000) vcan0 00000002#0C9CB6 R
(324065.532000) vcan0 00000001#0D9DB7 R
(324066.532000) vcan0 00000002#0E9EB8 R
(324067.532000) vcan0 00000001#0F9FB9 R
(324068.532000) vcan0 00000002#10A0BA R
(324069.532000) vcan0 00000001#11A1BB R
(324070.532000) vcan0 00000002#12A2BC R
(324071.532000) vcan0 00000001#13A3BD R
(324072.532000) vcan0 00000002#14A4BE R
(324073.532000) vcan0 00000001#15A5BF R
(324074.532000) vcan0 00000002#16A6C0 R
(324075.532000) vcan0 00000001#17A7C1 R
(324076.532000) vcan0 00000002#18A8C2 R
(324077.532000) vcan0 00000001#19A9C3 R
(324078.532000) vcan0 00000002#1AAAC4 R
(324079.532000) vcan0 00000001#1B55C5 R
(324080.532000) vcan0 00000002#1C56C6 R
(324081.532000) vcan0 00000001#1D57C7 R
(324082.532000) vcan0 00000002#1E58C8 R
(324083.532000) vcan0 00000001#1F59C9 R
(324084.532000) vcan0 00000002#205ACA R
(324085.532000) vcan0 00000001#215BCB R
(324086.532000) vcan0 00000002#225CCC R
(324087.532000) vcan0 00000001#235DCD R
(324088.532000) vcan0 00000002#245ECE R
(324089.532000) vcan0 00000001#255FCF R
(324090.532000) vcan0 00000002#2660D0 R
(324091.532000) vcan0 00000001#2761D1 R
(324092.532000) vcan0 00000002#2862D2 R
(324093.532000) vcan0 00000001#2963D3 R
(324094.532000) vcan0 00000002#2A64D4 R
(324095.532000) vcan0 00000001#2B65D5 R
(324096.532000) vcan0 00000002#2C66D6 R
(324097.532000) vcan0 00000001#2D67D7 R
(324098.532000) vcan0 00000002#2E68D8 R
(324099.532000) vcan0 00000001#2F69D9 R
(324100.532000) vcan0 00000002#306ADA R
(324101.532000) vcan0 00000001#316BDB R
(324102.532000) vcan0 00000002#326CDC R
(324103.532000) vcan0 00000001#336DDD R
(324104.532000) vcan0 00000002#346EDE R
(324105.532000) vcan0 00000001#356FDF R
(324106.532000) vcan0 00000002#3670E0 R
(324107.532000) vcan0 00000001#3771E1 R
(324108.532000) vcan0 00000002#3872E2 R
(324109.532000) vcan0 00000001#3973E3 R
(324110.532000) vcan0 00000002#3A74E4 R
(324111.532000) vcan0 00000001#3B75E5 R
(324112.532000) vcan0 00000002#3C76E6 R
(324113.532000) vcan0 00000001#3D77E7 R
(324114.532000) vcan0 00000002#3E78E8 R
(324115.532000) vcan0 00000001#3F79E9 R
(324116.532000) vcan0 00000002#407AEA R
(324117.532000) vcan0 00000001#417BEB R
(324118.532000) vcan0 00000002#427CEC R
(324119.532000) vcan0 00000001#437DED R
(324120.532000) vcan0 00000002#447EEE R
(324121.532000) vcan0 00000001#457FEF R
(324122.532000) vcan0 00000002#4680F0 R
(324123.532000) vcan0 00000001#4781F1 R
(324124.532000) vcan0 00000002#4882F2 R
(324125.532000) vcan0 00000001#4983F3 R
(324126.532000) vcan0 00000002#4A84F4 R
(324127.532000) vcan0 00000001#4B85F5 R
(324128.532000) vcan0 00000002#4C86F6 R
(324129.532000) vcan0 00000001#4D87F7 R
(324130.532000) vcan0 00000002#4E88F8 R
(324131.532000) vcan0 00000001#4F89F9 R
(324132.532000) vcan0 00000002#508AFA R
(324133.532000) vcan0 00000001#518BFB R
(324134.532000) vcan0 00000002#528CFC R
(324135.532000) vcan0 00000001#538DFD R
(324136.532000) vcan0 00000002#548EFE R
(324137.532000) vcan0 00000001#008FAA R
(324138.532000) vcan0 00000002#0190AB R
(324139.532000) vcan0 00000001#0291AC R
(324140.532000) vcan0 00000002#0392AD R
(324141.532000) vcan0 00000001#0493AE R
(324142.532000) vcan0 00000002#0594AF R
(324143.532000) vcan0 00000001#0695B0 R
(324144.532000) vcan0 00000002#0796B1 R
(324145.532000) vcan0 00000001#0897B2 R
(324146.532000) vcan0 00000002#0998B3 R
(324147.532000) vcan0 00000001#0A99B4 R
(324148.532000) vcan0 00000002#0B9AB5 R
(324149.532000) vcan0 00000001#0C9BB6 R
(324150.532000) vcan0 00000002#0D9CB7 R
(324151.532000) vcan0 00000001#0E9DB8 R
(324152.532000) vcan0 00000002#0F9EB9 R
(324153.532000) vcan0 00000001#109FBA R
(324154.532000) vcan0 00000002#11A0BB R
(324155.532000) vcan0 00000001#12A1BC R
(324156.532000) vcan0 00000002#13A2BD R
(324157.532000) vcan0 00000001#14A3BE R
(324158.532000) vcan0 00000002#15A4BF R
(324159.532000) vcan0 00000001#16A5C0 R
(324160.532000) vcan0 00000002#17A6C1 R
(324161.532000) vcan0 00000001#18A7C2 R
(324162.532000) vcan0 00000002#19A8C3 R
(324163.532000) vcan0 00000001#1AA9C4 R
(324164.532000) vcan0 00000002#1BAAC5 R
(324165.532000) vcan0 00000001#1C55C6 R
(324166.532000) vcan0 00000002#1D56C7 R
(324167.532000) vcan0 00000001#1E57C8 R
(324168.532000) vcan0 00000002#1F58C9 R
(324169.532000) vcan0 00000001#2059CA R
(324170.532000) vcan0 00000002#215ACB R
(324171.532000) vcan0 00000001#225BCC R
(324172.532000) vcan0 00000002#235CCD R
(324173.532000) vcan0 00000001#245DCE R
(324174.532000) vcan0 00000002#255ECF R
(324175.532000) vcan0 00000001#265FD0 R
(324176.532000) vcan0 00000002#2760D1 R
(324177.532000) vcan0 00000001#2861D2 R
(324178.532000) vcan0 00000002#2962D3 R
(324179.532000) vcan0 00000001#2A63D4 R
(324180.532000) vcan0 00000002#2B64D5 R
(324181.532000) vcan0 00000001#2C65D6 R
(324182.532000) vcan0 00000002#2D66D7 R
(324183.532000) vcan0 00000001#2E67D8 R
(324184.532000) vcan0 00000002#2F68D9 R
(324185.532000) vcan0 00000001#3069DA R
(324186.532000) vcan0 00000002#316ADB R
(324187.532000) vcan0 00000001#326BDC R
(324188.532000) vcan0 00000002#336CDD R
(324189.532000) vcan0 00000001#346DDE R
(324190.532000) vcan0 00000002#356EDF R
(324191.532000) vcan0 00000001#366FE0 R
(324192.532000) vcan0 00000002#3770E1 R
(324193.532000) vcan0 00000001#3871E2 R
(324194.532000) vcan0 00000002#3972E3 R
(324195.532000) vcan0 00000001#3A73E4 R
(324196.532000) vcan0 00000002#3B74E5 R
(324197.532000) vcan0 00000001#3C75E6 R
(324198.532000) vcan0 00000002#3D76E7 R
(324199.532000) vcan0 00000001#3E77E8 R
(324200.532000) vcan0 00000002#3F78E9 R
(324201.532000) vcan0 00000001#4079EA R
(324202.532000) vcan0 00000002#417AEB R
(324203.532000) vcan0 00000001#427BEC R
(324204.532000) vcan0 00000002#437CED R
(324205.532000) vcan0 00000001#447DEE R
(324206.532000) vcan0 00000002#457EEF R
(324207.532000) vcan0 00000001#467FF0 R
(324208.532000) vcan0 00000002#4780F1 R
(324209.532000) vcan0 00000001#4881F2 R
(324210.532000) vcan0 00000002#4982F3 R
(324211.532000) vcan0 00000001#4A83F4 R
(324212.532000) vcan0 00000002#4B84F5 R
(324213.532000) vcan0 00000001#4C85F6 R
(324214.532000) vcan0 00000002#4D86F7 R
(324215.532000) vcan0 00000001#4E87F8 R
(324216.532000) vcan0 00000002#4F88F9 R
(324217.532000) vcan0 00000001#5089FA R
(324218.532000) vcan0 00000002#518AFB R
(324219.532000) vcan0 00000001#528BFC R
(324220.532000) vcan0 00000002#538CFD R
(324221.532000) vcan0 00000001#548DFE R
(324222.532000) vcan0 00000002#008EAA R
(324223.532000) vcan0 00000001#018FAB R
(324224.532000) vcan0 00000002#0290AC R
(324225.532000) vcan0 00000001#0391AD R
(324226.532000) vcan0 00000002#0492AE R
(324227.532000) vcan0 00000001#0593AF R
(324228.532000) vcan0 00000002#0694B0 R
(324229.532000) vcan0 00000001#0795B1 R
(324230.532000) vcan0 00000002#0896B2 R
(324231.532000) vcan0 00000001#0997B3 R
(324232.532000) vcan0 00000002#0A98B4 R
(324233.532000) vcan0 00000001#0B99B5 R
(324234.532000) vcan0 00000002#0C9AB6 R
(324235.532000) vcan0 00000001#0D9BB7 R
(324236.532000) vcan0 00000002#0E9CB8 R
(324237.532000) vcan0 00000001#0F9DB9 R
(324238.532000) vcan0 00000002#109EBA R
(324239.532000) vcan0 00000001#119FBB R
(324240.532000) vcan0 00000002#12A0BC R
(324241.532000) vcan0 00000001#13A1BD R
(324242.532000) vcan0 00000002#14A2BE R
(324243.532000) vcan0 00000001#15A3BF R
(324244.532000) vcan0 00000002#16A4C0 R
(324245.532000) vcan0 00000001#17A5C1 R
(324246.532000) vcan0 00000002#18A6C2 R
(324247.532000) vcan0 00000001#19A7C3 R
(324248.532000) vcan0 00000002#1AA8C4 R
(324249.532000) vcan0 00000001#1BA9C5 R
(324250.532000) vcan0 00000002#1CAAC6 R
(324251.532000) vcan0 00000001#1D55C7 R
(324252.532000) vcan0 00000002#1E56C8 R
(324253.532000) vcan0 00000001#1F57C9 R
(324254.532000) vcan0 00000002#2058CA R
(324255.532000) vcan0 00000001#2159CB R
(324256.532000) vcan0 00000002#225ACC R
(324257.532000) vcan0 00000001#235BCD R
(324258.532000) vcan0 00000002#245CCE R
(324259.532000) vcan0 00000001#255DCF R
(324260.532000) vcan0 00000002#265ED0 R
(324261.532000) vcan0 00000001#275FD1 R
(324262.532000) vcan0 00000002#2860D2 R
(324263.532000) vcan0 00000001#2961D3 R
(324264.532000) vcan0 00000002#2A62D4 R
(324265.532000) vcan0 00000001#2B63D5 R
(324266.532000) vcan0 00000002#2C64D6 R
(324267.532000) vcan0 00000001#2D65D7 R
(324268.532000) vcan0 00000002#2E66D8 R
(324269.532000) vcan0 00000001#2F67D9 R
(324270.532000) vcan0 00000002#3068DA R
(324271.532000) vcan0 00000001#3169DB R
(324272.532000) vcan0 00000002#326ADC R
(324273.532000) vcan0 00000001#336BDD R
(324274.532000) vcan0 00000002#346CDE R
(324275.532000) vcan0 00000001#356DDF R
(324276.532000) vcan0 00000002#366EE0 R
(324277.532000) vcan0 00000001#376FE1 R
(324278.532000) vcan0 00000002#3870E2 R
(324279.532000) vcan0 00000001#3971E3 R
(324280.532000) vcan0 00000002#3A72E4 R
(324281.532000) vcan0 00000001#3B73E5 R
(324282.532000) vcan0 00000002#3C74E6 R
(324283.532000) vcan0 00000001#3D75E7 R
(324284.532000) vcan0 00000002#3E76E8 R
(324285.532000) vcan0 00000001#3F77E9 R
(324286.532000) vcan0 00000002#4078EA R
(324287.532000) vcan0 00000001#4179EB R
(324288.532000) vcan0 00000002#427AEC R
(324289.532000) vcan0 00000001#437BED R
(324290.532000) vcan0 00000002#447CEE R
(324291.532000) vcan0 00000001#457DEF R
(324292.532000) vcan0 00000002#467EF0 R
(324293.532000) vcan0 00000001#477FF1 R
(324294.532000) vcan0 00000002#4880F2 R
(324295.532000) vcan0 00000001#4981F3 R
(324296.532000) vcan0 00000002#4A82F4 R
(324297.532000) vcan0 00000001#4B83F5 R
(324298.532000) vcan0 00000002#4C84F6 R
(324299.532000) vcan0 00000001#4D85F7 R
(324300.532000) vcan0 00000002#4E86F8 R
(324301.532000) vcan0 00000001#4F87F9 R
(324302.532000) vcan0 00000002#5088FA R
(324303.532000) vcan0 00000001#5189FB R
(324304.532000) vcan0 00000002#528AFC R
(324305.532000) vcan0 00000001#538BFD R
(324306.532000) vcan0 00000002#548CFE R
(324307.532000) vcan0 00000001#008DAA R
(324308.532000) vcan0 00000002#018EAB R
(324309.532000) vcan0 00000001#028FAC R
(324310.532000) vcan0 00000002#0390AD R
(324311.532000) vcan0 00000001#0491AE R
(324312.532000) vcan0 00000002#0592AF R
(324313.532000) vcan0 00000001#0693B0 R
(324314.532000) vcan0 00000002#0794B1 R
(324315.532000) vcan0 00000001#0895B2 R
(324316.532000) vcan0 00000002#0996B3 R
(324317.532000) vcan0 00000001#0A97B4 R
(324318.532000) vcan0 00000002#0B98B5 R
(324319.532000) vcan0 00000001#0C99B6 R
(324320.532000) vcan0 00000002#0D9AB7 R
(324321.532000) vcan0 00000001#0E9BB8 R
(324322.532000) vcan0 00000002#0F9CB9 R
(324323.532000) vcan0 00000001#109DBA R
(324324.532000) vcan0 00000002#119EBB R
(324325.532000) vcan0 00000001#129FBC R
(324326.532000) vcan0 00000002#13A0BD R
(324327.532000) vcan0 00000001#14A1BE R
(324328.532000) vcan0 00000002#15A2BF R
(324329.532000) vcan0 00000001#16A3C0 R
(324330.532000) vcan0 00000002#17A4C1 R
(324331.532000) vcan0 00000001#18A5C2 R
(324332.532000) vcan0 00000002#19A6C3 R
(324333.532000) vcan0 00000001#1AA7C4 R
(324334.532000) vcan0 00000002#1BA8C5 R
(324335.532000) vcan0 00000001#1CA9C6 R
(324336.532000) vcan0 00000002#1DAAC7 R
(324337.532000) vcan0 00000001#1E55C8 R
(324338.532000) vcan0 00000002#1F56C9 R
(324339.532000) vcan0 00000001#2057CA R
(324340.532000) vcan0 00000002#2158CB R
(324341.532000) vcan0 00000001#2259CC R
(324342.532000) vcan0 00000002#235ACD R
(324343.532000) vcan0 00000001#245BCE R
(324344.532000) vcan0 00000002#255CCF R
(324345.532000) vcan0 00000001#265DD0 R
(324346.532000) vcan0 00000002#275ED1 R
(324347.532000) vcan0 00000001#285FD2 R
(324348.532000) vcan0 00000002#2960D3 R
(324349.532000) vcan0 00000001#2A61D4 R
(324350.532000) vcan0 00000002#2B62D5 R
(324351.532000) vcan0 00000001#2C63D6 R
(324352.532000) vcan0 00000002#2D64D7 R
(324353.532000) vcan0 00000001#2E65D8 R
(324354.532000) vcan0 00000002#2F66D9 R
(324355.532000) vcan0 00000001#3067DA R
(324356.532000) vcan0 00000002#3168DB R
(324357.532000) vcan0 00000001#3269DC R
(324358.532000) vcan0 00000002#336ADD R
(324359.532000) vcan0 00000001#346BDE R
(324360.532000) vcan0 00000002#356CDF R
(324361.532000) vcan0 00000001#366DE0 R
(324362.532000) vcan0 00000002#376EE1 R
(324363.532000) vcan0 00000001#386FE2 R
(324364.532000) vcan0 00000002#3970E3 R
(324365.532000) vcan0 00000001#3A71E4 R
(324366.532000) vcan0 00000002#3B72E5 R
(324367.532000) vcan0 00000001#3C73E6 R
(324368.532000) vcan0 00000002#3D74E7 R
(324369.532000) vcan0 00000001#3E75E8 R
(324370.532000) vcan0 00000002#3F76E9 R
(324371.532000) vcan0 00000001#4077EA R
(324372.532000) vcan0 00000002#4178EB R
(324373.532000) vcan0 00000001#4279EC R
(324374.532000) vcan0 00000002#437AED R
(324375.532000) vcan0 00000001#447BEE R
(324376.532000) vcan0 00000002#457CEF R
(324377.532000) vcan0 00000001#467DF0 R
(324378.532000) vcan0 00000002#477EF1 R
(324379.532000) vcan0 00000001#487FF2 R
(324380.532000) vcan0 00000002#4980F3 R
(324381.532000) vcan0 00000001#4A81F4 R
(324382.532000) vcan0 00000002#4B82F5 R
(324383.532000) vcan0 00000001#4C83F6 R
(324384.532000) vcan0 00000002#4D84F7 R
(324385.532000) vcan0 00000001#4E85F8 R
(324386.532000) vcan0 00000002#4F86F9 R
(324387.532000) vcan0 00000001#5087FA R
(324388.532000) vcan0 00000002#5188FB R
(324389.532000) vcan0 00000001#5289FC R
(324390.532000) vcan0 00000002#538AFD R
(324391.532000) vcan0 00000001#548BFE R
(324392.532000) vcan0 00000002#008CAA R
(324393.532000) vcan0 00000001#018DAB R
(324394.532000) vcan0 00000002#028EAC R
(324395.532000) vcan0 00000001#038FAD R
(324396.532000) vcan0 00000002#0490AE R
(324397.532000) vcan0 00000001#0591AF R
(324398.532000) vcan0 00000002#0692B0 R
(324399.532000) vcan0 00000001#0793B1 R
(324400.532000) vcan0 00000002#0894B2 R
(324401.532000) vcan0 00000001#0995B3 R
(324402.532000) vcan0 00000002#0A96B4 R
(324403.532000) vcan0 00000001#0B97B5 R
(324404.532000) vcan0 00000002#0C98B6 R
(324405.532000) vcan0 00000001#0D99B7 R
(324406.532000) vcan0 00000002#0E9AB8 R
(324407.532000) vcan0 00000001#0F9BB9 R
(324408.532000) vcan0 00000002#109CBA R
(324409.532000) vcan0 00000001#119DBB R
(324410.532000) vcan0 00000002#129EBC R
(324411.532000) vcan0 00000001#139FBD R
(324412.532000) vcan0 00000002#14A0BE R
(324413.532000) vcan0 00000001#15A1BF R
(324414.532000) vcan0 00000002#16A2C0 R
(324415.532000) vcan0 00000001#17A3C1 R
(324416.532000) vcan0 00000002#18A4C2 R
(324417.532000) vcan0 00000001#19A5C3 R
(324418.532000) vcan0 00000002#1AA6C4 R
(324419.532000) vcan0 00000001#1BA7C5 R
(324420.532000) vcan0 00000002#1CA8C6 R
(324421.532000) vcan0 00000001#1DA9C7 R
(324422.532000) vcan0 00000002#1EAAC8 R
(324423.532000) vcan0 00000001#1F55C9 R
(324424.532000) vcan0 00000002#2056CA R
(324425.532000) vcan0 00000001#2157CB R
(324426.532000) vcan0 00000002#2258CC R
(324427.532000) vcan0 00000001#2359CD R
(324428.532000) vcan0 00000002#245ACE R
(324429.532000) vcan0 00000001#255BCF R
(324430.532000) vcan0 00000002#265CD0 R
(324431.532000) vcan0 00000001#275DD1 R
(324432.532000) vcan0 00000002#285ED2 R
(324433.532000) vcan0 00000001#295FD3 R
(324434.532000) vcan0 00000002#2A60D4 R
(324435.532000) vcan0 00000001#2B61D5 R
(324436.532000) vcan0 00000002#2C62D6 R
(324437.532000) vcan0 00000001#2D63D7 R
(324438.532000) vcan0 00000002#2E64D8 R
(324439.532000) vcan0 00000001#2F65D9 R
(324440.532000) vcan0 00000002#3066DA R
(324441.532000) vcan0 00000001#3167DB R
(324442.532000) vcan0 00000002#3268DC R
(324443.532000) vcan0 00000001#3369DD R
(324444.532000) vcan0 00000002#346ADE R
(324445.532000) vcan0 00000001#356BDF R
(324446.532000) vcan0 00000002#366CE0 R
(324447.532000) vcan0 00000001#376DE1 R
(324448.532000) vcan0 00000002#386EE2 R
(324449.532000) vcan0 00000001#396FE3 R
(324450.532000) vcan0 00000002#3A70E4 R
(324451.532000) vcan0 00000001#3B71E5 R
(324452.532000) vcan0 00000002#3C72E6 R
(324453.532000) vcan0 00000001#3D73E7 R
(324454.532000) vcan0 00000002#3E74E8 R
(324455.532000) vcan0 00000001#3F75E9 R
(324456.532000) vcan0 00000002#4076EA R
(324457.532000) vcan0 00000001#4177EB R
(324458.532000) vcan0 00000002#4278EC R
(324459.532000) vcan0 00000001#4379ED R
(324460.532000) vcan0 00000002#447AEE R
(324461.532000) vcan0 00000001#457BEF R
(324462.532000) vcan0 00000002#467CF0 R
(324463.532000) vcan0 00000001#477DF1 R
(324464.532000) vcan0 00000002#487EF2 R
(324465.532000) vcan0 00000001#497FF3 R
(324466.532000) vcan0 00000002#4A80F4 R
(324467.532000) vcan0 00000001#4B81F5 R
(324468.532000) vcan0 00000002#4C82F6 R
(324469.532000) vcan0 00000001#4D83F7 R
(324470.532000) vcan0 00000002#4E84F8 R
(324471.532000) vcan0 00000001#4F85F9 R
(324472.532000) vcan0 00000002#5086FA R
(324473.532000) vcan0 00000001#5187FB R
(324474.532000) vcan0 00000002#5288FC R
(324475.532000) vcan0 00000001#5389FD R
(324476.532000) vcan0 00000002#548AFE R
(324477.532000) vcan0 00000001#008BAA R
(324478.532000) vcan0 00000002#018CAB R
(324479.532000) vcan0 00000001#028DAC R
(324480.532000) vcan0 00000002#038EAD R
(324481.532000) vcan0 00000001#048FAE R
(324482.532000) vcan0 00000002#0590AF R
(324483.532000) vcan0 00000001#0691B0 R
(324484.532000) vcan0 00000002#0792B1 R
(324485.532000) vcan0 00000001#0893B2 R
(324486.532000) vcan0 00000002#0994B3 R
(324487.532000) vcan0 00000001#0A95B4 R
(324488.532000) vcan0 00000002#0B96B5 R
(324489.532000) vcan0 00000001#0C97B6 R
(324490.532000) vcan0 00000002#0D98B7 R
(324491.532000) vcan0 00000001#0E99B8 R
(324492.532000) vcan0 00000002#0F9AB9 R
(324493.532000) vcan0 00000001#109BBA R
(324494.532000) vcan0 00000002#119CBB R
(324495.532000) vcan0 00000001#129DBC R
(324496.532000) vcan0 00000002#139EBD R
(324497.532000) vcan0 00000001#149FBE R
(324498.532000) vcan0 00000002#15A0BF R
(324499.532000) vcan0 00000001#16A1C0 R
(324500.532000) vcan0 00000002#17A2C1 R
(324501.532000) vcan0 00000001#18A3C2 R
(324502.532000) vcan0 00000002#19A4C3 R
(324503.532000) vcan0 00000001#1AA5C4 R
(324504.532000) vcan0 00000002#1BA6C5 R
(324505.532000) vcan0 00000001#1CA7C6 R
(324506.532000) vcan0 00000002#1DA8C7 R
(324507.532000) vcan0 00000001#1EA9C8 R
(324508.532000) vcan0 00000002#1FAAC9 R
(324509.532000) vcan0 00000001#2055CA R
(324510.532000) vcan0 00000002#2156CB R
(324511.532000) vcan0 00000001#2257CC R
(324512.532000) vcan0 00000002#2358CD R
(324513.532000) vcan0 00000001#2459CE R
(324514.532000) vcan0 00000002#255ACF R
(324515.532000) vcan0 00000001#265BD0 R
(324516.532000) vcan0 00000002#275CD1 R
(324517.532000) vcan0 00000001#285DD2 R
(324518.532000) vcan0 00000002#295ED3 R
(324519.532000) vcan0 00000001#2A5FD4 R
(324520.532000) vcan0 00000002#2B60D5 R
(324521.532000) vcan0 00000001#2C61D6 R
(324522.532000) vcan0 00000002#2D62D7 R
(324523.532000) vcan0 00000001#2E63D8 R
(324524.532000) vcan0 00000002#2F64D9 R
(324525.532000) vcan0 00000001#3065DA R
(324526.532000) vcan0 00000002#3166DB R
(324527.532000) vcan0 00000001#3267DC R
(324528.532000) vcan0 00000002#3368DD R
(324529.532000) vcan0 00000001#3469DE R
(324530.532000) vcan0 00000002#356ADF R
(324531.532000) vcan0 00000001#366BE0 R
(324532.532000) vcan0 00000002#376CE1 R
(324533.532000) vcan0 00000001#386DE2 R
(324534.532000) vcan0 00000002#396EE3 R
(324535.532000) vcan0 00000001#3A6FE4 R
(324536.532000) vcan0 00000002#3B70E5 R
(324537.532000) vcan0 00000001#3C71E6 R
(324538.532000) vcan0 00000002#3D72E7 R
(324539.532000) vcan0 00000001#3E73E8 R
(324540.532000) vcan0 00000002#3F74E9 R
(324541.532000) vcan0 00000001#4075EA R
(324542.532000) vcan0 00000002#4176EB R
(324543.532000) vcan0 00000001#4277EC R
(324544.532000) vcan0 00000002#4378ED R
(324545.532000) vcan0 00000001#4479EE R
(324546.532000) vcan0 00000002#457AEF R
(324547.532000) vcan0 00000001#467BF0 R
(324548.532000) vcan0 00000002#477CF1 R
(324549.532000) vcan0 00000001#487DF2 R
(324550.532000) vcan0 00000002#497EF3 R
(324551.532000) vcan0 00000001#4A7FF4 R
(324552.532000) vcan0 00000002#4B80F5 R
(324553.532000) vcan0 00000001#4C81F6 R
(324554.532000) vcan0 00000002#4D82F7 R
(324555.532000) vcan0 00000001#4E83F8 R
(324556.532000) vcan0 00000002#4F84F9 R
(324557.532000) vcan0 00000001#5085FA R
(324558.532000) vcan0 00000002#5186FB R
(324559.532000) vcan0 00000001#5287FC R
(324560.532000) vcan0 00000002#5388FD R
(324561.532000) vcan0 00000001#5489FE R
(324562.532000) vcan0 00000002#008AAA R
(324563.532000) vcan0 00000001#018BAB R
(324564.532000) vcan0 00000002#028CAC R
(324565.532000) vcan0 00000001#038DAD R
(324566.532000) vcan0 00000002#048EAE R
(324567.532000) vcan0 00000001#058FAF R
(324568.532000) vcan0 00000002#0690B0 R
(324569.532000) vcan0 00000001#0791B1 R
(324570.532000) vcan0 00000002#0892B2 R
(324571.532000) vcan0 00000001#0993B3 R
(324572.532000) vcan0 00000002#0A94B4 R
(324573.532000) vcan0 00000001#0B95B5 R
(324574.532000) vcan0 00000002#0C96B6 R
(324575.532000) vcan0 00000001#0D97B7 R
(324576.532000) vcan0 00000002#0E98B8 R
(324577.532000) vcan0 00000001#0F99B9 R
(324578.532000) vcan0 00000002#109ABA R
(324579.532000) vcan0 00000001#119BBB R
(324580.532000) vcan0 00000002#129CBC R
(324581.532000) vcan0 00000001#139DBD R
(324582.532000) vcan0 00000002#149EBE R
(324583.532000) vcan0 00000001#159FBF R
(324584.532000) vcan0 00000002#16A0C0 R
(324585.532000) vcan0 00000001#17A1C1 R
(324586.532000) vcan0 00000002#18A2C2 R
(324587.532000) vcan0 00000001#19A3C3 R
(324588.532000) vcan0 00000002#1AA4C4 R
(324589.532000) vcan0 00000001#1BA5C5 R
(324590.532000) vcan0 00000002#1CA6C6 R
(324591.532000) vcan0 00000001#1DA7C7 R
(324592.532000) vcan0 00000002#1EA8C8 R
(324593.532000) vcan0 00000001#1FA9C9 R
(324594.532000) vcan0 00000002#20AACA R
(324595.532000) vcan0 00000001#2155CB R
(324596.532000) vcan0 00000002#2256CC R
(324597.532000) vcan0 00000001#2357CD R
(324598.532000) vcan0 00000002#2458CE R
(324599.532000) vcan0 00000001#2559CF R
(324600.532000) vcan0 00000002#265AD0 R
(324601.532000) vcan0 00000001#275BD1 R
(324602.532000) vcan0 00000002#285CD2 R
(324603.532000) vcan0 00000001#295DD3 R
(324604.532000) vcan0 00000002#2A5ED4 R
(324605.532000) vcan0 00000001#2B5FD5 R
(324606.532000) vcan0 00000002#2C60D6 R
(324607.532000) vcan0 00000001#2D61D7 R
(324608.532000) vcan0 00000002#2E62D8 R
(324609.532000) vcan0 00000001#2F63D9 R
(324610.532000) vcan0 00000002#3064DA R
(324611.532000) vcan0 00000001#3165DB R
(324612.532000) vcan0 00000002#3266DC R
(324613.532000) vcan0 00000001#3367DD R
(324614.532000) vcan0 00000002#3468DE R
(324615.532000) vcan0 00000001#3569DF R
(324616.532000) vcan0 00000002#366AE0 R
(324617.532000) vcan0 00000001#376BE1 R
(324618.532000) vcan0 00000002#386CE2 R
(324619.532000) vcan0 00000001#396DE3 R
(324620.532000) vcan0 00000002#3A6EE4 R
(324621.532000) vcan0 00000001#3B6FE5 R
(324622.532000) vcan0 00000002#3C70E6 R
(324623.532000) vcan0 00000001#3D71E7 R
(324624.532000) vcan0 00000002#3E72E8 R
(324625.532000) vcan0 00000001#3F73E9 R
(324626.532000) vcan0 00000002#4074EA R
(324627.532000) vcan0 00000001#4175EB R
(324628.532000) vcan0 00000002#4276EC R
(324629.532000) vcan0 00000001#4377ED R
(324630.532000) vcan0 00000002#4478EE R
(324631.532000) vcan0 00000001#4579EF R
(324632.532000) vcan0 00000002#467AF0 R
(324633.532000) vcan0 00000001#477BF1 R
(324634.532000) vcan0 00000002#487CF2 R
(324635.532000) vcan0 00000001#497DF3 R
(324636.532000) vcan0 00000002#4A7EF4 R
(324637.532000) vcan0 00000001#4B7FF5 R
(324638.532000) vcan0 00000002#4C80F6 R
(324639.532000) vcan0 00000001#4D81F7 R
(324640.532000) vcan0 00000002#4E82F8 R
(324641.532000) vcan0 00000001#4F83F9 R
(324642.532000) vcan0 00000002#5084FA R
(324643.532000) vcan0 00000001#5185FB R
(324644.532000) vcan0 00000002#5286FC R
(324645.532000) vcan0 00000001#5387FD R
(324646.532000) vcan0 00000002#5488FE R
(324647.532000) vcan0 00000001#0089AA R
(324648.532000) vcan0 00000002#018AAB R
(324649.532000) vcan0 00000001#028BAC R
(324650.532000) vcan0 00000002#038CAD R
(324651.532000) vcan0 00000001#048DAE R
(324652.532000) vcan0 00000002#058EAF R
(324653.532000) vcan0 00000001#068FB0 R
(324654.532000) vcan0 00000002#0790B1 R
(324655.532000) vcan0 00000001#0891B2 R
(324656.532000) vcan0 00000002#0992B3 R
(324657.532000) vcan0 00000001#0A93B4 R
(324658.532000) vcan0 00000002#0B94B5 R
(324659.532000) vcan0 00000001#0C95B6 R
(324660.532000) vcan0 00000002#0D96B7 R
(324661.532000) vcan0 00000001#0E97B8 R
(324662.532000) vcan0 00000002#0F98B9 R
(324663.532000) vcan0 00000001#1099BA R
(324664.532000) vcan0 00000002#119ABB R
(324665.532000) vcan0 00000001#129BBC R
(324666.532000) vcan0 00000002#139CBD R
(324667.532000) vcan0 00000001#149DBE R
(324668.532000) vcan0 00000002#159EBF R
(324669.532000) vcan0 00000001#169FC0 R
(324670.532000) vcan0 00000002#17A0C1 R
(324671.532000) vcan0 00000001#18A1C2 R
(324672.532000) vcan0 00000002#19A2C3 R
(324673.532000) vcan0 00000001#1AA3C4 R
(324674.532000) vcan0 00000002#1BA4C5 R
(324675.532000) vcan0 00000001#1CA5C6 R
(324676.532000) vcan0 00000002#1DA6C7 R
(324677.532000) vcan0 00000001#1EA7C8 R
(324678.532000) vcan0 00000002#1FA8C9 R
(324679.532000) vcan0 00000001#20A9CA R
(324680.532000) vcan0 00000002#21AACB R
(324681.532000) vcan0 00000001#2255CC R
(324682.532000) vcan0 00000002#2356CD R
(324683.532000) vcan0 00000001#2457CE R
(324684.532000) vcan0 00000002#2558CF R
(324685.532000) vcan0 00000001#2659D0 R
(324686.532000) vcan0 00000002#275AD1 R
(324687.532000) vcan0 00000001#285BD2 R
(324688.532000) vcan0 00000002#295CD3 R
(324689.532000) vcan0 00000001#2A5DD4 R
(324690.532000) vcan0 00000002#2B5ED5 R
(324691.532000) vcan0 00000001#2C5FD6 R
(324692.532000) vcan0 00000002#2D60D7 R
(324693.532000) vcan0 00000001#2E61D8 R
(324694.532000) vcan0 00000002#2F62D9 R
(324695.532000) vcan0 00000001#3063DA R
(324696.532000) vcan0 00000002#3164DB R
(324697.532000) vcan0 00000001#3265DC R
(324698.532000) vcan0 00000002#3366DD R
(324699.532000) vcan0 00000001#3467DE R
(324700.532000) vcan0 00000002#3568DF R
(324701.532000) vcan0 00000001#3669E0 R
(324702.532000) vcan0 00000002#376AE1 R
(324703.532000) vcan0 00000001#386BE2 R
(324704.532000) vcan0 00000002#396CE3 R
(324705.532000) vcan0 00000001#3A6DE4 R
(324706.532000) vcan0 00000002#3B6EE5 R
(324707.532000) vcan0 00000001#3C6FE6 R
(324708.532000) vcan0 00000002#3D70E7 R
(324709.532000) vcan0 00000001#3E71E8 R
(324710.532000) vcan0 00000002#3F72E9 R
(324711.532000) vcan0 00000001#4073EA R
(324712.532000) vcan0 00000002#4174EB R
(324713.532000) vcan0 00000001#4275EC R
(324714.532000) vcan0 00000002#4376ED R
(324715.532000) vcan0 00000001#4477EE R
(324716.532000) vcan0 00000002#4578EF R
(324717.532000) vcan0 00000001#4679F0 R
(324718.532000) vcan0 00000002#477AF1 R
(324719.532000) vcan0 00000001#487BF2 R
(324720.532000) vcan0 00000002#497CF3 R
(324721.532000) vcan0 00000001#4A7DF4 R
(324722.532000) vcan0 00000002#4B7EF5 R
(324723.532000) vcan0 00000001#4C7FF6 R
(324724.532000) vcan0 00000002#4D80F7 R
(324725.532000) vcan0 00000001#4E81F8 R
(324726.532000) vcan0 00000002#4F82F9 R
(324727.532000) vcan0 00000001#5083FA R
(324728.532000) vcan0 00000002#5184FB R
(324729.532000) vcan0 00000001#5285FC R
(324730.532000) vcan0 00000002#5386FD R
(324731.532000) vcan0 00000001#5487FE R
(324732.532000) vcan0 00000002#0088AA R
(324733.532000) vcan0 00000001#0189AB R
(324734.532000) vcan0 00000002#028AAC R
(324735.532000) vcan0 00000001#038BAD R
(324736.532000) vcan0 00000002#048CAE R
(324737.532000) vcan0 00000001#058DAF R
(324738.532000) vcan0 00000002#068EB0 R
(324739.532000) vcan0 00000001#078FB1 R
(324740.532000) vcan0 00000002#0890B2 R
(324741.532000) vcan0 00000001#0991B3 R
(324742.532000) vcan0 00000002#0A92B4 R
(324743.532000) vcan0 00000001#0B93B5 R
(324744.532000) vcan0 00000002#0C94B6 R
(324745.532000) vcan0 00000001#0D95B7 R
(324746.532000) vcan0 00000002#0E96B8 R
(324747.532000) vcan0 00000001#0F97B9 R
(324748.532000) vcan0 00000002#1098BA R
(324749.532000) vcan0 00000001#1199BB R
(324750.532000) vcan0 00000002#129ABC R
(324751.532000) vcan0 00000001#139BBD R
(324752.532000) vcan0 00000002#149CBE R
(324753.532000) vcan0 00000001#159DBF R
(324754.532000) vcan0 00000002#169EC0 R
(324755.532000) vcan0 00000001#179FC1 R
(324756.532000) vcan0 00000002#18A0C2 R
(324757.532000) vcan0 00000001#19A1C3 R
(324758.532000) vcan0 00000002#1AA2C4 R
(324759.532000) vcan0 00000001#1BA3C5 R
(324760.532000) vcan0 00000002#1CA4C6 R
(324761.532000) vcan0 00000001#1DA5C7 R
(324762.532000) vcan0 00000002#1EA6C8 R
(324763.532000) vcan0 00000001#1FA7C9 R
(324764.532000) vcan0 00000002#20A8CA R
(324765.532000) vcan0 00000001#21A9CB R
(324766.532000) vcan0 00000002#22AACC R
(324767.532000) vcan0 00000001#2355CD R
(324768.532000) vcan0 00000002#2456CE R
(324769.532000) vcan0 00000001#2557CF R
(324770.532000) vcan0 00000002#2658D0 R
(324771.532000) vcan0 00000001#2759D1 R
(324772.532000) vcan0 00000002#285AD2 R
(324773.532000) vcan0 00000001#295BD3 R
(324774.532000) vcan0 00000002#2A5CD4 R
(324775.532000) vcan0 00000001#2B5DD5 R
(324776.532000) vcan0 00000002#2C5ED6 R
(324777.532000) vcan0 00000001#2D5FD7 R
(324778.532000) vcan0 00000002#2E60D8 R
(324779.532000) vcan0 00000001#2F61D9 R
(324780.532000) vcan0 00000002#3062DA R
(324781.532000) vcan0 00000001#3163DB R
(324782.532000) vcan0 00000002#3264DC R
(324783.532000) vcan0 00000001#3365DD R
(324784.532000) vcan0 00000002#3466DE R
(324785.532000) vcan0 00000001#3567DF R
(324786.532000) vcan0 00000002#3668E0 R
(324787.532000) vcan0 00000001#3769E1 R
(324788.532000) vcan0 00000002#386AE2 R
(324789.532000) vcan0 00000001#396BE3 R
(324790.532000) vcan0 00000002#3A6CE4 R
(324791.532000) vcan0 00000001#3B6DE5 R
(324792.532000) vcan0 00000002#3C6EE6 R
(324793.532000) vcan0 00000001#3D6FE7 R
(324794.532000) vcan0 00000002#3E70E8 R
(324795.532000) vcan0 00000001#3F71E9 R
(324796.532000) vcan0 00000002#4072EA R
(324797.532000) vcan0 00000001#4173EB R
(324798.532000) vcan0 00000002#4274EC R
(324799.532000) vcan0 00000001#4375ED R
(324800.532000) vcan0 00000002#4476EE R
(324801.532000) vcan0 00000001#4577EF R
(324802.532000) vcan0 00000002#4678F0 R
(324803.532000) vcan0 00000001#4779F1 R
(324804.532000) vcan0 00000002#487AF2 R
(324805.532000) vcan0 00000001#497BF3 R
(324806.532000) vcan0 00000002#4A7CF4 R
(324807.532000) vcan0 00000001#4B7DF5 R
(324808.532000) vcan0 00000002#4C7EF6 R
(324809.532000) vcan0 00000001#4D7FF7 R
(324810.532000) vcan0 00000002#4E80F8 R
(324811.532000) vcan0 00000001#4F81F9 R
(324812.532000) vcan0 00000002#5082FA R
(324813.532000) vcan0 00000001#5183FB R
(324814.532000) vcan0 00000002#5284FC R
(324815.532000) vcan0 00000001#5385FD R
(324816.532000) vcan0 00000002#5486FE R
(324817.532000) vcan0 00000001#0087AA R
(324818.532000) vcan0 00000002#0188AB R
(324819.532000) vcan0 00000001#0289AC R
(324820.532000) vcan0 00000002#038AAD R
(324821.532000) vcan0 00000001#048BAE R
(324822.532000) vcan0 00000002#058CAF R
(324823.532000) vcan0 00000001#068DB0 R
(324824.532000) vcan0 00000002#078EB1 R
(324825.532000) vcan0 00000001#088FB2 R
(324826.532000) vcan0 00000002#0990B3 R
(324827.532000) vcan0 00000001#0A91B4 R
(324828.532000) vcan0 00000002#0B92B5 R
(324829.532000) vcan0 00000001#0C93B6 R
(324830.532000) vcan0 00000002#0D94B7 R
(324831.532000) vcan0 00000001#0E95B8 R
(324832.532000) vcan0 00000002#0F96B9 R
(324833.532000) vcan0 00000001#1097BA R
(324834.532000) vcan0 00000002#1198BB R
(324835.532000) vcan0 00000001#1299BC R
(324836.532000) vcan0 00000002#139ABD R
(324837.532000) vcan0 00000001#149BBE R
(324838.532000) vcan0 00000002#159CBF R
(324839.532000) vcan0 00000001#169DC0 R
(324840.532000) vcan0 00000002#179EC1 R
(324841.532000) vcan0 00000001#189FC2 R
(324842.532000) vcan0 00000002#19A0C3 R
(324843.532000) vcan0 00000001#1AA1C4 R
(324844.532000) vcan0 00000002#1BA2C5 R
(324845.532000) vcan0 00000001#1CA3C6 R
(324846.532000) vcan0 00000002#1DA4C7 R
(324847.532000) vcan0 00000001#1EA5C8 R
(324848.532000) vcan0 00000002#1FA6C9 R
(324849.532000) vcan0 00000001#20A7CA R
(324850.532000) vcan0 00000002#21A8CB R
(324851.532000) vcan0 00000001#22A9CC R
(324852.532000) vcan0 00000002#23AACD R
(324853.532000) vcan0 00000001#2455CE R
(324854.532000) vcan0 00000002#2556CF R
(324855.532000) vcan0 00000001#2657D0 R
(324856.532000) vcan0 00000002#2758D1 R
(324857.532000) vcan0 00000001#2859D2 R
(324858.532000) vcan0 00000002#295AD3 R
(324859.532000) vcan0 00000001#2A5BD4 R
(324860.532000) vcan0 00000002#2B5CD5 R
(324861.532000) vcan0 00000001#2C5DD6 R
(324862.532000) vcan0 00000002#2D5ED7 R
(324863.532000) vcan0 00000001#2E5FD8 R
(324864.532000) vcan0 00000002#2F60D9 R
(324865.532000) vcan0 00000001#3061DA R
(324866.532000) vcan0 00000002#3162DB R
(324867.532000) vcan0 00000001#3263DC R
(324868.532000) vcan0 00000002#3364DD R
(324869.532000) vcan0 00000001#3465DE R
(324870.532000) vcan0 00000002#3566DF R
(324871.532000) vcan0 00000001#3667E0 R
(324872.532000) vcan0 00000002#3768E1 R
(324873.532000) vcan0 00000001#3869E2 R
(324874.532000) vcan0 00000002#396AE3 R
(324875.532000) vcan0 00000001#3A6BE4 R
(324876.532000) vcan0 00000002#3B6CE5 R
(324877.532000) vcan0 00000001#3C6DE6 R
(324878.532000) vcan0 00000002#3D6EE7 R
(324879.532000) vcan0 00000001#3E6FE8 R
(324880.532000) vcan0 00000002#3F70E9 R
(324881.532000) vcan0 00000001#4071EA R
(324882.532000) vcan0 00000002#4172EB R
(324883.532000) vcan0 00000001#4273EC R
(324884.532000) vcan0 00000002#4374ED R
(324885.532000) vcan0 00000001#4475EE R
(324886.532000) vcan0 00000002#4576EF R
(324887.532000) vcan0 00000001#4677F0 R
(324888.532000) vcan0 00000002#4778F1 R
(324889.532000) vcan0 00000001#4879F2 R
(324890.532000) vcan0 00000002#497AF3 R
(324891.532000) vcan0 00000001#4A7BF4 R
(324892.532000) vcan0 00000002#4B7CF5 R
(324893.532000) vcan0 00000001#4C7DF6 R
(324894.532000) vcan0 00000002#4D7EF7 R
(324895.532000) vcan0 00000001#4E7FF8 R
(324896.532000) vcan0 00000002#4F80F9 R
(324897.532000) vcan0 00000001#5081FA R
(324898.532000) vcan0 00000002#5182FB R
(324899.532000) vcan0 00000001#5283FC R
(324900.532000) vcan0 00000002#5384FD R
(324901.532000) vcan0 00000001#5485FE R
(324902.532000) vcan0 00000002#0086AA R
(324903.532000) vcan0 00000001#0187AB R
(324904.532000) vcan0 00000002#0288AC R
(324905.532000) vcan0 00000001#0389AD R
(324906.532000) vcan0 00000002#048AAE R
(324907.532000) vcan0 00000001#058BAF R
(324908.532000) vcan0 00000002#068CB0 R
(324909.532000) vcan0 00000001#078DB1 R
(324910.532000) vcan0 00000002#088EB2 R
(324911.532000) vcan0 00000001#098FB3 R
(324912.532000) vcan0 00000002#0A90B4 R
(324913.532000) vcan0 00000001#0B91B5 R
(324914.532000) vcan0 00000002#0C92B6 R
(324915.532000) vcan0 00000001#0D93B7 R
(324916.532000) vcan0 00000002#0E94B8 R
(324917.532000) vcan0 00000001#0F95B9 R
(324918.532000) vcan0 00000002#1096BA R
(324919.532000) vcan0 00000001#1197BB R
(324920.532000) vcan0 00000002#1298BC R
(324921.532000) vcan0 00000001#1399BD R
(324922.532000) vcan0 00000002#149ABE R
(324923.532000) vcan0 00000001#159BBF R
(324924.532000) vcan0 00000002#169CC0 R
(324925.532000) vcan0 00000001#179DC1 R
(324926.532000) vcan0 00000002#189EC2 R
(324927.532000) vcan0 00000001#199FC3 R
(324928.532000) vcan0 00000002#1AA0C4 R
(324929.532000) vcan0 00000001#1BA1C5 R
(324930.532000) vcan0 00000002#1CA2C6 R
(324931.532000) vcan0 00000001#1DA3C7 R
(324932.532000) vcan0 00000002#1EA4C8 R
(324933.532000) vcan0 00000001#1FA5C9 R
(324934.532000) vcan0 00000002#20A6CA R
(324935.532000) vcan0 00000001#21A7CB R
(324936.532000) vcan0 00000002#22A8CC R
(324937.532000) vcan0 00000001#23A9CD R
(324938.532000) vcan0 00000002#24AACE R
(324939.532000) vcan0 00000001#2555CF R
(324940.532000) vcan0 00000002#2656D0 R
(324941.532000) vcan0 00000001#2757D1 R
(324942.532000) vcan0 00000002#2858D2 R
(324943.532000) vcan0 00000001#2959D3 R
(324944.532000) vcan0 00000002#2A5AD4 R
(324945.532000) vcan0 00000001#2B5BD5 R
(324946.532000) vcan0 00000002#2C5CD6 R
(324947.532000) vcan0 00000001#2D5DD7 R
(324948.532000) vcan0 00000002#2E5ED8 R
(324949.532000) vcan0 00000001#2F5FD9 R
(324950.532000) vcan0 00000002#3060DA R
(324951.532000) vcan0 00000001#3161DB R
(324952.532000) vcan0 00000002#3262DC R
(324953.532000) vcan0 00000001#3363DD R
(324954.532000) vcan0 00000002#3464DE R
(324955.532000) vcan0 00000001#3565DF R
(324956.532000) vcan0 00000002#3666E0 R
(324957.532000) vcan0 00000001#3767E1 R
(324958.532000) vcan0 00000002#3868E2 R
(324959.532000) vcan0 00000001#3969E3 R
(324960.532000) vcan0 00000002#3A6AE4 R
(324961.532000) vcan0 00000001#3B6BE5 R
(324962.532000) vcan0 00000002#3C6CE6 R
(324963.532000) vcan0 00000001#3D6DE7 R
(324964.532000) vcan0 00000002#3E6EE8 R
(324965.532000) vcan0 00000001#3F6FE9 R
(324966.532000) vcan0 00000002#4070EA R
(324967.532000) vcan0 00000001#4171EB R
(324968.532000) vcan0 00000002#4272EC R
(324969.532000) vcan0 00000001#4373ED R
(324970.532000) vcan0 00000002#4474EE R
(324971.532000) vcan0 00000001#4575EF R
(324972.532000) vcan0 00000002#4676F0 R
(324973.532000) vcan0 00000001#4777F1 R
(324974.532000) vcan0 00000002#4878F2 R
(324975.532000) vcan0 00000001#4979F3 R
(324976.532000) vcan0 00000002#4A7AF4 R
(324977.532000) vcan0 00000001#4B7BF5 R
(324978.532000) vcan0 00000002#4C7CF6 R
(324979.532000) vcan0 00000001#4D7DF7 R
(324980.532000) vcan0 00000002#4E7EF8 R
(324981.532000) vcan0 00000001#4F7FF9 R
(324982.532000) vcan0 00000002#5080FA R
(324983.532000) vcan0 00000001#5181FB R
(324984.532000) vcan0 00000002#5282FC R
(324985.532000) vcan0 00000001#5383FD R
(324986.532000) vcan0 00000002#5484FE R
(324987.532000) vcan0 00000001#0085AA R
(324988.532000) vcan0 00000002#0186AB R
(324989.532000) vcan0 00000001#0287AC R
(324990.532000) vcan0 00000002#0388AD R
(324991.532000) vcan0 00000001#0489AE R
(324992.532000) vcan0 00000002#058AAF R
(324993.532000) vcan0 00000001#068BB0 R
(324994.532000) vcan0 00000002#078CB1 R
(324995.532000) vcan0 00000001#088DB2 R
(324996.532000) vcan0 00000002#098EB3 R
(324997.532000) vcan0 00000001#0A8FB4 R
(324998.532000) vcan0 00000002#0B90B5 R
(324999.532000) vcan0 00000001#0C91B6 R
(325000.532000) vcan0 00000002#0D92B7 R
(325001.532000) vcan0 00000001#0E93B8 R
(325002.532000) vcan0 00000002#0F94B9 R
(325003.532000) vcan0 00000001#1095BA R
(325004.532000) vcan0 00000002#1196BB R
(325005.532000) vcan0 00000001#1297BC R
(325006.532000) vcan0 00000002#1398BD R
(325007.532000) vcan0 00000001#1499BE R
(325008.532000) vcan0 00000002#159ABF R
(325009.532000) vcan0 00000001#169BC0 R
(325010.532000) vcan0 00000002#179CC1 R
(325011.532000) vcan0 00000001#189DC2 R
(325012.532000) vcan0 00000002#199EC3 R
(325013.532000) vcan0 00000001#1A9FC4 R
(325014.532000) vcan0 00000002#1BA0C5 R
(325015.532000) vcan0 00000001#1CA1C6 R
(325016.532000) vcan0 00000002#1DA2C7 R
(325017.532000) vcan0 00000001#1EA3C8 R
(325018.532000) vcan0 00000002#1FA4C9 R
(325019.532000) vcan0 00000001#20A5CA R
(325020.532000) vcan0 00000002#21A6CB R
(325021.532000) vcan0 00000001#22A7CC R
(325022.532000) vcan0 00000002#23A8CD R
(325023.532000) vcan0 00000001#24A9CE R
(325024.532000) vcan0 00000002#25AACF R
(325025.532000) vcan0 00000001#2655D0 R
(325026.532000) vcan0 00000002#2756D1 R
(325027.532000) vcan0 00000001#2857D2 R
(325028.532000) vcan0 00000002#2958D3 R
(325029.532000) vcan0 00000001#2A59D4 R
(325030.532000) vcan0 00000002#2B5AD5 R
(325031.532000) vcan0 00000001#2C5BD6 R
(325032.532000) vcan0 00000002#2D5CD7 R
(325033.532000) vcan0 00000001#2E5DD8 R
(325034.532000) vcan0 00000002#2F5ED9 R
(325035.532000) vcan0 00000001#305FDA R
(325036.532000) vcan0 00000002#3160DB R
(325037.532000) vcan0 00000001#3261DC R
(325038.532000) vcan0 00000002#3362DD R
(325039.532000) vcan0 00000001#3463DE R
(325040.532000) vcan0 00000002#3564DF R
(325041.532000) vcan0 00000001#3665E0 R
(325042.532000) vcan0 00000002#3766E1 R
(325043.532000) vcan0 00000001#3867E2 R
(325044.532000) vcan0 00000002#3968E3 R
(325045.532000) vcan0 00000001#3A69E4 R
(325046.532000) vcan0 00000002#3B6AE5 R
(325047.532000) vcan0 00000001#3C6BE6 R
(325048.532000) vcan0 00000002#3D6CE7 R
(325049.532000) vcan0 00000001#3E6DE8 R
(325050.532000) vcan0 00000002#3F6EE9 R
(325051.532000) vcan0 00000001#406FEA R
(325052.532000) vcan0 00000002#4170EB R
(325053.532000) vcan0 00000001#4271EC R
(325054.532000) vcan0 00000002#4372ED R
(325055.532000) vcan0 00000001#4473EE R
(325056.532000) vcan0 00000002#4574EF R
(325057.532000) vcan0 00000001#4675F0 R
(325058.532000) vcan0 00000002#4776F1 R
(325059.532000) vcan0 00000001#4877F2 R
(325060.532000) vcan0 00000002#4978F3 R
(325061.532000) vcan0 00000001#4A79F4 R
(325062.532000) vcan0 00000002#4B7AF5 R
(325063.532000) vcan0 00000001#4C7BF6 R
(325064.532000) vcan0 00000002#4D7CF7 R
(325065.532000) vcan0 00000001#4E7DF8 R
(325066.532000) vcan0 00000002#4F7EF9 R
(325067.532000) vcan0 00000001#507FFA R
(325068.532000) vcan0 00000002#5180FB R
(325069.532000) vcan0 00000001#5281FC R
(325070.532000) vcan0 00000002#5382FD R
(325071.532000) vcan0 00000001#5483FE R
(325072.532000) vcan0 00000002#0084AA R
(325073.532000) vcan0 00000001#0185AB R
(325074.532000) vcan0 00000002#0286AC R
(325075.532000) vcan0 00000001#0387AD R
(325076.532000) vcan0 00000002#0488AE R
(325077.532000) vcan0 00000001#0589AF R
(325078.532000) vcan0 00000002#068AB0 R
(325079.532000) vcan0 00000001#078BB1 R
(325080.532000) vcan0 00000002#088CB2 R
(325081.532000) vcan0 00000001#098DB3 R
(325082.532000) vcan0 00000002#0A8EB4 R
(325083.532000) vcan0 00000001#0B8FB5 R
(325084.532000) vcan0 00000002#0C90B6 R
(325085.532000) vcan0 00000001#0D91B7 R
(325086.532000) vcan0 00000002#0E92B8 R
(325087.532000) vcan0 00000001#0F93B9 R
(325088.532000) vcan0 00000002#1094BA R
(325089.532000) vcan0 00000001#1195BB R
(325090.532000) vcan0 00000002#1296BC R
(325091.532000) vcan0 00000001#1397BD R
(325092.532000) vcan0 00000002#1498BE R
(325093.532000) vcan0 00000001#1599BF R
(325094.532000) vcan0 00000002#169AC0 R
(325095.532000) vcan0 00000001#179BC1 R
(325096.532000) vcan0 00000002#189CC2 R
(325097.532000) vcan0 00000001#199DC3 R
(325098.532000) vcan0 00000002#1A9EC4 R
(325099.532000) vcan0 00000001#1B9FC5 R
(325100.532000) vcan0 00000002#1CA0C6 R
(325101.532000) vcan0 00000001#1DA1C7 R
(325102.532000) vcan0 00000002#1EA2C8 R
(325103.532000) vcan0 00000001#1FA3C9 R
(325104.532000) vcan0 00000002#20A4CA R
(325105.532000) vcan0 00000001#21A5CB R
(325106.532000) vcan0 00000002#22A6CC R
(325107.532000) vcan0 00000001#23A7CD R
(325108.532000) vcan0 00000002#24A8CE R
(325109.532000) vcan0 00000001#25A9CF R
(325110.532000) vcan0 00000002#26AAD0 R
