(45655.407000) vcan0 00000001#307B43 R
(45655.650000) vcan0 00000002#317C44 R
(45655.886000) vcan0 00000001#327D45 R
(45656.122000) vcan0 00000002#337E46 R
(45663.520000) vcan0 00000001#529D65 R
(45663.764000) vcan0 00000002#539E66 R
(45663.999000) vcan0 00000001#549F67 R
(45664.241000) vcan0 00000002#00A068 R
(45664.477000) vcan0 00000001#01A169 R
(45664.721000) vcan0 00000002#02A26A R
(45664.957000) vcan0 00000001#03A36B R
(45665.192000) vcan0 00000002#04A46C R
(45665.433000) vcan0 00000001#05A56D R
(45665.677000) vcan0 00000002#06A66E R
(45665.913000) vcan0 00000001#07A76F R
(45666.149000) vcan0 00000002#08A870 R
(45666.390000) vcan0 00000001#09A971 R
(45666.626000) vcan0 00000002#0AAA72 R
(45666.870000) vcan0 00000001#0B5573 R
(45667.105000) vcan0 00000002#0C5674 R
(45667.343000) vcan0 00000001#0D5775 R
(45667.579000) vcan0 00000002#0E5876 R
(45667.823000) vcan0 00000001#0F5977 R
(45668.059000) vcan0 00000002#105A78 R
(45668.301000) vcan0 00000001#115B79 R
(45668.536000) vcan0 00000002#125C7A R
(45668.780000) vcan0 00000001#135D7B R
(45669.016000) vcan0 00000002#145E7C R
(45669.258000) vcan0 00000001#155F7D R
(45669.494000) vcan0 00000002#16607E R
(45669.738000) vcan0 00000001#17617F R
(45669.973000) vcan0 00000002#186280 R
(45670.210000) vcan0 00000001#196381 R
(45670.450000) vcan0 00000002#1A6482 R
(45670.694000) vcan0 00000001#1B6583 R
(45670.930000) vcan0 00000002#1C6684 R
(45671.165000) vcan0 00000001#1D6785 R
(45671.406000) vcan0 00000002#1E6886 R
(45671.650000) vcan0 00000001#1F6987 R
(45671.886000) vcan0 00000002#206A88 R
(45672.122000) vcan0 00000001#216B89 R
(45672.360000) vcan0 00000002#226C8A R
(45672.596000) vcan0 00000001#236D8B R
(45672.839000) vcan0 00000002#246E8C R
(45673.075000) vcan0 00000001#256F8D R
(45673.317000) vcan0 00000002#26708E R
(45673.552000) vcan0 00000001#27718F R
(45673.796000) vcan0 00000002#287290 R
(45674.032000) vcan0 00000001#297391 R
(45674.274000) vcan0 00000002#2A7492 R
(45674.509000) vcan0 00000001#2B7593 R
(45674.753000) vcan0 00000002#2C7694 R
(45674.989000) vcan0 00000001#2D7795 R
(45675.227000) vcan0 00000002#2E7896 R
(45675.463000) vcan0 00000001#2F7997 R
(45675.707000) vcan0 00000002#307A98 R
(45675.943000) vcan0 00000001#317B99 R
(45676.179000) vcan0 00000002#327C9A R
(45676.421000) vcan0 00000001#337D9B R
(45676.665000) vcan0 00000002#347E9C R
(45676.900000) vcan0 00000001#357F9D R
(45677.136000) vcan0 00000002#36809E R
(45677.374000) vcan0 00000001#37819F R
(45677.610000) vcan0 00000002#3882A0 R
(45677.854000) vcan0 00000001#3983A1 R
(45678.089000) vcan0 00000002#3A84A2 R
(45678.328000) vcan0 00000001#3B85A3 R
(45678.563000) vcan0 00000002#3C86A4 R
(45678.807000) vcan0 00000001#3D87A5 R
(45679.043000) vcan0 00000002#3E88A6 R
(45679.285000) vcan0 00000001#3F89A7 R
(45679.521000) vcan0 00000002#408AA8 R
(45679.764000) vcan0 00000001#418BA9 R
(45680.000000) vcan0 00000002#428CAA R
(45680.241000) vcan0 00000001#438DAB R
(45680.477000) vcan0 00000002#448EAC R
(45680.721000) vcan0 00000001#458FAD R
(45680.956000) vcan0 00000002#4690AE R
(45681.192000) vcan0 00000001#4791AF R
(45681.434000) vcan0 00000002#4892B0 R
(45681.678000) vcan0 00000001#4993B1 R
(45681.914000) vcan0 00000002#4A94B2 R
(45682.149000) vcan0 00000001#4B95B3 R
(45682.390000) vcan0 00000002#4C96B4 R
(45682.626000) vcan0 00000001#4D97B5 R
(45682.870000) vcan0 00000002#4E98B6 R
(45683.106000) vcan0 00000001#4F99B7 R
(45683.344000) vcan0 00000002#509AB8 R
(45683.580000) vcan0 00000001#519BB9 R
(45683.823000) vcan0 00000002#529CBA R
(45684.059000) vcan0 00000001#539DBB R
(45684.301000) vcan0 00000002#549EBC R
(45684.537000) vcan0 00000001#009FBD R
(45684.780000) vcan0 00000002#01A0BE R
(45685.016000) vcan0 00000001#02A1BF R
(45685.258000) vcan0 00000002#03A2C0 R
(45685.494000) vcan0 00000001#04A3C1 R
(45685.738000) vcan0 00000002#05A4C2 R
(45685.973000) vcan0 00000001#06A5C3 R
(45686.210000) vcan0 00000002#07A6C4 R
(45686.450000) vcan0 00000001#08A7C5 R
(45686.694000) vcan0 00000002#09A8C6 R
(45686.930000) vcan0 00000001#0AA9C7 R
(45687.165000) vcan0 00000002#0BAAC8 R
(45687.407000) vcan0 00000001#0C55C9 R
(45687.650000) vcan0 00000002#0D56CA R
(45687.886000) vcan0 00000001#0E57CB R
(45688.122000) vcan0 00000002#0F58CC R
(45688.360000) vcan0 00000001#1059CD R
(45688.595000) vcan0 00000002#115ACE R
(45688.839000) vcan0 00000001#125BCF R
(45689.075000) vcan0 00000002#135CD0 R
(45689.317000) vcan0 00000001#145DD1 R
(45689.553000) vcan0 00000002#155ED2 R
(45689.796000) vcan0 00000001#165FD3 R
(45690.032000) vcan0 00000002#1760D4 R
(45690.274000) vcan0 00000001#1861D5 R
(45690.510000) vcan0 00000002#1962D6 R
(45690.754000) vcan0 00000001#1A63D7 R
(45690.989000) vcan0 00000002#1B64D8 R
(45691.228000) vcan0 00000001#1C65D9 R
(45691.463000) vcan0 00000002#1D66DA R
(45691.707000) vcan0 00000001#1E67DB R
(45691.943000) vcan0 00000002#1F68DC R
(45692.178000) vcan0 00000001#2069DD R
(45692.420000) vcan0 00000002#216ADE R
(45692.664000) vcan0 00000001#226BDF R
(45692.900000) vcan0 00000002#236CE0 R
(45693.136000) vcan0 00000001#246DE1 R
(45693.374000) vcan0 00000002#256EE2 R
(45693.610000) vcan0 00000001#266FE3 R
(45693.853000) vcan0 00000002#2770E4 R
(45694.089000) vcan0 00000001#2871E5 R
(45694.327000) vcan0 00000002#2972E6 R
(45694.563000) vcan0 00000001#2A73E7 R
(45694.807000) vcan0 00000002#2B74E8 R
(45695.042000) vcan0 00000001#2C75E9 R
(45695.284000) vcan0 00000002#2D76EA R
(45695.520000) vcan0 00000001#2E77EB R
(45695.764000) vcan0 00000002#2F78EC R
(45695.999000) vcan0 00000001#3079ED R
(45696.241000) vcan0 00000002#317AEE R
(45696.477000) vcan0 00000001#327BEF R
(45696.721000) vcan0 00000002#337CF0 R
(45696.957000) vcan0 00000001#347DF1 R
(45697.192000) vcan0 00000002#357EF2 R
(45697.433000) vcan0 00000001#367FF3 R
(45697.677000) vcan0 00000002#3780F4 R
(45697.913000) vcan0 00000001#3881F5 R
(45698.149000) vcan0 00000002#3982F6 R
(45698.390000) vcan0 00000001#3A83F7 R
(45698.626000) vcan0 00000002#3B84F8 R
(45698.870000) vcan0 00000001#3C85F9 R
(45699.106000) vcan0 00000002#3D86FA R
(45699.344000) vcan0 00000001#3E87FB R
(45699.580000) vcan0 00000002#3F88FC R
(45699.823000) vcan0 00000001#4089FD R
(45700.059000) vcan0 00000002#418AFE R
(45700.301000) vcan0 00000001#428BFF R
(45700.537000) vcan0 00000002#438C00 R
(45700.780000) vcan0 00000001#448D01 R
(45701.016000) vcan0 00000002#458E02 R
(45701.258000) vcan0 00000001#468F03 R
(45701.494000) vcan0 00000002#479004 R
(45701.738000) vcan0 00000001#489105 R
(45701.973000) vcan0 00000002#499206 R
(45702.210000) vcan0 00000001#4A9307 R
(45702.450000) vcan0 00000002#4B9408 R
(45702.694000) vcan0 00000001#4C9509 R
(45702.930000) vcan0 00000002#4D960A R
(45703.165000) vcan0 00000001#4E970B R
(45703.406000) vcan0 00000002#4F980C R
(45703.650000) vcan0 00000001#50990D R
(45703.886000) vcan0 00000002#519A0E R
(45704.122000) vcan0 00000001#529B0F R
(45704.360000) vcan0 00000002#539C10 R
(45704.596000) vcan0 00000001#549D11 R
(45704.839000) vcan0 00000002#009E12 R
(45705.075000) vcan0 00000001#019F13 R
(45705.317000) vcan0 00000002#02A014 R
(45705.553000) vcan0 00000001#03A115 R
(45705.796000) vcan0 00000002#04A216 R
(45706.032000) vcan0 00000001#05A317 R
(45706.274000) vcan0 00000002#06A418 R
(45706.510000) vcan0 00000001#07A519 R
(45706.754000) vcan0 00000002#08A61A R
(45706.990000) vcan0 00000001#09A71B R
(45707.227000) vcan0 00000002#0AA81C R
(45707.463000) vcan0 00000001#0BA91D R
(45707.707000) vcan0 00000002#0CAA1E R
(45707.943000) vcan0 00000001#0D551F R
(45708.179000) vcan0 00000002#0E5620 R
(45708.421000) vcan0 00000001#0F5721 R
(45708.665000) vcan0 00000002#105822 R
(45708.900000) vcan0 00000001#115923 R
(45709.136000) vcan0 00000002#125A24 R
(45709.374000) vcan0 00000001#135B25 R
(45709.610000) vcan0 00000002#145C26 R
(45709.854000) vcan0 00000001#155D27 R
(45710.089000) vcan0 00000002#165E28 R
(45710.328000) vcan0 00000001#175F29 R
(45710.563000) vcan0 00000002#18602A R
(45710.807000) vcan0 00000001#19612B R
(45711.043000) vcan0 00000002#1A622C R
(45711.285000) vcan0 00000001#1B632D R
(45711.521000) vcan0 00000002#1C642E R
(45711.764000) vcan0 00000001#1D652F R
(45712.000000) vcan0 00000002#1E6630 R
(45712.241000) vcan0 00000001#1F6731 R
(45712.477000) vcan0 00000002#206832 R
(45712.721000) vcan0 00000001#216933 R
(45712.956000) vcan0 00000002#226A34 R
(45713.192000) vcan0 00000001#236B35 R
(45713.434000) vcan0 00000002#246C36 R
(45713.678000) vcan0 00000001#256D37 R
(45713.914000) vcan0 00000002#266E38 R
(45714.149000) vcan0 00000001#276F39 R
(45714.390000) vcan0 00000002#28703A R
(45714.626000) vcan0 00000001#29713B R
(45714.870000) vcan0 00000002#2A723C R
(45715.106000) vcan0 00000001#2B733D R
(45715.344000) vcan0 00000002#2C743E R
(45715.580000) vcan0 00000001#2D753F R
(45715.823000) vcan0 00000002#2E7640 R
(45716.059000) vcan0 00000001#2F7741 R
(45716.301000) vcan0 00000002#307842 R
(45716.537000) vcan0 00000001#317943 R
(45716.780000) vcan0 00000002#327A44 R
(45717.016000) vcan0 00000001#337B45 R
(45717.258000) vcan0 00000002#347C46 R
(45717.494000) vcan0 00000001#357D47 R
(45717.738000) vcan0 00000002#367E48 R
(45717.973000) vcan0 00000001#377F49 R
(45718.210000) vcan0 00000002#38804A R
(45718.450000) vcan0 00000001#39814B R
(45718.694000) vcan0 00000002#3A824C R
(45718.930000) vcan0 00000001#3B834D R
(45719.165000) vcan0 00000002#3C844E R
(45719.407000) vcan0 00000001#3D854F R
(45719.650000) vcan0 00000002#3E8650 R
(45719.886000) vcan0 00000001#3F8751 R
(45720.122000) vcan0 00000002#408852 R
(45720.360000) vcan0 00000001#418953 R
(45720.595000) vcan0 00000002#428A54 R
(45720.839000) vcan0 00000001#438B55 R
(45721.075000) vcan0 00000002#448C56 R
(45721.317000) vcan0 00000001#458D57 R
(45721.553000) vcan0 00000002#468E58 R
(45721.796000) vcan0 00000001#478F59 R
(45722.032000) vcan0 00000002#48905A R
(45722.274000) vcan0 00000001#49915B R
(45722.510000) vcan0 00000002#4A925C R
(45722.754000) vcan0 00000001#4B935D R
(45722.989000) vcan0 00000002#4C945E R
(45723.228000) vcan0 00000001#4D955F R
(45723.463000) vcan0 00000002#4E9660 R
(45723.707000) vcan0 00000001#4F9761 R
(45723.943000) vcan0 00000002#509862 R
(45724.178000) vcan0 00000001#519963 R
(45724.420000) vcan0 00000002#529A64 R
(45724.664000) vcan0 00000001#539B65 R
(45724.900000) vcan0 00000002#549C66 R
(45725.136000) vcan0 00000001#009D67 R
(45725.374000) vcan0 00000002#019E68 R
(45725.610000) vcan0 00000001#029F69 R
(45725.853000) vcan0 00000002#03A06A R
(45726.089000) vcan0 00000001#04A16B R
(45726.327000) vcan0 00000002#05A26C R
(45726.563000) vcan0 00000001#06A36D R
(45726.807000) vcan0 00000002#07A46E R
(45727.042000) vcan0 00000001#08A56F R
(45727.284000) vcan0 00000002#09A670 R
(45727.520000) vcan0 00000001#0AA771 R
(45727.764000) vcan0 00000002#0BA872 R
(45727.999000) vcan0 00000001#0CA973 R
(45728.241000) vcan0 00000002#0DAA74 R
(45728.477000) vcan0 00000001#0E5575 R
(45728.721000) vcan0 00000002#0F5676 R
(45728.957000) vcan0 00000001#105777 R
(45729.192000) vcan0 00000002#115878 R
(45729.433000) vcan0 00000001#125979 R
(45729.677000) vcan0 00000002#135A7A R
(45729.913000) vcan0 00000001#145B7B R
(45730.149000) vcan0 00000002#155C7C R
(45730.390000) vcan0 00000001#165D7D R
(45730.626000) vcan0 00000002#175E7E R
(45730.870000) vcan0 00000001#185F7F R
(45731.106000) vcan0 00000002#196080 R
(45731.344000) vcan0 00000001#1A6181 R
(45731.580000) vcan0 00000002#1B6282 R
(45731.823000) vcan0 00000001#1C6383 R
(45732.059000) vcan0 00000002#1D6484 R
(45732.301000) vcan0 00000001#1E6585 R
(45732.537000) vcan0 00000002#1F6686 R
(45732.780000) vcan0 00000001#206787 R
(45733.016000) vcan0 00000002#216888 R
(45733.258000) vcan0 00000001#226989 R
(45733.494000) vcan0 00000002#236A8A R
(45733.738000) vcan0 00000001#246B8B R
(45733.973000) vcan0 00000002#256C8C R
(45734.210000) vcan0 00000001#266D8D R
(45734.450000) vcan0 00000002#276E8E R
(45734.694000) vcan0 00000001#286F8F R
(45734.930000) vcan0 00000002#297090 R
(45735.165000) vcan0 00000001#2A7191 R
(45735.406000) vcan0 00000002#2B7292 R
(45735.650000) vcan0 00000001#2C7393 R
(45735.886000) vcan0 00000002#2D7494 R
(45736.122000) vcan0 00000001#2E7595 R
(45736.360000) vcan0 00000002#2F7696 R
(45736.596000) vcan0 00000001#307797 R
(45736.839000) vcan0 00000002#317898 R
(45737.075000) vcan0 00000001#327999 R
(45737.317000) vcan0 00000002#337A9A R
(45737.553000) vcan0 00000001#347B9B R
(45737.796000) vcan0 00000002#357C9C R
(45738.032000) vcan0 00000001#367D9D R
(45738.274000) vcan0 00000002#377E9E R
(45738.510000) vcan0 00000001#387F9F R
(45738.754000) vcan0 00000002#3980A0 R
(45738.990000) vcan0 00000001#3A81A1 R
(45739.227000) vcan0 00000002#3B82A2 R
(45739.463000) vcan0 00000001#3C83A3 R
(45739.707000) vcan0 00000002#3D84A4 R
(45739.943000) vcan0 00000001#3E85A5 R
(45740.179000) vcan0 00000002#3F86A6 R
(45740.421000) vcan0 00000001#4087A7 R
(45740.665000) vcan0 00000002#4188A8 R
(45740.900000) vcan0 00000001#4289A9 R
(45741.136000) vcan0 00000002#438AAA R
(45741.374000) vcan0 00000001#448BAB R
(45741.610000) vcan0 00000002#458CAC R
(45741.854000) vcan0 00000001#468DAD R
(45742.089000) vcan0 00000002#478EAE R
(45742.328000) vcan0 00000001#488FAF R
(45742.563000) vcan0 00000002#4990B0 R
(45742.807000) vcan0 00000001#4A91B1 R
(45743.043000) vcan0 00000002#4B92B2 R
(45743.285000) vcan0 00000001#4C93B3 R
(45743.521000) vcan0 00000002#4D94B4 R
(45743.764000) vcan0 00000001#4E95B5 R
(45744.000000) vcan0 00000002#4F96B6 R
(45744.241000) vcan0 00000001#5097B7 R
(45744.477000) vcan0 00000002#5198B8 R
(45744.721000) vcan0 00000001#5299B9 R
(45744.956000) vcan0 00000002#539ABA R
(45745.192000) vcan0 00000001#549BBB R
(45745.434000) vcan0 00000002#009CBC R
(45745.678000) vcan0 00000001#019DBD R
(45745.914000) vcan0 00000002#029EBE R
(45746.149000) vcan0 00000001#039FBF R
(45746.390000) vcan0 00000002#04A0C0 R
(45746.626000) vcan0 00000001#05A1C1 R
(45746.870000) vcan0 00000002#06A2C2 R
(45747.106000) vcan0 00000001#07A3C3 R
(45747.344000) vcan0 00000002#08A4C4 R
(45747.580000) vcan0 00000001#09A5C5 R
(45747.823000) vcan0 00000002#0AA6C6 R
(45748.059000) vcan0 00000001#0BA7C7 R
(45748.301000) vcan0 00000002#0CA8C8 R
(45748.537000) vcan0 00000001#0DA9C9 R
(45748.780000) vcan0 00000002#0EAACA R
(45749.016000) vcan0 00000001#0F55CB R
(45749.258000) vcan0 00000002#1056CC R
(45749.494000) vcan0 00000001#1157CD R
(45749.738000) vcan0 00000002#1258CE R
(45749.973000) vcan0 00000001#1359CF R
(45750.210000) vcan0 00000002#145AD0 R
(45750.450000) vcan0 00000001#155BD1 R
(45750.694000) vcan0 00000002#165CD2 R
(45750.930000) vcan0 00000001#175DD3 R
(45751.165000) vcan0 00000002#185ED4 R
(45751.407000) vcan0 00000001#195FD5 R
(45751.650000) vcan0 00000002#1A60D6 R
(45751.886000) vcan0 00000001#1B61D7 R
(45752.122000) vcan0 00000002#1C62D8 R
(45752.360000) vcan0 00000001#1D63D9 R
(45752.595000) vcan0 00000002#1E64DA R
(45752.839000) vcan0 00000001#1F65DB R
(45753.075000) vcan0 00000002#2066DC R
(45753.317000) vcan0 00000001#2167DD R
(45753.553000) vcan0 00000002#2268DE R
(45753.796000) vcan0 00000001#2369DF R
(45754.032000) vcan0 00000002#246AE0 R
(45754.274000) vcan0 00000001#256BE1 R
(45754.510000) vcan0 00000002#266CE2 R
(45754.754000) vcan0 00000001#276DE3 R
(45754.989000) vcan0 00000002#286EE4 R
(45755.227000) vcan0 00000001#296FE5 R
(45755.463000) vcan0 00000002#2A70E6 R
(45755.707000) vcan0 00000001#2B71E7 R
(45755.943000) vcan0 00000002#2C72E8 R
(45756.179000) vcan0 00000001#2D73E9 R
(45756.421000) vcan0 00000002#2E74EA R
(45756.665000) vcan0 00000001#2F75EB R
(45756.900000) vcan0 00000002#3076EC R
(45757.136000) vcan0 00000001#3177ED R
(45757.374000) vcan0 00000002#3278EE R
(45757.610000) vcan0 00000001#3379EF R
(45757.854000) vcan0 00000002#347AF0 R
(45758.089000) vcan0 00000001#357BF1 R
(45758.327000) vcan0 00000002#367CF2 R
(45758.563000) vcan0 00000001#377DF3 R
(45758.807000) vcan0 00000002#387EF4 R
(45759.042000) vcan0 00000001#397FF5 R
(45759.284000) vcan0 00000002#3A80F6 R
(45759.520000) vcan0 00000001#3B81F7 R
(45759.764000) vcan0 00000002#3C82F8 R
(45759.999000) vcan0 00000001#3D83F9 R
(45760.241000) vcan0 00000002#3E84FA R
(45760.477000) vcan0 00000001#3F85FB R
(45760.721000) vcan0 00000002#4086FC R
(45760.957000) vcan0 00000001#4187FD R
(45761.192000) vcan0 00000002#4288FE R
(45761.433000) vcan0 00000001#4389FF R
(45761.677000) vcan0 00000002#448A00 R
(45761.913000) vcan0 00000001#458B01 R
(45762.149000) vcan0 00000002#468C02 R
(45762.390000) vcan0 00000001#478D03 R
(45762.626000) vcan0 00000002#488E04 R
(45762.870000) vcan0 00000001#498F05 R
(45763.106000) vcan0 00000002#4A9006 R
(45763.344000) vcan0 00000001#4B9107 R
(45763.580000) vcan0 00000002#4C9208 R
(45763.823000) vcan0 00000001#4D9309 R
(45764.059000) vcan0 00000002#4E940A R
(45764.301000) vcan0 00000001#4F950B R
(45764.537000) vcan0 00000002#50960C R
(45764.780000) vcan0 00000001#51970D R
(45765.016000) vcan0 00000002#52980E R
(45765.258000) vcan0 00000001#53990F R
(45765.494000) vcan0 00000002#549A10 R
(45765.738000) vcan0 00000001#009B11 R
(45765.973000) vcan0 00000002#019C12 R
(45766.210000) vcan0 00000001#029D13 R
(45766.450000) vcan0 00000002#039E14 R
(45766.694000) vcan0 00000001#049F15 R
(45766.930000) vcan0 00000002#05A016 R
(45767.165000) vcan0 00000001#06A117 R
(45767.407000) vcan0 00000002#07A218 R
(45767.650000) vcan0 00000001#08A319 R
(45767.886000) vcan0 00000002#09A41A R
(45768.122000) vcan0 00000001#0AA51B R
(45768.360000) vcan0 00000002#0BA61C R
(45768.596000) vcan0 00000001#0CA71D R
(45768.840000) vcan0 00000002#0DA81E R
(45769.076000) vcan0 00000001#0EA91F R
(45769.317000) vcan0 00000002#0FAA20 R
(45769.553000) vcan0 00000001#105521 R
(45769.797000) vcan0 00000002#115622 R
(45770.032000) vcan0 00000001#125723 R
(45770.274000) vcan0 00000002#135824 R
(45770.510000) vcan0 00000001#145925 R
(45770.754000) vcan0 00000002#155A26 R
(45770.990000) vcan0 00000001#165B27 R
(45771.228000) vcan0 00000002#175C28 R
(45771.463000) vcan0 00000001#185D29 R
(45771.707000) vcan0 00000002#195E2A R
(45771.943000) vcan0 00000001#1A5F2B R
(45772.179000) vcan0 00000002#1B602C R
(45772.421000) vcan0 00000001#1C612D R
(45772.665000) vcan0 00000002#1D622E R
(45772.900000) vcan0 00000001#1E632F R
(45773.136000) vcan0 00000002#1F6430 R
(45773.374000) vcan0 00000001#206531 R
(45773.610000) vcan0 00000002#216632 R
(45773.854000) vcan0 00000001#226733 R
(45774.089000) vcan0 00000002#236834 R
(45774.327000) vcan0 00000001#246935 R
(45774.563000) vcan0 00000002#256A36 R
(45774.807000) vcan0 00000001#266B37 R
(45775.043000) vcan0 00000002#276C38 R
(45775.284000) vcan0 00000001#286D39 R
(45775.520000) vcan0 00000002#296E3A R
(45775.764000) vcan0 00000001#2A6F3B R
(45776.000000) vcan0 00000002#2B703C R
(45776.241000) vcan0 00000001#2C713D R
(45776.477000) vcan0 00000002#2D723E R
(45776.721000) vcan0 00000001#2E733F R
(45776.957000) vcan0 00000002#2F7440 R
(45777.193000) vcan0 00000001#307541 R
(45777.433000) vcan0 00000002#317642 R
(45777.677000) vcan0 00000001#327743 R
(45777.913000) vcan0 00000002#337844 R
(45778.149000) vcan0 00000001#347945 R
(45778.390000) vcan0 00000002#357A46 R
(45778.626000) vcan0 00000001#367B47 R
(45778.870000) vcan0 00000002#377C48 R
(45779.105000) vcan0 00000001#387D49 R
(45779.343000) vcan0 00000002#397E4A R
(45779.579000) vcan0 00000001#3A7F4B R
(45779.823000) vcan0 00000002#3B804C R
(45780.059000) vcan0 00000001#3C814D R
(45780.301000) vcan0 00000002#3D824E R
(45780.536000) vcan0 00000001#3E834F R
(45780.780000) vcan0 00000002#3F8450 R
(45781.016000) vcan0 00000001#408551 R
(45781.258000) vcan0 00000002#418652 R
(45781.493000) vcan0 00000001#428753 R
(45781.737000) vcan0 00000002#438854 R
(45781.973000) vcan0 00000001#448955 R
(45782.209000) vcan0 00000002#458A56 R
(45782.450000) vcan0 00000001#468B57 R
(45782.694000) vcan0 00000002#478C58 R
(45782.929000) vcan0 00000001#488D59 R
(45783.165000) vcan0 00000002#498E5A R
(45783.407000) vcan0 00000001#4A8F5B R
(45783.650000) vcan0 00000002#4B905C R
(45783.886000) vcan0 00000001#4C915D R
(45784.122000) vcan0 00000002#4D925E R
(45784.360000) vcan0 00000001#4E935F R
(45784.595000) vcan0 00000002#4F9460 R
(45784.839000) vcan0 00000001#509561 R
(45785.075000) vcan0 00000002#519662 R
(45785.317000) vcan0 00000001#529763 R
(45785.553000) vcan0 00000002#539864 R
(45785.796000) vcan0 00000001#549965 R
(45786.032000) vcan0 00000002#009A66 R
(45786.274000) vcan0 00000001#019B67 R
(45786.510000) vcan0 00000002#029C68 R
(45786.754000) vcan0 00000001#039D69 R
(45786.989000) vcan0 00000002#049E6A R
(45787.228000) vcan0 00000001#059F6B R
(45787.463000) vcan0 00000002#06A06C R
(45787.707000) vcan0 00000001#07A16D R
(45787.943000) vcan0 00000002#08A26E R
(45788.179000) vcan0 00000001#09A36F R
(45788.420000) vcan0 00000002#0AA470 R
(45788.664000) vcan0 00000001#0BA571 R
(45788.900000) vcan0 00000002#0CA672 R
(45789.136000) vcan0 00000001#0DA773 R
(45789.374000) vcan0 00000002#0EA874 R
(45789.609000) vcan0 00000001#0FA975 R
(45789.853000) vcan0 00000002#10AA76 R
(45790.089000) vcan0 00000001#115577 R
(45790.327000) vcan0 00000002#125678 R
(45790.563000) vcan0 00000001#135779 R
(45790.807000) vcan0 00000002#14587A R
(45791.043000) vcan0 00000001#15597B R
(45791.284000) vcan0 00000002#165A7C R
(45791.520000) vcan0 00000001#175B7D R
(45791.764000) vcan0 00000002#185C7E R
(45792.000000) vcan0 00000001#195D7F R
(45792.241000) vcan0 00000002#1A5E80 R
(45792.477000) vcan0 00000001#1B5F81 R
(45792.721000) vcan0 00000002#1C6082 R
(45792.957000) vcan0 00000001#1D6183 R
(45793.193000) vcan0 00000002#1E6284 R
(45793.433000) vcan0 00000001#1F6385 R
(45793.677000) vcan0 00000002#206486 R
(45793.913000) vcan0 00000001#216587 R
(45794.149000) vcan0 00000002#226688 R
(45794.390000) vcan0 00000001#236789 R
(45794.626000) vcan0 00000002#24688A R
(45794.870000) vcan0 00000001#25698B R
(45795.105000) vcan0 00000002#266A8C R
(45795.343000) vcan0 00000001#276B8D R
(45795.579000) vcan0 00000002#286C8E R
(45795.823000) vcan0 00000001#296D8F R
(45796.059000) vcan0 00000002#2A6E90 R
(45796.301000) vcan0 00000001#2B6F91 R
(45796.536000) vcan0 00000002#2C7092 R
(45796.780000) vcan0 00000001#2D7193 R
(45797.016000) vcan0 00000002#2E7294 R
(45797.258000) vcan0 00000001#2F7395 R
(45797.493000) vcan0 00000002#307496 R
(45797.737000) vcan0 00000001#317597 R
(45797.973000) vcan0 00000002#327698 R
(45798.209000) vcan0 00000001#337799 R
(45798.450000) vcan0 00000002#34789A R
(45798.694000) vcan0 00000001#35799B R
(45798.929000) vcan0 00000002#367A9C R
(45799.165000) vcan0 00000001#377B9D R
(45799.407000) vcan0 00000002#387C9E R
(45799.650000) vcan0 00000001#397D9F R
(45799.886000) vcan0 00000002#3A7EA0 R
(45800.122000) vcan0 00000001#3B7FA1 R
(45800.360000) vcan0 00000002#3C80A2 R
(45800.596000) vcan0 00000001#3D81A3 R
(45800.839000) vcan0 00000002#3E82A4 R
(45801.075000) vcan0 00000001#3F83A5 R
(45801.317000) vcan0 00000002#4084A6 R
(45801.552000) vcan0 00000001#4185A7 R
(45801.796000) vcan0 00000002#4286A8 R
(45802.032000) vcan0 00000001#4387A9 R
(45802.274000) vcan0 00000002#4488AA R
(45802.509000) vcan0 00000001#4589AB R
(45802.753000) vcan0 00000002#468AAC R
(45802.989000) vcan0 00000001#478BAD R
(45803.227000) vcan0 00000002#488CAE R
(45803.463000) vcan0 00000001#498DAF R
(45803.707000) vcan0 00000002#4A8EB0 R
(45803.943000) vcan0 00000001#4B8FB1 R
(45804.179000) vcan0 00000002#4C90B2 R
(45804.421000) vcan0 00000001#4D91B3 R
(45804.665000) vcan0 00000002#4E92B4 R
(45804.900000) vcan0 00000001#4F93B5 R
(45805.136000) vcan0 00000002#5094B6 R
(45805.374000) vcan0 00000001#5195B7 R
(45805.610000) vcan0 00000002#5296B8 R
(45805.854000) vcan0 00000001#5397B9 R
(45806.089000) vcan0 00000002#5498BA R
(45806.328000) vcan0 00000001#0099BB R
(45806.563000) vcan0 00000002#019ABC R
(45806.807000) vcan0 00000001#029BBD R
(45807.043000) vcan0 00000002#039CBE R
(45807.285000) vcan0 00000001#049DBF R
(45807.521000) vcan0 00000002#059EC0 R
(45807.764000) vcan0 00000001#069FC1 R
(45808.000000) vcan0 00000002#07A0C2 R
(45808.241000) vcan0 00000001#08A1C3 R
(45808.477000) vcan0 00000002#09A2C4 R
(45808.721000) vcan0 00000001#0AA3C5 R
(45808.956000) vcan0 00000002#0BA4C6 R
(45809.192000) vcan0 00000001#0CA5C7 R
(45809.434000) vcan0 00000002#0DA6C8 R
(45809.678000) vcan0 00000001#0EA7C9 R
(45809.914000) vcan0 00000002#0FA8CA R
(45810.149000) vcan0 00000001#10A9CB R
(45810.390000) vcan0 00000002#11AACC R
(45810.626000) vcan0 00000001#1255CD R
(45810.870000) vcan0 00000002#1356CE R
(45811.106000) vcan0 00000001#1457CF R
(45811.344000) vcan0 00000002#1558D0 R
(45811.580000) vcan0 00000001#1659D1 R
(45811.823000) vcan0 00000002#175AD2 R
(45812.059000) vcan0 00000001#185BD3 R
(45812.301000) vcan0 00000002#195CD4 R
(45812.536000) vcan0 00000001#1A5DD5 R
(45812.780000) vcan0 00000002#1B5ED6 R
(45813.016000) vcan0 00000001#1C5FD7 R
(45813.258000) vcan0 00000002#1D60D8 R
(45813.493000) vcan0 00000001#1E61D9 R
(45813.737000) vcan0 00000002#1F62DA R
(45813.973000) vcan0 00000001#2063DB R
(45814.209000) vcan0 00000002#2164DC R
(45814.450000) vcan0 00000001#2265DD R
(45814.694000) vcan0 00000002#2366DE R
(45814.929000) vcan0 00000001#2467DF R
(45815.165000) vcan0 00000002#2568E0 R
(45815.407000) vcan0 00000001#2669E1 R
(45815.650000) vcan0 00000002#276AE2 R
(45815.886000) vcan0 00000001#286BE3 R
(45816.122000) vcan0 00000002#296CE4 R
(45816.360000) vcan0 00000001#2A6DE5 R
(45816.596000) vcan0 00000002#2B6EE6 R
(45816.840000) vcan0 00000001#2C6FE7 R
(45817.076000) vcan0 00000002#2D70E8 R
(45817.317000) vcan0 00000001#2E71E9 R
(45817.553000) vcan0 00000002#2F72EA R
(45817.797000) vcan0 00000001#3073EB R
(45818.033000) vcan0 00000002#3174EC R
(45818.273000) vcan0 00000001#3275ED R
(45818.509000) vcan0 00000002#3376EE R
(45818.753000) vcan0 00000001#3477EF R
(45818.989000) vcan0 00000002#3578F0 R
(45819.227000) vcan0 00000001#3679F1 R
(45819.463000) vcan0 00000002#377AF2 R
(45819.707000) vcan0 00000001#387BF3 R
(45819.943000) vcan0 00000002#397CF4 R
(45820.179000) vcan0 00000001#3A7DF5 R
(45820.421000) vcan0 00000002#3B7EF6 R
(45820.665000) vcan0 00000001#3C7FF7 R
(45820.900000) vcan0 00000002#3D80F8 R
(45821.136000) vcan0 00000001#3E81F9 R
(45821.374000) vcan0 00000002#3F82FA R
(45821.610000) vcan0 00000001#4083FB R
(45821.854000) vcan0 00000002#4184FC R
(45822.089000) vcan0 00000001#4285FD R
(45822.328000) vcan0 00000002#4386FE R
(45822.563000) vcan0 00000001#4487FF R
(45822.807000) vcan0 00000002#458800 R
(45823.043000) vcan0 00000001#468901 R
(45823.285000) vcan0 00000002#478A02 R
(45823.521000) vcan0 00000001#488B03 R
(45823.764000) vcan0 00000002#498C04 R
(45824.000000) vcan0 00000001#4A8D05 R
(45824.241000) vcan0 00000002#4B8E06 R
(45824.477000) vcan0 00000001#4C8F07 R
(45824.721000) vcan0 00000002#4D9008 R
(45824.956000) vcan0 00000001#4E9109 R
(45825.192000) vcan0 00000002#4F920A R
(45825.434000) vcan0 00000001#50930B R
(45825.678000) vcan0 00000002#51940C R
(45825.914000) vcan0 00000001#52950D R
(45826.149000) vcan0 00000002#53960E R
(45826.390000) vcan0 00000001#54970F R
(45826.626000) vcan0 00000002#009810 R
(45826.870000) vcan0 00000001#019911 R
(45827.106000) vcan0 00000002#029A12 R
(45827.344000) vcan0 00000001#039B13 R
(45827.580000) vcan0 00000002#049C14 R
(45827.823000) vcan0 00000001#059D15 R
(45828.059000) vcan0 00000002#069E16 R
(45828.301000) vcan0 00000001#079F17 R
(45828.536000) vcan0 00000002#08A018 R
(45828.780000) vcan0 00000001#09A119 R
(45829.016000) vcan0 00000002#0AA21A R
(45829.258000) vcan0 00000001#0BA31B R
(45829.493000) vcan0 00000002#0CA41C R
(45829.737000) vcan0 00000001#0DA51D R
(45829.973000) vcan0 00000002#0EA61E R
(45830.209000) vcan0 00000001#0FA71F R
(45830.450000) vcan0 00000002#10A820 R
(45830.694000) vcan0 00000001#11A921 R
(45830.929000) vcan0 00000002#12AA22 R
(45831.165000) vcan0 00000001#135523 R
(45831.407000) vcan0 00000002#145624 R
(45831.650000) vcan0 00000001#155725 R
(45831.886000) vcan0 00000002#165826 R
(45832.122000) vcan0 00000001#175927 R
(45832.360000) vcan0 00000002#185A28 R
(45832.596000) vcan0 00000001#195B29 R
(45832.840000) vcan0 00000002#1A5C2A R
(45833.076000) vcan0 00000001#1B5D2B R
(45833.317000) vcan0 00000002#1C5E2C R
(45833.553000) vcan0 00000001#1D5F2D R
(45833.797000) vcan0 00000002#1E602E R
(45834.033000) vcan0 00000001#1F612F R
(45834.273000) vcan0 00000002#206230 R
(45834.509000) vcan0 00000001#216331 R
(45834.753000) vcan0 00000002#226432 R
(45834.989000) vcan0 00000001#236533 R
(45835.227000) vcan0 00000002#246634 R
(45835.463000) vcan0 00000001#256735 R
(45835.707000) vcan0 00000002#266836 R
(45835.943000) vcan0 00000001#276937 R
(45836.179000) vcan0 00000002#286A38 R
(45836.421000) vcan0 00000001#296B39 R
(45836.665000) vcan0 00000002#2A6C3A R
(45836.900000) vcan0 00000001#2B6D3B R
(45837.136000) vcan0 00000002#2C6E3C R
(45837.374000) vcan0 00000001#2D6F3D R
(45837.610000) vcan0 00000002#2E703E R
(45837.854000) vcan0 00000001#2F713F R
(45838.089000) vcan0 00000002#307240 R
(45838.327000) vcan0 00000001#317341 R
(45838.563000) vcan0 00000002#327442 R
(45838.807000) vcan0 00000001#337543 R
(45839.043000) vcan0 00000002#347644 R
(45839.284000) vcan0 00000001#357745 R
(45839.520000) vcan0 00000002#367846 R
(45839.764000) vcan0 00000001#377947 R
(45840.000000) vcan0 00000002#387A48 R
(45840.241000) vcan0 00000001#397B49 R
(45840.477000) vcan0 00000002#3A7C4A R
(45840.721000) vcan0 00000001#3B7D4B R
(45840.957000) vcan0 00000002#3C7E4C R
(45841.193000) vcan0 00000001#3D7F4D R
(45841.433000) vcan0 00000002#3E804E R
(45841.677000) vcan0 00000001#3F814F R
(45841.913000) vcan0 00000002#408250 R
(45842.149000) vcan0 00000001#418351 R
(45842.390000) vcan0 00000002#428452 R
(45842.626000) vcan0 00000001#438553 R
(45842.870000) vcan0 00000002#448654 R
(45843.105000) vcan0 00000001#458755 R
(45843.343000) vcan0 00000002#468856 R
(45843.579000) vcan0 00000001#478957 R
(45843.823000) vcan0 00000002#488A58 R
(45844.059000) vcan0 00000001#498B59 R
(45844.301000) vcan0 00000002#4A8C5A R
(45844.536000) vcan0 00000001#4B8D5B R
(45844.780000) vcan0 00000002#4C8E5C R
(45845.016000) vcan0 00000001#4D8F5D R
(45845.258000) vcan0 00000002#4E905E R
(45845.493000) vcan0 00000001#4F915F R
(45845.737000) vcan0 00000002#509260 R
(45845.973000) vcan0 00000001#519361 R
(45846.209000) vcan0 00000002#529462 R
(45846.450000) vcan0 00000001#539563 R
(45846.694000) vcan0 00000002#549664 R
(45846.929000) vcan0 00000001#009765 R
(45847.165000) vcan0 00000002#019866 R
(45847.407000) vcan0 00000001#029967 R
(45847.650000) vcan0 00000002#039A68 R
(45847.886000) vcan0 00000001#049B69 R
(45848.122000) vcan0 00000002#059C6A R
(45848.360000) vcan0 00000001#069D6B R
(45848.596000) vcan0 00000002#079E6C R
(45848.840000) vcan0 00000001#089F6D R
(45849.076000) vcan0 00000002#09A06E R
(45849.317000) vcan0 00000001#0AA16F R
(45849.553000) vcan0 00000002#0BA270 R
(45849.797000) vcan0 00000001#0CA371 R
(45850.033000) vcan0 00000002#0DA472 R
(45850.273000) vcan0 00000001#0EA573 R
(45850.509000) vcan0 00000002#0FA674 R
(45850.753000) vcan0 00000001#10A775 R
(45850.989000) vcan0 00000002#11A876 R
(45851.227000) vcan0 00000001#12A977 R
(45851.463000) vcan0 00000002#13AA78 R
(45851.707000) vcan0 00000001#145579 R
(45851.943000) vcan0 00000002#15567A R
(45852.179000) vcan0 00000001#16577B R
(45852.421000) vcan0 00000002#17587C R
(45852.665000) vcan0 00000001#18597D R
(45852.900000) vcan0 00000002#195A7E R
(45853.136000) vcan0 00000001#1A5B7F R
(45853.374000) vcan0 00000002#1B5C80 R
(45853.610000) vcan0 00000001#1C5D81 R
(45853.854000) vcan0 00000002#1D5E82 R
(45854.089000) vcan0 00000001#1E5F83 R
(45854.327000) vcan0 00000002#1F6084 R
(45854.563000) vcan0 00000001#206185 R
(45854.807000) vcan0 00000002#216286 R
(45855.042000) vcan0 00000001#226387 R
(45855.284000) vcan0 00000002#236488 R
(45855.520000) vcan0 00000001#246589 R
(45855.764000) vcan0 00000002#25668A R
(45855.999000) vcan0 00000001#26678B R
(45856.241000) vcan0 00000002#27688C R
(45856.477000) vcan0 00000001#28698D R
(45856.721000) vcan0 00000002#296A8E R
(45856.957000) vcan0 00000001#2A6B8F R
(45857.192000) vcan0 00000002#2B6C90 R
(45857.433000) vcan0 00000001#2C6D91 R
(45857.677000) vcan0 00000002#2D6E92 R
(45857.913000) vcan0 00000001#2E6F93 R
(45858.149000) vcan0 00000002#2F7094 R
(45858.390000) vcan0 00000001#307195 R
(45858.626000) vcan0 00000002#317296 R
(45858.870000) vcan0 00000001#327397 R
(45859.106000) vcan0 00000002#337498 R
(45859.344000) vcan0 00000001#347599 R
(45859.580000) vcan0 00000002#35769A R
(45859.823000) vcan0 00000001#36779B R
(45860.059000) vcan0 00000002#37789C R
(45860.301000) vcan0 00000001#38799D R
(45860.537000) vcan0 00000002#397A9E R
(45860.780000) vcan0 00000001#3A7B9F R
(45861.016000) vcan0 00000002#3B7CA0 R
(45861.258000) vcan0 00000001#3C7DA1 R
(45861.494000) vcan0 00000002#3D7EA2 R
(45861.738000) vcan0 00000001#3E7FA3 R
(45861.973000) vcan0 00000002#3F80A4 R
(45862.210000) vcan0 00000001#4081A5 R
(45862.450000) vcan0 00000002#4182A6 R
(45862.694000) vcan0 00000001#4283A7 R
(45862.930000) vcan0 00000002#4384A8 R
(45863.165000) vcan0 00000001#4485A9 R
(45863.406000) vcan0 00000002#4586AA R
(45863.650000) vcan0 00000001#4687AB R
(45863.886000) vcan0 00000002#4788AC R
(45864.122000) vcan0 00000001#4889AD R
(45864.360000) vcan0 00000002#498AAE R
(45864.596000) vcan0 00000001#4A8BAF R
(45864.839000) vcan0 00000002#4B8CB0 R
(45865.075000) vcan0 00000001#4C8DB1 R
(45865.317000) vcan0 00000002#4D8EB2 R
(45865.553000) vcan0 00000001#4E8FB3 R
(45865.796000) vcan0 00000002#4F90B4 R
(45866.032000) vcan0 00000001#5091B5 R
(45866.274000) vcan0 00000002#5192B6 R
(45866.510000) vcan0 00000001#5293B7 R
(45866.754000) vcan0 00000002#5394B8 R
(45866.990000) vcan0 00000001#5495B9 R
(45867.227000) vcan0 00000002#0096BA R
(45867.463000) vcan0 00000001#0197BB R
(45867.707000) vcan0 00000002#0298BC R
(45867.943000) vcan0 00000001#0399BD R
(45868.179000) vcan0 00000002#049ABE R
(45868.421000) vcan0 00000001#059BBF R
(45868.665000) vcan0 00000002#069CC0 R
(45868.900000) vcan0 00000001#079DC1 R
(45869.136000) vcan0 00000002#089EC2 R
(45869.374000) vcan0 00000001#099FC3 R
(45869.610000) vcan0 00000002#0AA0C4 R
(45869.854000) vcan0 00000001#0BA1C5 R
(45870.089000) vcan0 00000002#0CA2C6 R
(45870.328000) vcan0 00000001#0DA3C7 R
(45870.563000) vcan0 00000002#0EA4C8 R
(45870.807000) vcan0 00000001#0FA5C9 R
(45871.043000) vcan0 00000002#10A6CA R
(45871.285000) vcan0 00000001#11A7CB R
(45871.521000) vcan0 00000002#12A8CC R
(45871.764000) vcan0 00000001#13A9CD R
(45872.000000) vcan0 00000002#14AACE R
(45872.241000) vcan0 00000001#1555CF R
(45872.477000) vcan0 00000002#1656D0 R
(45872.721000) vcan0 00000001#1757D1 R
(45872.956000) vcan0 00000002#1858D2 R
(45873.192000) vcan0 00000001#1959D3 R
(45873.434000) vcan0 00000002#1A5AD4 R
(45873.678000) vcan0 00000001#1B5BD5 R
(45873.914000) vcan0 00000002#1C5CD6 R
(45874.149000) vcan0 00000001#1D5DD7 R
(45874.390000) vcan0 00000002#1E5ED8 R
(45874.626000) vcan0 00000001#1F5FD9 R
(45874.870000) vcan0 00000002#2060DA R
(45875.106000) vcan0 00000001#2161DB R
(45875.344000) vcan0 00000002#2262DC R
(45875.580000) vcan0 00000001#2363DD R
(45875.823000) vcan0 00000002#2464DE R
(45876.059000) vcan0 00000001#2565DF R
(45876.301000) vcan0 00000002#2666E0 R
(45876.537000) vcan0 00000001#2767E1 R
(45876.780000) vcan0 00000002#2868E2 R
(45877.016000) vcan0 00000001#2969E3 R
(45877.258000) vcan0 00000002#2A6AE4 R
(45877.494000) vcan0 00000001#2B6BE5 R
(45877.738000) vcan0 00000002#2C6CE6 R
(45877.973000) vcan0 00000001#2D6DE7 R
(45878.210000) vcan0 00000002#2E6EE8 R
(45878.450000) vcan0 00000001#2F6FE9 R
(45878.694000) vcan0 00000002#3070EA R
(45878.930000) vcan0 00000001#3171EB R
(45879.165000) vcan0 00000002#3272EC R
(45879.407000) vcan0 00000001#3373ED R
(45879.650000) vcan0 00000002#3474EE R
(45879.886000) vcan0 00000001#3575EF R
(45880.122000) vcan0 00000002#3676F0 R
(45880.360000) vcan0 00000001#3777F1 R
(45880.595000) vcan0 00000002#3878F2 R
(45880.839000) vcan0 00000001#3979F3 R
(45881.075000) vcan0 00000002#3A7AF4 R
(45881.317000) vcan0 00000001#3B7BF5 R
(45881.553000) vcan0 00000002#3C7CF6 R
(45881.796000) vcan0 00000001#3D7DF7 R
(45882.032000) vcan0 00000002#3E7EF8 R
(45882.274000) vcan0 00000001#3F7FF9 R
(45882.510000) vcan0 00000002#4080FA R
(45882.754000) vcan0 00000001#4181FB R
(45882.989000) vcan0 00000002#4282FC R
(45883.228000) vcan0 00000001#4383FD R
(45883.463000) vcan0 00000002#4484FE R
(45883.707000) vcan0 00000001#4585FF R
(45883.943000) vcan0 00000002#468600 R
(45884.178000) vcan0 00000001#478701 R
(45884.420000) vcan0 00000002#488802 R
(45884.664000) vcan0 00000001#498903 R
(45884.900000) vcan0 00000002#4A8A04 R
(45885.136000) vcan0 00000001#4B8B05 R
(45885.374000) vcan0 00000002#4C8C06 R
(45885.610000) vcan0 00000001#4D8D07 R
(45885.853000) vcan0 00000002#4E8E08 R
(45886.089000) vcan0 00000001#4F8F09 R
(45886.327000) vcan0 00000002#50900A R
(45886.563000) vcan0 00000001#51910B R
(45886.807000) vcan0 00000002#52920C R
(45887.042000) vcan0 00000001#53930D R
(45887.284000) vcan0 00000002#54940E R
(45887.520000) vcan0 00000001#00950F R
(45887.763000) vcan0 00000002#019610 R
(45887.999000) vcan0 00000001#029711 R
(45888.241000) vcan0 00000002#039812 R
(45888.477000) vcan0 00000001#049913 R
(45888.721000) vcan0 00000002#059A14 R
(45888.956000) vcan0 00000001#069B15 R
(45889.192000) vcan0 00000002#079C16 R
(45889.434000) vcan0 00000001#089D17 R
(45889.678000) vcan0 00000002#099E18 R
(45889.914000) vcan0 00000001#0A9F19 R
(45890.150000) vcan0 00000002#0BA01A R
(45890.390000) vcan0 00000001#0CA11B R
(45890.626000) vcan0 00000002#0DA21C R
(45890.870000) vcan0 00000001#0EA31D R
(45891.106000) vcan0 00000002#0FA41E R
(45891.344000) vcan0 00000001#10A51F R
(45891.580000) vcan0 00000002#11A620 R
(45891.823000) vcan0 00000001#12A721 R
(45892.059000) vcan0 00000002#13A822 R
(45892.300000) vcan0 00000001#14A923 R
(45892.536000) vcan0 00000002#15AA24 R
(45892.780000) vcan0 00000001#165525 R
(45893.016000) vcan0 00000002#175626 R
(45893.257000) vcan0 00000001#185727 R
(45893.493000) vcan0 00000002#195828 R
(45893.737000) vcan0 00000001#1A5929 R
(45893.973000) vcan0 00000002#1B5A2A R
(45894.209000) vcan0 00000001#1C5B2B R
(45894.450000) vcan0 00000002#1D5C2C R
(45894.694000) vcan0 00000001#1E5D2D R
(45894.930000) vcan0 00000002#1F5E2E R
(45895.165000) vcan0 00000001#205F2F R
(45895.407000) vcan0 00000002#216030 R
(45895.650000) vcan0 00000001#226131 R
(45895.886000) vcan0 00000002#236232 R
(45896.122000) vcan0 00000001#246333 R
(45896.360000) vcan0 00000002#256434 R
(45896.596000) vcan0 00000001#266535 R
(45896.839000) vcan0 00000002#276636 R
(45897.075000) vcan0 00000001#286737 R
(45897.317000) vcan0 00000002#296838 R
(45897.552000) vcan0 00000001#2A6939 R
(45897.796000) vcan0 00000002#2B6A3A R
(45898.032000) vcan0 00000001#2C6B3B R
(45898.274000) vcan0 00000002#2D6C3C R
(45898.509000) vcan0 00000001#2E6D3D R
(45898.753000) vcan0 00000002#2F6E3E R
(45898.989000) vcan0 00000001#306F3F R
(45899.228000) vcan0 00000002#317040 R
(45899.463000) vcan0 00000001#327141 R
(45899.707000) vcan0 00000002#337242 R
(45899.943000) vcan0 00000001#347343 R
(45900.179000) vcan0 00000002#357444 R
(45900.420000) vcan0 00000001#367545 R
(45900.664000) vcan0 00000002#377646 R
(45900.900000) vcan0 00000001#387747 R
(45901.136000) vcan0 00000002#397848 R
(45901.374000) vcan0 00000001#3A7949 R
(45901.610000) vcan0 00000002#3B7A4A R
(45901.854000) vcan0 00000001#3C7B4B R
(45902.089000) vcan0 00000002#3D7C4C R
(45902.327000) vcan0 00000001#3E7D4D R
(45902.563000) vcan0 00000002#3F7E4E R
(45902.807000) vcan0 00000001#407F4F R
(45903.043000) vcan0 00000002#418050 R
(45903.284000) vcan0 00000001#428151 R
(45903.520000) vcan0 00000002#438252 R
(45903.764000) vcan0 00000001#448353 R
(45904.000000) vcan0 00000002#458454 R
(45904.241000) vcan0 00000001#468555 R
(45904.477000) vcan0 00000002#478656 R
(45904.721000) vcan0 00000001#488757 R
(45904.957000) vcan0 00000002#498858 R
(45905.193000) vcan0 00000001#4A8959 R
(45905.433000) vcan0 00000002#4B8A5A R
(45905.677000) vcan0 00000001#4C8B5B R
(45905.913000) vcan0 00000002#4D8C5C R
(45906.149000) vcan0 00000001#4E8D5D R
(45906.390000) vcan0 00000002#4F8E5E R
(45906.626000) vcan0 00000001#508F5F R
(45906.870000) vcan0 00000002#519060 R
(45907.105000) vcan0 00000001#529161 R
(45907.343000) vcan0 00000002#539262 R
(45907.579000) vcan0 00000001#549363 R
(45907.823000) vcan0 00000002#009464 R
(45908.059000) vcan0 00000001#019565 R
(45908.301000) vcan0 00000002#029666 R
(45908.536000) vcan0 00000001#039767 R
(45908.780000) vcan0 00000002#049868 R
(45909.016000) vcan0 00000001#059969 R
(45909.258000) vcan0 00000002#069A6A R
(45909.493000) vcan0 00000001#079B6B R
(45909.737000) vcan0 00000002#089C6C R
(45909.973000) vcan0 00000001#099D6D R
(45910.209000) vcan0 00000002#0A9E6E R
(45910.450000) vcan0 00000001#0B9F6F R
(45910.694000) vcan0 00000002#0CA070 R
(45910.929000) vcan0 00000001#0DA171 R
(45911.165000) vcan0 00000002#0EA272 R
(45911.407000) vcan0 00000001#0FA373 R
(45911.650000) vcan0 00000002#10A474 R
(45911.886000) vcan0 00000001#11A575 R
(45912.122000) vcan0 00000002#12A676 R
(45912.360000) vcan0 00000001#13A777 R
(45912.596000) vcan0 00000002#14A878 R
(45912.840000) vcan0 00000001#15A979 R
(45913.076000) vcan0 00000002#16AA7A R
(45913.317000) vcan0 00000001#17557B R
(45913.553000) vcan0 00000002#18567C R
(45913.797000) vcan0 00000001#19577D R
(45914.032000) vcan0 00000002#1A587E R
(45914.274000) vcan0 00000001#1B597F R
(45914.510000) vcan0 00000002#1C5A80 R
(45914.754000) vcan0 00000001#1D5B81 R
(45914.990000) vcan0 00000002#1E5C82 R
(45915.228000) vcan0 00000001#1F5D83 R
(45915.463000) vcan0 00000002#205E84 R
(45915.707000) vcan0 00000001#215F85 R
(45915.943000) vcan0 00000002#226086 R
(45916.179000) vcan0 00000001#236187 R
(45916.421000) vcan0 00000002#246288 R
(45916.664000) vcan0 00000001#256389 R
(45916.900000) vcan0 00000002#26648A R
(45917.136000) vcan0 00000001#27658B R
(45917.374000) vcan0 00000002#28668C R
(45917.610000) vcan0 00000001#29678D R
(45917.853000) vcan0 00000002#2A688E R
(45918.089000) vcan0 00000001#2B698F R
(45918.327000) vcan0 00000002#2C6A90 R
(45918.563000) vcan0 00000001#2D6B91 R
(45918.807000) vcan0 00000002#2E6C92 R
(45919.042000) vcan0 00000001#2F6D93 R
(45919.284000) vcan0 00000002#306E94 R
(45919.520000) vcan0 00000001#316F95 R
(45919.764000) vcan0 00000002#327096 R
(45919.999000) vcan0 00000001#337197 R
(45920.241000) vcan0 00000002#347298 R
(45920.477000) vcan0 00000001#357399 R
(45920.721000) vcan0 00000002#36749A R
(45920.957000) vcan0 00000001#37759B R
(45921.192000) vcan0 00000002#38769C R
(45921.433000) vcan0 00000001#39779D R
(45921.677000) vcan0 00000002#3A789E R
(45921.913000) vcan0 00000001#3B799F R
(45922.149000) vcan0 00000002#3C7AA0 R
(45922.390000) vcan0 00000001#3D7BA1 R
(45922.626000) vcan0 00000002#3E7CA2 R
(45922.870000) vcan0 00000001#3F7DA3 R
(45923.106000) vcan0 00000002#407EA4 R
(45923.344000) vcan0 00000001#417FA5 R
(45923.580000) vcan0 00000002#4280A6 R
(45923.823000) vcan0 00000001#4381A7 R
(45924.059000) vcan0 00000002#4482A8 R
(45924.301000) vcan0 00000001#4583A9 R
(45924.537000) vcan0 00000002#4684AA R
(45924.780000) vcan0 00000001#4785AB R
(45925.016000) vcan0 00000002#4886AC R
(45925.258000) vcan0 00000001#4987AD R
(45925.494000) vcan0 00000002#4A88AE R
(45925.738000) vcan0 00000001#4B89AF R
(45925.973000) vcan0 00000002#4C8AB0 R
(45926.210000) vcan0 00000001#4D8BB1 R
(45926.450000) vcan0 00000002#4E8CB2 R
(45926.694000) vcan0 00000001#4F8DB3 R
(45926.930000) vcan0 00000002#508EB4 R
(45927.165000) vcan0 00000001#518FB5 R
(45927.406000) vcan0 00000002#5290B6 R
(45927.650000) vcan0 00000001#5391B7 R
(45927.886000) vcan0 00000002#5492B8 R
(45928.122000) vcan0 00000001#0093B9 R
(45928.360000) vcan0 00000002#0194BA R
(45928.596000) vcan0 00000001#0295BB R
(45928.839000) vcan0 00000002#0396BC R
(45929.075000) vcan0 00000001#0497BD R
(45929.317000) vcan0 00000002#0598BE R
(45929.552000) vcan0 00000001#0699BF R
(45929.796000) vcan0 00000002#079AC0 R
(45930.032000) vcan0 00000001#089BC1 R
(45930.274000) vcan0 00000002#099CC2 R
(45930.509000) vcan0 00000001#0A9DC3 R
(45930.753000) vcan0 00000002#0B9EC4 R
(45930.989000) vcan0 00000001#0C9FC5 R
(45931.227000) vcan0 00000002#0DA0C6 R
(45931.463000) vcan0 00000001#0EA1C7 R
(45931.707000) vcan0 00000002#0FA2C8 R
(45931.943000) vcan0 00000001#10A3C9 R
(45932.179000) vcan0 00000002#11A4CA R
(45932.421000) vcan0 00000001#12A5CB R
(45932.665000) vcan0 00000002#13A6CC R
(45932.900000) vcan0 00000001#14A7CD R
(45933.136000) vcan0 00000002#15A8CE R
(45933.374000) vcan0 00000001#16A9CF R
(45933.610000) vcan0 00000002#17AAD0 R
(45933.854000) vcan0 00000001#1855D1 R
(45934.089000) vcan0 00000002#1956D2 R
(45934.327000) vcan0 00000001#1A57D3 R
(45934.563000) vcan0 00000002#1B58D4 R
(45934.807000) vcan0 00000001#1C59D5 R
(45935.043000) vcan0 00000002#1D5AD6 R
(45935.284000) vcan0 00000001#1E5BD7 R
(45935.520000) vcan0 00000002#1F5CD8 R
(45935.764000) vcan0 00000001#205DD9 R
(45936.000000) vcan0 00000002#215EDA R
(45936.241000) vcan0 00000001#225FDB R
(45936.477000) vcan0 00000002#2360DC R
(45936.721000) vcan0 00000001#2461DD R
(45936.957000) vcan0 00000002#2562DE R
(45937.193000) vcan0 00000001#2663DF R
(45937.433000) vcan0 00000002#2764E0 R
(45937.677000) vcan0 00000001#2865E1 R
(45937.913000) vcan0 00000002#2966E2 R
(45938.149000) vcan0 00000001#2A67E3 R
(45938.390000) vcan0 00000002#2B68E4 R
(45938.626000) vcan0 00000001#2C69E5 R
(45938.870000) vcan0 00000002#2D6AE6 R
(45939.105000) vcan0 00000001#2E6BE7 R
(45939.343000) vcan0 00000002#2F6CE8 R
(45939.579000) vcan0 00000001#306DE9 R
(45939.823000) vcan0 00000002#316EEA R
(45940.059000) vcan0 00000001#326FEB R
(45940.301000) vcan0 00000002#3370EC R
(45940.536000) vcan0 00000001#3471ED R
(45940.780000) vcan0 00000002#3572EE R
(45941.016000) vcan0 00000001#3673EF R
(45941.258000) vcan0 00000002#3774F0 R
(45941.493000) vcan0 00000001#3875F1 R
(45941.737000) vcan0 00000002#3976F2 R
(45941.973000) vcan0 00000001#3A77F3 R
(45942.209000) vcan0 00000002#3B78F4 R
(45942.450000) vcan0 00000001#3C79F5 R
(45942.694000) vcan0 00000002#3D7AF6 R
(45942.929000) vcan0 00000001#3E7BF7 R
(45943.165000) vcan0 00000002#3F7CF8 R
(45943.407000) vcan0 00000001#407DF9 R
(45943.650000) vcan0 00000002#417EFA R
(45943.886000) vcan0 00000001#427FFB R
(45944.122000) vcan0 00000002#4380FC R
(45944.360000) vcan0 00000001#4481FD R
(45944.595000) vcan0 00000002#4582FE R
(45944.839000) vcan0 00000001#4683FF R
(45945.075000) vcan0 00000002#478400 R
(45945.317000) vcan0 00000001#488501 R
(45945.553000) vcan0 00000002#498602 R
(45945.796000) vcan0 00000001#4A8703 R
(45946.032000) vcan0 00000002#4B8804 R
(45946.274000) vcan0 00000001#4C8905 R
(45946.510000) vcan0 00000002#4D8A06 R
(45946.754000) vcan0 00000001#4E8B07 R
(45946.989000) vcan0 00000002#4F8C08 R
(45947.228000) vcan0 00000001#508D09 R
(45947.463000) vcan0 00000002#518E0A R
(45947.707000) vcan0 00000001#528F0B R
(45947.943000) vcan0 00000002#53900C R
(45948.178000) vcan0 00000001#54910D R
(45948.420000) vcan0 00000002#00920E R
(45948.664000) vcan0 00000001#01930F R
(45948.900000) vcan0 00000002#029410 R
(45949.136000) vcan0 00000001#039511 R
(45949.374000) vcan0 00000002#049612 R
(45949.610000) vcan0 00000001#059713 R
(45949.853000) vcan0 00000002#069814 R
(45950.089000) vcan0 00000001#079915 R
(45950.327000) vcan0 00000002#089A16 R
(45950.563000) vcan0 00000001#099B17 R
(45950.807000) vcan0 00000002#0A9C18 R
(45951.042000) vcan0 00000001#0B9D19 R
(45951.284000) vcan0 00000002#0C9E1A R
(45951.520000) vcan0 00000001#0D9F1B R
(45951.764000) vcan0 00000002#0EA01C R
(45951.999000) vcan0 00000001#0FA11D R
(45952.241000) vcan0 00000002#10A21E R
(45952.477000) vcan0 00000001#11A31F R
(45952.721000) vcan0 00000002#12A420 R
(45952.957000) vcan0 00000001#13A521 R
(45953.192000) vcan0 00000002#14A622 R
(45953.433000) vcan0 00000001#15A723 R
(45953.677000) vcan0 00000002#16A824 R
(45953.913000) vcan0 00000001#17A925 R
(45954.149000) vcan0 00000002#18AA26 R
(45954.390000) vcan0 00000001#195527 R
(45954.626000) vcan0 00000002#1A5628 R
(45954.870000) vcan0 00000001#1B5729 R
(45955.106000) vcan0 00000002#1C582A R
(45955.344000) vcan0 00000001#1D592B R
(45955.580000) vcan0 00000002#1E5A2C R
(45955.823000) vcan0 00000001#1F5B2D R
(45956.059000) vcan0 00000002#205C2E R
(45956.301000) vcan0 00000001#215D2F R
(45956.536000) vcan0 00000002#225E30 R
(45956.780000) vcan0 00000001#235F31 R
(45957.016000) vcan0 00000002#246032 R
(45957.258000) vcan0 00000001#256133 R
(45957.493000) vcan0 00000002#266234 R
(45957.737000) vcan0 00000001#276335 R
(45957.973000) vcan0 00000002#286436 R
(45958.209000) vcan0 00000001#296537 R
(45958.450000) vcan0 00000002#2A6638 R
(45958.694000) vcan0 00000001#2B6739 R
(45958.929000) vcan0 00000002#2C683A R
(45959.165000) vcan0 00000001#2D693B R
(45959.407000) vcan0 00000002#2E6A3C R
(45959.650000) vcan0 00000001#2F6B3D R
(45959.886000) vcan0 00000002#306C3E R
(45960.122000) vcan0 00000001#316D3F R
(45960.360000) vcan0 00000002#326E40 R
(45960.596000) vcan0 00000001#336F41 R
(45960.840000) vcan0 00000002#347042 R
(45961.076000) vcan0 00000001#357143 R
(45961.317000) vcan0 00000002#367244 R
(45961.553000) vcan0 00000001#377345 R
(45961.797000) vcan0 00000002#387446 R
(45962.033000) vcan0 00000001#397547 R
(45962.273000) vcan0 00000002#3A7648 R
(45962.509000) vcan0 00000001#3B7749 R
(45962.753000) vcan0 00000002#3C784A R
(45962.989000) vcan0 00000001#3D794B R
(45963.227000) vcan0 00000002#3E7A4C R
(45963.463000) vcan0 00000001#3F7B4D R
(45963.707000) vcan0 00000002#407C4E R
(45963.943000) vcan0 00000001#417D4F R
(45964.179000) vcan0 00000002#427E50 R
(45964.421000) vcan0 00000001#437F51 R
(45964.665000) vcan0 00000002#448052 R
(45964.900000) vcan0 00000001#458153 R
(45965.136000) vcan0 00000002#468254 R
(45965.374000) vcan0 00000001#478355 R
(45965.610000) vcan0 00000002#488456 R
(45965.854000) vcan0 00000001#498557 R
(45966.089000) vcan0 00000002#4A8658 R
(45966.327000) vcan0 00000001#4B8759 R
(45966.563000) vcan0 00000002#4C885A R
(45966.807000) vcan0 00000001#4D895B R
(45967.043000) vcan0 00000002#4E8A5C R
(45967.284000) vcan0 00000001#4F8B5D R
(45967.520000) vcan0 00000002#508C5E R
(45967.764000) vcan0 00000001#518D5F R
(45968.000000) vcan0 00000002#528E60 R
(45968.241000) vcan0 00000001#538F61 R
(45968.477000) vcan0 00000002#549062 R
(45968.721000) vcan0 00000001#009163 R
(45968.957000) vcan0 00000002#019264 R
(45969.193000) vcan0 00000001#029365 R
(45969.433000) vcan0 00000002#039466 R
(45969.677000) vcan0 00000001#049567 R
(45969.913000) vcan0 00000002#059668 R
(45970.149000) vcan0 00000001#069769 R
(45970.390000) vcan0 00000002#07986A R
(45970.626000) vcan0 00000001#08996B R
(45970.870000) vcan0 00000002#099A6C R
(45971.106000) vcan0 00000001#0A9B6D R
(45971.344000) vcan0 00000002#0B9C6E R
(45971.580000) vcan0 00000001#0C9D6F R
(45971.823000) vcan0 00000002#0D9E70 R
(45972.059000) vcan0 00000001#0E9F71 R
(45972.301000) vcan0 00000002#0FA072 R
(45972.537000) vcan0 00000001#10A173 R
(45972.780000) vcan0 00000002#11A274 R
(45973.016000) vcan0 00000001#12A375 R
(45973.258000) vcan0 00000002#13A476 R
(45973.494000) vcan0 00000001#14A577 R
(45973.738000) vcan0 00000002#15A678 R
(45973.973000) vcan0 00000001#16A779 R
(45974.210000) vcan0 00000002#17A87A R
(45974.450000) vcan0 00000001#18A97B R
(45974.694000) vcan0 00000002#19AA7C R
(45974.930000) vcan0 00000001#1A557D R
(45975.165000) vcan0 00000002#1B567E R
(45975.407000) vcan0 00000001#1C577F R
(45975.650000) vcan0 00000002#1D5880 R
(45975.886000) vcan0 00000001#1E5981 R
(45976.122000) vcan0 00000002#1F5A82 R
(45976.360000) vcan0 00000001#205B83 R
(45976.596000) vcan0 00000002#215C84 R
(45976.840000) vcan0 00000001#225D85 R
(45977.076000) vcan0 00000002#235E86 R
(45977.317000) vcan0 00000001#245F87 R
(45977.553000) vcan0 00000002#256088 R
(45977.797000) vcan0 00000001#266189 R
(45978.033000) vcan0 00000002#27628A R
(45978.273000) vcan0 00000001#28638B R
(45978.509000) vcan0 00000002#29648C R
(45978.753000) vcan0 00000001#2A658D R
(45978.989000) vcan0 00000002#2B668E R
(45979.227000) vcan0 00000001#2C678F R
(45979.463000) vcan0 00000002#2D6890 R
(45979.707000) vcan0 00000001#2E6991 R
(45979.943000) vcan0 00000002#2F6A92 R
(45980.179000) vcan0 00000001#306B93 R
(45980.421000) vcan0 00000002#316C94 R
(45980.665000) vcan0 00000001#326D95 R
(45980.900000) vcan0 00000002#336E96 R
(45981.136000) vcan0 00000001#346F97 R
(45981.374000) vcan0 00000002#357098 R
(45981.610000) vcan0 00000001#367199 R
(45981.854000) vcan0 00000002#37729A R
(45982.089000) vcan0 00000001#38739B R
(45982.328000) vcan0 00000002#39749C R
(45982.563000) vcan0 00000001#3A759D R
(45982.807000) vcan0 00000002#3B769E R
(45983.043000) vcan0 00000001#3C779F R
(45983.285000) vcan0 00000002#3D78A0 R
(45983.521000) vcan0 00000001#3E79A1 R
(45983.764000) vcan0 00000002#3F7AA2 R
(45984.000000) vcan0 00000001#407BA3 R
(45984.241000) vcan0 00000002#417CA4 R
(45984.477000) vcan0 00000001#427DA5 R
(45984.721000) vcan0 00000002#437EA6 R
(45984.956000) vcan0 00000001#447FA7 R
(45985.192000) vcan0 00000002#4580A8 R
(45985.434000) vcan0 00000001#4681A9 R
(45985.678000) vcan0 00000002#4782AA R
(45985.914000) vcan0 00000001#4883AB R
(45986.149000) vcan0 00000002#4984AC R
(45986.390000) vcan0 00000001#4A85AD R
(45986.626000) vcan0 00000002#4B86AE R
(45986.870000) vcan0 00000001#4C87AF R
(45987.106000) vcan0 00000002#4D88B0 R
(45987.344000) vcan0 00000001#4E89B1 R
(45987.580000) vcan0 00000002#4F8AB2 R
(45987.823000) vcan0 00000001#508BB3 R
(45988.059000) vcan0 00000002#518CB4 R
(45988.301000) vcan0 00000001#528DB5 R
(45988.536000) vcan0 00000002#538EB6 R
(45988.780000) vcan0 00000001#548FB7 R
(45989.016000) vcan0 00000002#0090B8 R
(45989.258000) vcan0 00000001#0191B9 R
(45989.493000) vcan0 00000002#0292BA R
(45989.737000) vcan0 00000001#0393BB R
(45989.973000) vcan0 00000002#0494BC R
(45990.209000) vcan0 00000001#0595BD R
(45990.450000) vcan0 00000002#0696BE R
(45990.694000) vcan0 00000001#0797BF R
(45990.929000) vcan0 00000002#0898C0 R
(45991.165000) vcan0 00000001#0999C1 R
(45991.407000) vcan0 00000002#0A9AC2 R
(45991.650000) vcan0 00000001#0B9BC3 R
(45991.886000) vcan0 00000002#0C9CC4 R
(45992.122000) vcan0 00000001#0D9DC5 R
(45992.360000) vcan0 00000002#0E9EC6 R
(45992.596000) vcan0 00000001#0F9FC7 R
(45992.839000) vcan0 00000002#10A0C8 R
(45993.075000) vcan0 00000001#11A1C9 R
(45993.317000) vcan0 00000002#12A2CA R
(45993.552000) vcan0 00000001#13A3CB R
(45993.796000) vcan0 00000002#14A4CC R
(45994.032000) vcan0 00000001#15A5CD R
(45994.274000) vcan0 00000002#16A6CE R
(45994.509000) vcan0 00000001#17A7CF R
(45994.753000) vcan0 00000002#18A8D0 R
(45994.989000) vcan0 00000001#19A9D1 R
(45995.227000) vcan0 00000002#1AAAD2 R
(45995.463000) vcan0 00000001#1B55D3 R
(45995.707000) vcan0 00000002#1C56D4 R
(45995.943000) vcan0 00000001#1D57D5 R
(45996.179000) vcan0 00000002#1E58D6 R
(45996.421000) vcan0 00000001#1F59D7 R
(45996.665000) vcan0 00000002#205AD8 R
(45996.900000) vcan0 00000001#215BD9 R
(45997.136000) vcan0 00000002#225CDA R
(45997.374000) vcan0 00000001#235DDB R
(45997.610000) vcan0 00000002#245EDC R
(45997.854000) vcan0 00000001#255FDD R
(45998.089000) vcan0 00000002#2660DE R
(45998.327000) vcan0 00000001#2761DF R
(45998.563000) vcan0 00000002#2862E0 R
(45998.807000) vcan0 00000001#2963E1 R
(45999.043000) vcan0 00000002#2A64E2 R
(45999.284000) vcan0 00000001#2B65E3 R
(45999.520000) vcan0 00000002#2C66E4 R
(45999.764000) vcan0 00000001#2D67E5 R
(46000.000000) vcan0 00000002#2E68E6 R
(46000.241000) vcan0 00000001#2F69E7 R
(46000.477000) vcan0 00000002#306AE8 R
(46000.721000) vcan0 00000001#316BE9 R
(46000.957000) vcan0 00000002#326CEA R
(46001.193000) vcan0 00000001#336DEB R
(46001.433000) vcan0 00000002#346EEC R
(46001.677000) vcan0 00000001#356FED R
(46001.913000) vcan0 00000002#3670EE R
(46002.149000) vcan0 00000001#3771EF R
(46002.390000) vcan0 00000002#3872F0 R
(46002.626000) vcan0 00000001#3973F1 R
(46002.870000) vcan0 00000002#3A74F2 R
(46003.105000) vcan0 00000001#3B75F3 R
(46003.343000) vcan0 00000002#3C76F4 R
(46003.579000) vcan0 00000001#3D77F5 R
(46003.823000) vcan0 00000002#3E78F6 R
(46004.059000) vcan0 00000001#3F79F7 R
(46004.301000) vcan0 00000002#407AF8 R
(46004.536000) vcan0 00000001#417BF9 R
(46004.780000) vcan0 00000002#427CFA R
(46005.016000) vcan0 00000001#437DFB R
(46005.258000) vcan0 00000002#447EFC R
(46005.493000) vcan0 00000001#457FFD R
(46005.737000) vcan0 00000002#4680FE R
(46005.973000) vcan0 00000001#4781FF R
(46006.209000) vcan0 00000002#488200 R
(46006.450000) vcan0 00000001#498301 R
(46006.694000) vcan0 00000002#4A8402 R
(46006.929000) vcan0 00000001#4B8503 R
(46007.165000) vcan0 00000002#4C8604 R
(46007.407000) vcan0 00000001#4D8705 R
(46007.650000) vcan0 00000002#4E8806 R
(46007.886000) vcan0 00000001#4F8907 R
(46008.122000) vcan0 00000002#508A08 R
(46008.360000) vcan0 00000001#518B09 R
(46008.595000) vcan0 00000002#528C0A R
(46008.839000) vcan0 00000001#538D0B R
(46009.075000) vcan0 00000002#548E0C R
(46009.317000) vcan0 00000001#008F0D R
(46009.553000) vcan0 00000002#01900E R
(46009.796000) vcan0 00000001#02910F R
(46010.032000) vcan0 00000002#039210 R
(46010.274000) vcan0 00000001#049311 R
(46010.510000) vcan0 00000002#059412 R
(46010.754000) vcan0 00000001#069513 R
(46010.989000) vcan0 00000002#079614 R
(46011.228000) vcan0 00000001#089715 R
(46011.463000) vcan0 00000002#099816 R
(46011.707000) vcan0 00000001#0A9917 R
(46011.943000) vcan0 00000002#0B9A18 R
(46012.179000) vcan0 00000001#0C9B19 R
(46012.420000) vcan0 00000002#0D9C1A R
(46012.664000) vcan0 00000001#0E9D1B R
(46012.900000) vcan0 00000002#0F9E1C R
(46013.136000) vcan0 00000001#109F1D R
(46013.374000) vcan0 00000002#11A01E R
(46013.609000) vcan0 00000001#12A11F R
(46013.853000) vcan0 00000002#13A220 R
(46014.089000) vcan0 00000001#14A321 R
(46014.327000) vcan0 00000002#15A422 R
(46014.563000) vcan0 00000001#16A523 R
(46014.807000) vcan0 00000002#17A624 R
(46015.043000) vcan0 00000001#18A725 R
(46015.284000) vcan0 00000002#19A826 R
(46015.520000) vcan0 00000001#1AA927 R
(46015.764000) vcan0 00000002#1BAA28 R
(46016.000000) vcan0 00000001#1C5529 R
(46016.241000) vcan0 00000002#1D562A R
(46016.477000) vcan0 00000001#1E572B R
(46016.721000) vcan0 00000002#1F582C R
(46016.957000) vcan0 00000001#20592D R
(46017.193000) vcan0 00000002#215A2E R
(46017.433000) vcan0 00000001#225B2F R
(46017.677000) vcan0 00000002#235C30 R
(46017.913000) vcan0 00000001#245D31 R
(46018.149000) vcan0 00000002#255E32 R
(46018.390000) vcan0 00000001#265F33 R
(46018.626000) vcan0 00000002#276034 R
(46018.870000) vcan0 00000001#286135 R
(46019.105000) vcan0 00000002#296236 R
(46019.344000) vcan0 00000001#2A6337 R
(46019.580000) vcan0 00000002#2B6438 R
(46019.824000) vcan0 00000001#2C6539 R
(46020.059000) vcan0 00000002#2D663A R
(46020.301000) vcan0 00000001#2E673B R
(46020.537000) vcan0 00000002#2F683C R
(46020.780000) vcan0 00000001#30693D R
(46021.016000) vcan0 00000002#316A3E R
(46021.257000) vcan0 00000001#326B3F R
(46021.493000) vcan0 00000002#336C40 R
(46021.737000) vcan0 00000001#346D41 R
(46021.973000) vcan0 00000002#356E42 R
(46022.209000) vcan0 00000001#366F43 R
(46022.450000) vcan0 00000002#377044 R
(46022.694000) vcan0 00000001#387145 R
(46022.929000) vcan0 00000002#397246 R
(46023.165000) vcan0 00000001#3A7347 R
(46023.406000) vcan0 00000002#3B7448 R
(46023.650000) vcan0 00000001#3C7549 R
(46023.886000) vcan0 00000002#3D764A R
(46024.122000) vcan0 00000001#3E774B R
(46024.360000) vcan0 00000002#3F784C R
(46024.596000) vcan0 00000001#40794D R
(46024.839000) vcan0 00000002#417A4E R
(46025.075000) vcan0 00000001#427B4F R
(46025.317000) vcan0 00000002#437C50 R
(46025.552000) vcan0 00000001#447D51 R
(46025.796000) vcan0 00000002#457E52 R
(46026.032000) vcan0 00000001#467F53 R
(46026.274000) vcan0 00000002#478054 R
(46026.509000) vcan0 00000001#488155 R
(46026.753000) vcan0 00000002#498256 R
(46026.989000) vcan0 00000001#4A8357 R
(46027.228000) vcan0 00000002#4B8458 R
(46027.463000) vcan0 00000001#4C8559 R
(46027.707000) vcan0 00000002#4D865A R
(46027.943000) vcan0 00000001#4E875B R
(46028.179000) vcan0 00000002#4F885C R
(46028.420000) vcan0 00000001#50895D R
(46028.664000) vcan0 00000002#518A5E R
(46028.900000) vcan0 00000001#528B5F R
(46029.136000) vcan0 00000002#538C60 R
(46029.374000) vcan0 00000001#548D61 R
(46029.610000) vcan0 00000002#008E62 R
(46029.854000) vcan0 00000001#018F63 R
(46030.089000) vcan0 00000002#029064 R
(46030.327000) vcan0 00000001#039165 R
(46030.563000) vcan0 00000002#049266 R
(46030.807000) vcan0 00000001#059367 R
(46031.043000) vcan0 00000002#069468 R
(46031.284000) vcan0 00000001#079569 R
(46031.520000) vcan0 00000002#08966A R
(46031.764000) vcan0 00000001#09976B R
(46032.000000) vcan0 00000002#0A986C R
(46032.241000) vcan0 00000001#0B996D R
(46032.477000) vcan0 00000002#0C9A6E R
(46032.721000) vcan0 00000001#0D9B6F R
(46032.957000) vcan0 00000002#0E9C70 R
(46033.193000) vcan0 00000001#0F9D71 R
(46033.433000) vcan0 00000002#109E72 R
(46033.677000) vcan0 00000001#119F73 R
(46033.913000) vcan0 00000002#12A074 R
(46034.149000) vcan0 00000001#13A175 R
(46034.390000) vcan0 00000002#14A276 R
(46034.626000) vcan0 00000001#15A377 R
(46034.870000) vcan0 00000002#16A478 R
(46035.105000) vcan0 00000001#17A579 R
(46035.343000) vcan0 00000002#18A67A R
(46035.579000) vcan0 00000001#19A77B R
(46035.823000) vcan0 00000002#1AA87C R
(46036.059000) vcan0 00000001#1BA97D R
(46036.301000) vcan0 00000002#1CAA7E R
(46036.536000) vcan0 00000001#1D557F R
(46036.780000) vcan0 00000002#1E5680 R
(46037.016000) vcan0 00000001#1F5781 R
(46037.258000) vcan0 00000002#205882 R
(46037.493000) vcan0 00000001#215983 R
(46037.737000) vcan0 00000002#225A84 R
(46037.973000) vcan0 00000001#235B85 R
(46038.209000) vcan0 00000002#245C86 R
(46038.450000) vcan0 00000001#255D87 R
(46038.694000) vcan0 00000002#265E88 R
(46038.929000) vcan0 00000001#275F89 R
(46039.165000) vcan0 00000002#28608A R
(46039.407000) vcan0 00000001#29618B R
(46039.650000) vcan0 00000002#2A628C R
(46039.886000) vcan0 00000001#2B638D R
(46040.122000) vcan0 00000002#2C648E R
(46040.360000) vcan0 00000001#2D658F R
(46040.596000) vcan0 00000002#2E6690 R
(46040.840000) vcan0 00000001#2F6791 R
(46041.076000) vcan0 00000002#306892 R
(46041.317000) vcan0 00000001#316993 R
(46041.553000) vcan0 00000002#326A94 R
(46041.797000) vcan0 00000001#336B95 R
(46042.033000) vcan0 00000002#346C96 R
(46042.273000) vcan0 00000001#356D97 R
(46042.509000) vcan0 00000002#366E98 R
(46042.753000) vcan0 00000001#376F99 R
(46042.989000) vcan0 00000002#38709A R
(46043.227000) vcan0 00000001#39719B R
(46043.463000) vcan0 00000002#3A729C R
(46043.707000) vcan0 00000001#3B739D R
(46043.943000) vcan0 00000002#3C749E R
(46044.179000) vcan0 00000001#3D759F R
(46044.421000) vcan0 00000002#3E76A0 R
(46044.665000) vcan0 00000001#3F77A1 R
(46044.900000) vcan0 00000002#4078A2 R
(46045.136000) vcan0 00000001#4179A3 R
(46045.374000) vcan0 00000002#427AA4 R
(46045.610000) vcan0 00000001#437BA5 R
(46045.854000) vcan0 00000002#447CA6 R
(46046.089000) vcan0 00000001#457DA7 R
(46046.328000) vcan0 00000002#467EA8 R
(46046.563000) vcan0 00000001#477FA9 R
(46046.807000) vcan0 00000002#4880AA R
(46047.043000) vcan0 00000001#4981AB R
(46047.285000) vcan0 00000002#4A82AC R
(46047.521000) vcan0 00000001#4B83AD R
(46047.764000) vcan0 00000002#4C84AE R
(46048.000000) vcan0 00000001#4D85AF R
(46048.241000) vcan0 00000002#4E86B0 R
(46048.477000) vcan0 00000001#4F87B1 R
(46048.721000) vcan0 00000002#5088B2 R
(46048.956000) vcan0 00000001#5189B3 R
(46049.192000) vcan0 00000002#528AB4 R
(46049.434000) vcan0 00000001#538BB5 R
(46049.678000) vcan0 00000002#548CB6 R
(46049.914000) vcan0 00000001#008DB7 R
(46050.149000) vcan0 00000002#018EB8 R
(46050.390000) vcan0 00000001#028FB9 R
(46050.626000) vcan0 00000002#0390BA R
(46050.870000) vcan0 00000001#0491BB R
(46051.106000) vcan0 00000002#0592BC R
(46051.344000) vcan0 00000001#0693BD R
(46051.580000) vcan0 00000002#0794BE R
(46051.823000) vcan0 00000001#0895BF R
(46052.059000) vcan0 00000002#0996C0 R
(46052.300000) vcan0 00000001#0A97C1 R
(46052.536000) vcan0 00000002#0B98C2 R
(46052.780000) vcan0 00000001#0C99C3 R
(46053.016000) vcan0 00000002#0D9AC4 R
(46053.257000) vcan0 00000001#0E9BC5 R
(46053.493000) vcan0 00000002#0F9CC6 R
(46053.737000) vcan0 00000001#109DC7 R
(46053.973000) vcan0 00000002#119EC8 R
(46054.209000) vcan0 00000001#129FC9 R
(46054.450000) vcan0 00000002#13A0CA R
(46054.694000) vcan0 00000001#14A1CB R
(46054.930000) vcan0 00000002#15A2CC R
(46055.165000) vcan0 00000001#16A3CD R
(46055.407000) vcan0 00000002#17A4CE R
(46055.650000) vcan0 00000001#18A5CF R
(46055.886000) vcan0 00000002#19A6D0 R
(46056.122000) vcan0 00000001#1AA7D1 R
(46056.360000) vcan0 00000002#1BA8D2 R
(46056.596000) vcan0 00000001#1CA9D3 R
(46056.839000) vcan0 00000002#1DAAD4 R
(46057.075000) vcan0 00000001#1E55D5 R
(46057.317000) vcan0 00000002#1F56D6 R
(46057.552000) vcan0 00000001#2057D7 R
(46057.796000) vcan0 00000002#2158D8 R
(46058.032000) vcan0 00000001#2259D9 R
(46058.274000) vcan0 00000002#235ADA R
(46058.509000) vcan0 00000001#245BDB R
(46058.753000) vcan0 00000002#255CDC R
(46058.989000) vcan0 00000001#265DDD R
(46059.228000) vcan0 00000002#275EDE R
(46059.463000) vcan0 00000001#285FDF R
(46059.707000) vcan0 00000002#2960E0 R
(46059.943000) vcan0 00000001#2A61E1 R
(46060.179000) vcan0 00000002#2B62E2 R
(46060.420000) vcan0 00000001#2C63E3 R
(46060.664000) vcan0 00000002#2D64E4 R
(46060.900000) vcan0 00000001#2E65E5 R
(46061.136000) vcan0 00000002#2F66E6 R
(46061.374000) vcan0 00000001#3067E7 R
(46061.610000) vcan0 00000002#3168E8 R
(46061.854000) vcan0 00000001#3269E9 R
(46062.089000) vcan0 00000002#336AEA R
(46062.327000) vcan0 00000001#346BEB R
(46062.563000) vcan0 00000002#356CEC R
(46062.807000) vcan0 00000001#366DED R
(46063.043000) vcan0 00000002#376EEE R
(46063.284000) vcan0 00000001#386FEF R
(46063.520000) vcan0 00000002#3970F0 R
(46063.764000) vcan0 00000001#3A71F1 R
(46064.000000) vcan0 00000002#3B72F2 R
(46064.241000) vcan0 00000001#3C73F3 R
(46064.477000) vcan0 00000002#3D74F4 R
(46064.721000) vcan0 00000001#3E75F5 R
(46064.957000) vcan0 00000002#3F76F6 R
(46065.193000) vcan0 00000001#4077F7 R
(46065.433000) vcan0 00000002#4178F8 R
(46065.677000) vcan0 00000001#4279F9 R
(46065.913000) vcan0 00000002#437AFA R
(46066.149000) vcan0 00000001#447BFB R
(46066.390000) vcan0 00000002#457CFC R
(46066.626000) vcan0 00000001#467DFD R
(46066.870000) vcan0 00000002#477EFE R
(46067.105000) vcan0 00000001#487FFF R
(46067.343000) vcan0 00000002#498000 R
(46067.579000) vcan0 00000001#4A8101 R
(46067.823000) vcan0 00000002#4B8202 R
(46068.059000) vcan0 00000001#4C8303 R
(46068.301000) vcan0 00000002#4D8404 R
(46068.536000) vcan0 00000001#4E8505 R
(46068.780000) vcan0 00000002#4F8606 R
(46069.016000) vcan0 00000001#508707 R
(46069.258000) vcan0 00000002#518808 R
(46069.493000) vcan0 00000001#528909 R
(46069.737000) vcan0 00000002#538A0A R
(46069.973000) vcan0 00000001#548B0B R
(46070.209000) vcan0 00000002#008C0C R
(46070.450000) vcan0 00000001#018D0D R
(46070.694000) vcan0 00000002#028E0E R
(46070.929000) vcan0 00000001#038F0F R
(46071.165000) vcan0 00000002#049010 R
(46071.407000) vcan0 00000001#059111 R
(46071.650000) vcan0 00000002#069212 R
(46071.886000) vcan0 00000001#079313 R
(46072.122000) vcan0 00000002#089414 R
(46072.360000) vcan0 00000001#099515 R
(46072.595000) vcan0 00000002#0A9616 R
(46072.839000) vcan0 00000001#0B9717 R
(46073.075000) vcan0 00000002#0C9818 R
(46073.317000) vcan0 00000001#0D9919 R
(46073.553000) vcan0 00000002#0E9A1A R
(46073.796000) vcan0 00000001#0F9B1B R
(46074.032000) vcan0 00000002#109C1C R
(46074.274000) vcan0 00000001#119D1D R
(46074.510000) vcan0 00000002#129E1E R
(46074.754000) vcan0 00000001#139F1F R
(46074.989000) vcan0 00000002#14A020 R
(46075.228000) vcan0 00000001#15A121 R
(46075.463000) vcan0 00000002#16A222 R
(46075.707000) vcan0 00000001#17A323 R
(46075.943000) vcan0 00000002#18A424 R
(46076.178000) vcan0 00000001#19A525 R
(46076.420000) vcan0 00000002#1AA626 R
(46076.664000) vcan0 00000001#1BA727 R
(46076.900000) vcan0 00000002#1CA828 R
(46077.136000) vcan0 00000001#1DA929 R
(46077.374000) vcan0 00000002#1EAA2A R
(46077.610000) vcan0 00000001#1F552B R
(46077.853000) vcan0 00000002#20562C R
(46078.089000) vcan0 00000001#21572D R
(46078.327000) vcan0 00000002#22582E R
(46078.563000) vcan0 00000001#23592F R
(46078.807000) vcan0 00000002#245A30 R
(46079.042000) vcan0 00000001#255B31 R
(46079.284000) vcan0 00000002#265C32 R
(46079.520000) vcan0 00000001#275D33 R
(46079.764000) vcan0 00000002#285E34 R
(46079.999000) vcan0 00000001#295F35 R
(46080.241000) vcan0 00000002#2A6036 R
(46080.477000) vcan0 00000001#2B6137 R
(46080.721000) vcan0 00000002#2C6238 R
(46080.957000) vcan0 00000001#2D6339 R
(46081.192000) vcan0 00000002#2E643A R
(46081.433000) vcan0 00000001#2F653B R
(46081.677000) vcan0 00000002#30663C R
(46081.913000) vcan0 00000001#31673D R
(46082.149000) vcan0 00000002#32683E R
(46082.390000) vcan0 00000001#33693F R
(46082.626000) vcan0 00000002#346A40 R
(46082.870000) vcan0 00000001#356B41 R
(46083.106000) vcan0 00000002#366C42 R
(46083.344000) vcan0 00000001#376D43 R
(46083.580000) vcan0 00000002#386E44 R
(46083.823000) vcan0 00000001#396F45 R
(46084.059000) vcan0 00000002#3A7046 R
(46084.301000) vcan0 00000001#3B7147 R
(46084.537000) vcan0 00000002#3C7248 R
(46084.780000) vcan0 00000001#3D7349 R
(46085.016000) vcan0 00000002#3E744A R
(46085.258000) vcan0 00000001#3F754B R
(46085.494000) vcan0 00000002#40764C R
(46085.738000) vcan0 00000001#41774D R
(46085.973000) vcan0 00000002#42784E R
(46086.210000) vcan0 00000001#43794F R
(46086.450000) vcan0 00000002#447A50 R
(46086.694000) vcan0 00000001#457B51 R
(46086.930000) vcan0 00000002#467C52 R
(46087.165000) vcan0 00000001#477D53 R
(46087.406000) vcan0 00000002#487E54 R
(46087.650000) vcan0 00000001#497F55 R
(46087.886000) vcan0 00000002#4A8056 R
(46088.122000) vcan0 00000001#4B8157 R
(46088.360000) vcan0 00000002#4C8258 R
(46088.596000) vcan0 00000001#4D8359 R
(46088.839000) vcan0 00000002#4E845A R
(46089.075000) vcan0 00000001#4F855B R
(46089.317000) vcan0 00000002#50865C R
(46089.553000) vcan0 00000001#51875D R
(46089.796000) vcan0 00000002#52885E R
(46090.032000) vcan0 00000001#53895F R
(46090.274000) vcan0 00000002#548A60 R
(46090.510000) vcan0 00000001#008B61 R
(46090.754000) vcan0 00000002#018C62 R
(46090.990000) vcan0 00000001#028D63 R
(46091.227000) vcan0 00000002#038E64 R
(46091.463000) vcan0 00000001#048F65 R
(46091.707000) vcan0 00000002#059066 R
(46091.943000) vcan0 00000001#069167 R
(46092.179000) vcan0 00000002#079268 R
(46092.421000) vcan0 00000001#089369 R
(46092.665000) vcan0 00000002#09946A R
(46092.900000) vcan0 00000001#0A956B R
(46093.136000) vcan0 00000002#0B966C R
(46093.374000) vcan0 00000001#0C976D R
(46093.610000) vcan0 00000002#0D986E R
(46093.854000) vcan0 00000001#0E996F R
(46094.089000) vcan0 00000002#0F9A70 R
(46094.328000) vcan0 00000001#109B71 R
(46094.563000) vcan0 00000002#119C72 R
(46094.807000) vcan0 00000001#129D73 R
(46095.043000) vcan0 00000002#139E74 R
(46095.285000) vcan0 00000001#149F75 R
(46095.521000) vcan0 00000002#15A076 R
(46095.764000) vcan0 00000001#16A177 R
(46096.000000) vcan0 00000002#17A278 R
(46096.241000) vcan0 00000001#18A379 R
(46096.477000) vcan0 00000002#19A47A R
(46096.721000) vcan0 00000001#1AA57B R
(46096.956000) vcan0 00000002#1BA67C R
(46097.192000) vcan0 00000001#1CA77D R
(46097.434000) vcan0 00000002#1DA87E R
(46097.678000) vcan0 00000001#1EA97F R
(46097.914000) vcan0 00000002#1FAA80 R
(46098.149000) vcan0 00000001#205581 R
(46098.390000) vcan0 00000002#215682 R
(46098.626000) vcan0 00000001#225783 R
(46098.870000) vcan0 00000002#235884 R
(46099.106000) vcan0 00000001#245985 R
(46099.344000) vcan0 00000002#255A86 R
(46099.580000) vcan0 00000001#265B87 R
(46099.823000) vcan0 00000002#275C88 R
(46100.059000) vcan0 00000001#285D89 R
(46100.301000) vcan0 00000002#295E8A R
(46100.536000) vcan0 00000001#2A5F8B R
(46100.780000) vcan0 00000002#2B608C R
(46101.016000) vcan0 00000001#2C618D R
(46101.258000) vcan0 00000002#2D628E R
(46101.493000) vcan0 00000001#2E638F R
(46101.737000) vcan0 00000002#2F6490 R
(46101.973000) vcan0 00000001#306591 R
(46102.209000) vcan0 00000002#316692 R
(46102.450000) vcan0 00000001#326793 R
(46102.694000) vcan0 00000002#336894 R
(46102.929000) vcan0 00000001#346995 R
(46103.165000) vcan0 00000002#356A96 R
(46103.407000) vcan0 00000001#366B97 R
(46103.650000) vcan0 00000002#376C98 R
(46103.886000) vcan0 00000001#386D99 R
(46104.122000) vcan0 00000002#396E9A R
(46104.360000) vcan0 00000001#3A6F9B R
(46104.596000) vcan0 00000002#3B709C R
(46104.840000) vcan0 00000001#3C719D R
(46105.076000) vcan0 00000002#3D729E R
(46105.317000) vcan0 00000001#3E739F R
(46105.553000) vcan0 00000002#3F74A0 R
(46105.797000) vcan0 00000001#4075A1 R
(46106.033000) vcan0 00000002#4176A2 R
(46106.273000) vcan0 00000001#4277A3 R
(46106.509000) vcan0 00000002#4378A4 R
(46106.753000) vcan0 00000001#4479A5 R
(46106.989000) vcan0 00000002#457AA6 R
(46107.227000) vcan0 00000001#467BA7 R
(46107.463000) vcan0 00000002#477CA8 R
(46107.707000) vcan0 00000001#487DA9 R
(46107.943000) vcan0 00000002#497EAA R
(46108.179000) vcan0 00000001#4A7FAB R
(46108.421000) vcan0 00000002#4B80AC R
(46108.665000) vcan0 00000001#4C81AD R
(46108.900000) vcan0 00000002#4D82AE R
(46109.136000) vcan0 00000001#4E83AF R
(46109.374000) vcan0 00000002#4F84B0 R
(46109.610000) vcan0 00000001#5085B1 R
(46109.854000) vcan0 00000002#5186B2 R
(46110.089000) vcan0 00000001#5287B3 R
(46110.328000) vcan0 00000002#5388B4 R
(46110.563000) vcan0 00000001#5489B5 R
(46110.807000) vcan0 00000002#008AB6 R
(46111.043000) vcan0 00000001#018BB7 R
(46111.285000) vcan0 00000002#028CB8 R
(46111.521000) vcan0 00000001#038DB9 R
(46111.764000) vcan0 00000002#048EBA R
(46112.000000) vcan0 00000001#058FBB R
(46112.242000) vcan0 00000002#0690BC R
(46112.477000) vcan0 00000001#0791BD R
(46112.721000) vcan0 00000002#0892BE R
(46112.957000) vcan0 00000001#0993BF R
(46113.193000) vcan0 00000002#0A94C0 R
(46113.433000) vcan0 00000001#0B95C1 R
(46113.677000) vcan0 00000002#0C96C2 R
(46113.913000) vcan0 00000001#0D97C3 R
(46114.149000) vcan0 00000002#0E98C4 R
(46114.390000) vcan0 00000001#0F99C5 R
(46114.626000) vcan0 00000002#109AC6 R
(46114.870000) vcan0 00000001#119BC7 R
(46115.106000) vcan0 00000002#129CC8 R
(46115.344000) vcan0 00000001#139DC9 R
(46115.580000) vcan0 00000002#149ECA R
(46115.823000) vcan0 00000001#159FCB R
(46116.059000) vcan0 00000002#16A0CC R
(46116.301000) vcan0 00000001#17A1CD R
(46116.536000) vcan0 00000002#18A2CE R
(46116.780000) vcan0 00000001#19A3CF R
(46117.016000) vcan0 00000002#1AA4D0 R
(46117.258000) vcan0 00000001#1BA5D1 R
(46117.493000) vcan0 00000002#1CA6D2 R
(46117.737000) vcan0 00000001#1DA7D3 R
(46117.973000) vcan0 00000002#1EA8D4 R
(46118.209000) vcan0 00000001#1FA9D5 R
(46118.450000) vcan0 00000002#20AAD6 R
(46118.694000) vcan0 00000001#2155D7 R
(46118.929000) vcan0 00000002#2256D8 R
(46119.165000) vcan0 00000001#2357D9 R
(46119.407000) vcan0 00000002#2458DA R
(46119.650000) vcan0 00000001#2559DB R
(46119.886000) vcan0 00000002#265ADC R
(46120.122000) vcan0 00000001#275BDD R
(46120.360000) vcan0 00000002#285CDE R
(46120.596000) vcan0 00000001#295DDF R
(46120.840000) vcan0 00000002#2A5EE0 R
(46121.076000) vcan0 00000001#2B5FE1 R
(46121.317000) vcan0 00000002#2C60E2 R
(46121.553000) vcan0 00000001#2D61E3 R
(46121.797000) vcan0 00000002#2E62E4 R
(46122.033000) vcan0 00000001#2F63E5 R
(46122.273000) vcan0 00000002#3064E6 R
(46122.509000) vcan0 00000001#3165E7 R
(46122.753000) vcan0 00000002#3266E8 R
(46122.989000) vcan0 00000001#3367E9 R
(46123.227000) vcan0 00000002#3468EA R
(46123.463000) vcan0 00000001#3569EB R
(46123.707000) vcan0 00000002#366AEC R
(46123.943000) vcan0 00000001#376BED R
(46124.179000) vcan0 00000002#386CEE R
(46124.421000) vcan0 00000001#396DEF R
(46124.665000) vcan0 00000002#3A6EF0 R
(46124.900000) vcan0 00000001#3B6FF1 R
(46125.136000) vcan0 00000002#3C70F2 R
(46125.374000) vcan0 00000001#3D71F3 R
(46125.610000) vcan0 00000002#3E72F4 R
(46125.854000) vcan0 00000001#3F73F5 R
(46126.089000) vcan0 00000002#4074F6 R
(46126.327000) vcan0 00000001#4175F7 R
(46126.563000) vcan0 00000002#4276F8 R
(46126.807000) vcan0 00000001#4377F9 R
(46127.043000) vcan0 00000002#4478FA R
(46127.284000) vcan0 00000001#4579FB R
(46127.520000) vcan0 00000002#467AFC R
(46127.764000) vcan0 00000001#477BFD R
(46128.000000) vcan0 00000002#487CFE R
(46128.241000) vcan0 00000001#497DFF R
(46128.477000) vcan0 00000002#4A7E00 R
(46128.721000) vcan0 00000001#4B7F01 R
(46128.957000) vcan0 00000002#4C8002 R
(46129.193000) vcan0 00000001#4D8103 R
(46129.433000) vcan0 00000002#4E8204 R
(46129.677000) vcan0 00000001#4F8305 R
(46129.913000) vcan0 00000002#508406 R
(46130.149000) vcan0 00000001#518507 R
(46130.390000) vcan0 00000002#528608 R
(46130.626000) vcan0 00000001#538709 R
(46130.870000) vcan0 00000002#54880A R
(46131.105000) vcan0 00000001#00890B R
(46131.343000) vcan0 00000002#018A0C R
(46131.579000) vcan0 00000001#028B0D R
(46131.823000) vcan0 00000002#038C0E R
(46132.059000) vcan0 00000001#048D0F R
(46132.301000) vcan0 00000002#058E10 R
(46132.536000) vcan0 00000001#068F11 R
(46132.780000) vcan0 00000002#079012 R
(46133.016000) vcan0 00000001#089113 R
(46133.258000) vcan0 00000002#099214 R
(46133.493000) vcan0 00000001#0A9315 R
(46133.737000) vcan0 00000002#0B9416 R
(46133.973000) vcan0 00000001#0C9517 R
(46134.209000) vcan0 00000002#0D9618 R
(46134.450000) vcan0 00000001#0E9719 R
(46134.694000) vcan0 00000002#0F981A R
(46134.929000) vcan0 00000001#10991B R
(46135.165000) vcan0 00000002#119A1C R
(46135.407000) vcan0 00000001#129B1D R
(46135.650000) vcan0 00000002#139C1E R
(46135.886000) vcan0 00000001#149D1F R
(46136.122000) vcan0 00000002#159E20 R
(46136.360000) vcan0 00000001#169F21 R
(46136.596000) vcan0 00000002#17A022 R
(46136.840000) vcan0 00000001#18A123 R
(46137.076000) vcan0 00000002#19A224 R
(46137.317000) vcan0 00000001#1AA325 R
(46137.553000) vcan0 00000002#1BA426 R
(46137.797000) vcan0 00000001#1CA527 R
(46138.033000) vcan0 00000002#1DA628 R
(46138.273000) vcan0 00000001#1EA729 R
(46138.509000) vcan0 00000002#1FA82A R
(46138.753000) vcan0 00000001#20A92B R
(46138.989000) vcan0 00000002#21AA2C R
(46139.227000) vcan0 00000001#22552D R
(46139.463000) vcan0 00000002#23562E R
(46139.707000) vcan0 00000001#24572F R
(46139.943000) vcan0 00000002#255830 R
(46140.179000) vcan0 00000001#265931 R
(46140.421000) vcan0 00000002#275A32 R
(46140.665000) vcan0 00000001#285B33 R
(46140.900000) vcan0 00000002#295C34 R
(46141.136000) vcan0 00000001#2A5D35 R
(46141.374000) vcan0 00000002#2B5E36 R
(46141.610000) vcan0 00000001#2C5F37 R
(46141.854000) vcan0 00000002#2D6038 R
(46142.089000) vcan0 00000001#2E6139 R
(46142.327000) vcan0 00000002#2F623A R
(46142.563000) vcan0 00000001#30633B R
(46142.807000) vcan0 00000002#31643C R
(46143.042000) vcan0 00000001#32653D R
(46143.284000) vcan0 00000002#33663E R
(46143.520000) vcan0 00000001#34673F R
(46143.764000) vcan0 00000002#356840 R
(46143.999000) vcan0 00000001#366941 R
(46144.241000) vcan0 00000002#376A42 R
(46144.477000) vcan0 00000001#386B43 R
(46144.721000) vcan0 00000002#396C44 R
(46144.957000) vcan0 00000001#3A6D45 R
(46145.192000) vcan0 00000002#3B6E46 R
(46145.433000) vcan0 00000001#3C6F47 R
(46145.677000) vcan0 00000002#3D7048 R
(46145.913000) vcan0 00000001#3E7149 R
(46146.149000) vcan0 00000002#3F724A R
(46146.390000) vcan0 00000001#40734B R
(46146.626000) vcan0 00000002#41744C R
(46146.870000) vcan0 00000001#42754D R
(46147.106000) vcan0 00000002#43764E R
(46147.344000) vcan0 00000001#44774F R
(46147.580000) vcan0 00000002#457850 R
(46147.823000) vcan0 00000001#467951 R
(46148.059000) vcan0 00000002#477A52 R
(46148.301000) vcan0 00000001#487B53 R
(46148.537000) vcan0 00000002#497C54 R
(46148.780000) vcan0 00000001#4A7D55 R
(46149.016000) vcan0 00000002#4B7E56 R
(46149.258000) vcan0 00000001#4C7F57 R
(46149.494000) vcan0 00000002#4D8058 R
(46149.738000) vcan0 00000001#4E8159 R
(46149.973000) vcan0 00000002#4F825A R
(46150.210000) vcan0 00000001#50835B R
(46150.450000) vcan0 00000002#51845C R
(46150.694000) vcan0 00000001#52855D R
(46150.930000) vcan0 00000002#53865E R
(46151.165000) vcan0 00000001#54875F R
(46151.406000) vcan0 00000002#008860 R
(46151.650000) vcan0 00000001#018961 R
(46151.886000) vcan0 00000002#028A62 R
(46152.122000) vcan0 00000001#038B63 R
(46152.360000) vcan0 00000002#048C64 R
(46152.596000) vcan0 00000001#058D65 R
(46152.839000) vcan0 00000002#068E66 R
(46153.075000) vcan0 00000001#078F67 R
(46153.317000) vcan0 00000002#089068 R
(46153.552000) vcan0 00000001#099169 R
(46153.796000) vcan0 00000002#0A926A R
(46154.032000) vcan0 00000001#0B936B R
(46154.274000) vcan0 00000002#0C946C R
(46154.509000) vcan0 00000001#0D956D R
(46154.753000) vcan0 00000002#0E966E R
(46154.989000) vcan0 00000001#0F976F R
(46155.227000) vcan0 00000002#109870 R
(46155.463000) vcan0 00000001#119971 R
(46155.707000) vcan0 00000002#129A72 R
(46155.943000) vcan0 00000001#139B73 R
(46156.179000) vcan0 00000002#149C74 R
(46156.421000) vcan0 00000001#159D75 R
(46156.665000) vcan0 00000002#169E76 R
(46156.900000) vcan0 00000001#179F77 R
(46157.136000) vcan0 00000002#18A078 R
(46157.374000) vcan0 00000001#19A179 R
(46157.610000) vcan0 00000002#1AA27A R
(46157.854000) vcan0 00000001#1BA37B R
(46158.089000) vcan0 00000002#1CA47C R
(46158.328000) vcan0 00000001#1DA57D R
(46158.563000) vcan0 00000002#1EA67E R
(46158.807000) vcan0 00000001#1FA77F R
(46159.043000) vcan0 00000002#20A880 R
(46159.285000) vcan0 00000001#21A981 R
(46159.521000) vcan0 00000002#22AA82 R
(46159.764000) vcan0 00000001#235583 R
(46160.000000) vcan0 00000002#245684 R
(46160.242000) vcan0 00000001#255785 R
(46160.478000) vcan0 00000002#265886 R
(46160.722000) vcan0 00000001#275987 R
(46160.957000) vcan0 00000002#285A88 R
(46161.193000) vcan0 00000001#295B89 R
(46161.433000) vcan0 00000002#2A5C8A R
(46161.677000) vcan0 00000001#2B5D8B R
(46161.913000) vcan0 00000002#2C5E8C R
(46162.149000) vcan0 00000001#2D5F8D R
(46162.390000) vcan0 00000002#2E608E R
(46162.626000) vcan0 00000001#2F618F R
(46162.870000) vcan0 00000002#306290 R
(46163.106000) vcan0 00000001#316391 R
(46163.344000) vcan0 00000002#326492 R
(46163.580000) vcan0 00000001#336593 R
(46163.823000) vcan0 00000002#346694 R
(46164.059000) vcan0 00000001#356795 R
(46164.301000) vcan0 00000002#366896 R
(46164.536000) vcan0 00000001#376997 R
(46164.780000) vcan0 00000002#386A98 R
(46165.016000) vcan0 00000001#396B99 R
(46165.258000) vcan0 00000002#3A6C9A R
(46165.493000) vcan0 00000001#3B6D9B R
(46165.737000) vcan0 00000002#3C6E9C R
(46165.973000) vcan0 00000001#3D6F9D R
(46166.209000) vcan0 00000002#3E709E R
(46166.450000) vcan0 00000001#3F719F R
(46166.694000) vcan0 00000002#4072A0 R
(46166.929000) vcan0 00000001#4173A1 R
(46167.165000) vcan0 00000002#4274A2 R
(46167.407000) vcan0 00000001#4375A3 R
(46167.650000) vcan0 00000002#4476A4 R
(46167.886000) vcan0 00000001#4577A5 R
(46168.122000) vcan0 00000002#4678A6 R
(46168.360000) vcan0 00000001#4779A7 R
(46168.596000) vcan0 00000002#487AA8 R
(46168.840000) vcan0 00000001#497BA9 R
(46169.076000) vcan0 00000002#4A7CAA R
(46169.317000) vcan0 00000001#4B7DAB R
(46169.553000) vcan0 00000002#4C7EAC R
(46169.797000) vcan0 00000001#4D7FAD R
(46170.033000) vcan0 00000002#4E80AE R
(46170.273000) vcan0 00000001#4F81AF R
(46170.509000) vcan0 00000002#5082B0 R
(46170.753000) vcan0 00000001#5183B1 R
(46170.989000) vcan0 00000002#5284B2 R
(46171.227000) vcan0 00000001#5385B3 R
(46171.463000) vcan0 00000002#5486B4 R
(46171.707000) vcan0 00000001#0087B5 R
(46171.943000) vcan0 00000002#0188B6 R
(46172.179000) vcan0 00000001#0289B7 R
(46172.421000) vcan0 00000002#038AB8 R
(46172.665000) vcan0 00000001#048BB9 R
(46172.900000) vcan0 00000002#058CBA R
(46173.136000) vcan0 00000001#068DBB R
(46173.374000) vcan0 00000002#078EBC R
(46173.610000) vcan0 00000001#088FBD R
(46173.854000) vcan0 00000002#0990BE R
(46174.089000) vcan0 00000001#0A91BF R
(46174.327000) vcan0 00000002#0B92C0 R
(46174.563000) vcan0 00000001#0C93C1 R
(46174.807000) vcan0 00000002#0D94C2 R
(46175.042000) vcan0 00000001#0E95C3 R
(46175.284000) vcan0 00000002#0F96C4 R
(46175.520000) vcan0 00000001#1097C5 R
(46175.764000) vcan0 00000002#1198C6 R
(46175.999000) vcan0 00000001#1299C7 R
(46176.241000) vcan0 00000002#139AC8 R
(46176.477000) vcan0 00000001#149BC9 R
(46176.721000) vcan0 00000002#159CCA R
(46176.957000) vcan0 00000001#169DCB R
(46177.192000) vcan0 00000002#179ECC R
(46177.433000) vcan0 00000001#189FCD R
(46177.677000) vcan0 00000002#19A0CE R
(46177.913000) vcan0 00000001#1AA1CF R
(46178.149000) vcan0 00000002#1BA2D0 R
(46178.390000) vcan0 00000001#1CA3D1 R
(46178.626000) vcan0 00000002#1DA4D2 R
(46178.870000) vcan0 00000001#1EA5D3 R
(46179.106000) vcan0 00000002#1FA6D4 R
(46179.344000) vcan0 00000001#20A7D5 R
(46179.580000) vcan0 00000002#21A8D6 R
(46179.823000) vcan0 00000001#22A9D7 R
(46180.059000) vcan0 00000002#23AAD8 R
(46180.301000) vcan0 00000001#2455D9 R
(46180.537000) vcan0 00000002#2556DA R
(46180.780000) vcan0 00000001#2657DB R
(46181.016000) vcan0 00000002#2758DC R
(46181.258000) vcan0 00000001#2859DD R
(46181.494000) vcan0 00000002#295ADE R
(46181.738000) vcan0 00000001#2A5BDF R
(46181.973000) vcan0 00000002#2B5CE0 R
(46182.210000) vcan0 00000001#2C5DE1 R
(46182.450000) vcan0 00000002#2D5EE2 R
(46182.694000) vcan0 00000001#2E5FE3 R
(46182.930000) vcan0 00000002#2F60E4 R
(46183.165000) vcan0 00000001#3061E5 R
(46183.407000) vcan0 00000002#3162E6 R
(46183.650000) vcan0 00000001#3263E7 R
(46183.886000) vcan0 00000002#3364E8 R
(46184.122000) vcan0 00000001#3465E9 R
(46184.360000) vcan0 00000002#3566EA R
(46184.596000) vcan0 00000001#3667EB R
(46184.840000) vcan0 00000002#3768EC R
(46185.076000) vcan0 00000001#3869ED R
(46185.317000) vcan0 00000002#396AEE R
(46185.553000) vcan0 00000001#3A6BEF R
(46185.797000) vcan0 00000002#3B6CF0 R
(46186.033000) vcan0 00000001#3C6DF1 R
(46186.273000) vcan0 00000002#3D6EF2 R
(46186.509000) vcan0 00000001#3E6FF3 R
(46186.753000) vcan0 00000002#3F70F4 R
(46186.989000) vcan0 00000001#4071F5 R
(46187.227000) vcan0 00000002#4172F6 R
(46187.463000) vcan0 00000001#4273F7 R
(46187.707000) vcan0 00000002#4374F8 R
(46187.943000) vcan0 00000001#4475F9 R
(46188.179000) vcan0 00000002#4576FA R
(46188.421000) vcan0 00000001#4677FB R
(46188.665000) vcan0 00000002#4778FC R
(46188.900000) vcan0 00000001#4879FD R
(46189.136000) vcan0 00000002#497AFE R
(46189.374000) vcan0 00000001#4A7BFF R
(46189.610000) vcan0 00000002#4B7C00 R
(46189.854000) vcan0 00000001#4C7D01 R
(46190.089000) vcan0 00000002#4D7E02 R
(46190.327000) vcan0 00000001#4E7F03 R
(46190.563000) vcan0 00000002#4F8004 R
(46190.807000) vcan0 00000001#508105 R
(46191.043000) vcan0 00000002#518206 R
(46191.284000) vcan0 00000001#528307 R
(46191.520000) vcan0 00000002#538408 R
(46191.764000) vcan0 00000001#548509 R
(46192.000000) vcan0 00000002#00860A R
(46192.241000) vcan0 00000001#01870B R
(46192.477000) vcan0 00000002#02880C R
(46192.721000) vcan0 00000001#03890D R
(46192.957000) vcan0 00000002#048A0E R
(46193.193000) vcan0 00000001#058B0F R
(46193.433000) vcan0 00000002#068C10 R
(46193.677000) vcan0 00000001#078D11 R
(46193.913000) vcan0 00000002#088E12 R
(46194.149000) vcan0 00000001#098F13 R
(46194.390000) vcan0 00000002#0A9014 R
(46194.626000) vcan0 00000001#0B9115 R
(46194.870000) vcan0 00000002#0C9216 R
(46195.105000) vcan0 00000001#0D9317 R
(46195.343000) vcan0 00000002#0E9418 R
(46195.579000) vcan0 00000001#0F9519 R
(46195.823000) vcan0 00000002#10961A R
(46196.059000) vcan0 00000001#11971B R
(46196.301000) vcan0 00000002#12981C R
(46196.536000) vcan0 00000001#13991D R
(46196.780000) vcan0 00000002#149A1E R
(46197.016000) vcan0 00000001#159B1F R
(46197.258000) vcan0 00000002#169C20 R
(46197.493000) vcan0 00000001#179D21 R
(46197.737000) vcan0 00000002#189E22 R
(46197.973000) vcan0 00000001#199F23 R
(46198.209000) vcan0 00000002#1AA024 R
(46198.450000) vcan0 00000001#1BA125 R
(46198.694000) vcan0 00000002#1CA226 R
(46198.929000) vcan0 00000001#1DA327 R
(46199.165000) vcan0 00000002#1EA428 R
(46199.407000) vcan0 00000001#1FA529 R
(46199.650000) vcan0 00000002#20A62A R
(46199.886000) vcan0 00000001#21A72B R
(46200.122000) vcan0 00000002#22A82C R
(46200.360000) vcan0 00000001#23A92D R
(46200.595000) vcan0 00000002#24AA2E R
(46200.839000) vcan0 00000001#25552F R
(46201.075000) vcan0 00000002#265630 R
(46201.317000) vcan0 00000001#275731 R
(46201.553000) vcan0 00000002#285832 R
(46201.796000) vcan0 00000001#295933 R
(46202.032000) vcan0 00000002#2A5A34 R
(46202.274000) vcan0 00000001#2B5B35 R
(46202.510000) vcan0 00000002#2C5C36 R
(46202.754000) vcan0 00000001#2D5D37 R
(46202.989000) vcan0 00000002#2E5E38 R
(46203.228000) vcan0 00000001#2F5F39 R
(46203.463000) vcan0 00000002#30603A R
(46203.707000) vcan0 00000001#31613B R
(46203.943000) vcan0 00000002#32623C R
(46204.179000) vcan0 00000001#33633D R
(46204.420000) vcan0 00000002#34643E R
(46204.664000) vcan0 00000001#35653F R
(46204.900000) vcan0 00000002#366640 R
(46205.136000) vcan0 00000001#376741 R
(46205.374000) vcan0 00000002#386842 R
(46205.609000) vcan0 00000001#396943 R
(46205.853000) vcan0 00000002#3A6A44 R
(46206.089000) vcan0 00000001#3B6B45 R
(46206.327000) vcan0 00000002#3C6C46 R
(46206.563000) vcan0 00000001#3D6D47 R
(46206.807000) vcan0 00000002#3E6E48 R
(46207.043000) vcan0 00000001#3F6F49 R
(46207.284000) vcan0 00000002#40704A R
(46207.520000) vcan0 00000001#41714B R
(46207.764000) vcan0 00000002#42724C R
(46208.000000) vcan0 00000001#43734D R
(46208.241000) vcan0 00000002#44744E R
(46208.477000) vcan0 00000001#45754F R
(46208.721000) vcan0 00000002#467650 R
(46208.957000) vcan0 00000001#477751 R
(46209.193000) vcan0 00000002#487852 R
(46209.433000) vcan0 00000001#497953 R
(46209.677000) vcan0 00000002#4A7A54 R
(46209.913000) vcan0 00000001#4B7B55 R
(46210.149000) vcan0 00000002#4C7C56 R
(46210.390000) vcan0 00000001#4D7D57 R
(46210.626000) vcan0 00000002#4E7E58 R
(46210.870000) vcan0 00000001#4F7F59 R
(46211.105000) vcan0 00000002#50805A R
(46211.344000) vcan0 00000001#51815B R
(46211.580000) vcan0 00000002#52825C R
(46211.824000) vcan0 00000001#53835D R
(46212.059000) vcan0 00000002#54845E R
(46212.301000) vcan0 00000001#00855F R
(46212.537000) vcan0 00000002#018660 R
(46212.780000) vcan0 00000001#028761 R
(46213.016000) vcan0 00000002#038862 R
(46213.258000) vcan0 00000001#048963 R
(46213.494000) vcan0 00000002#058A64 R
(46213.738000) vcan0 00000001#068B65 R
(46213.973000) vcan0 00000002#078C66 R
(46214.210000) vcan0 00000001#088D67 R
(46214.450000) vcan0 00000002#098E68 R
(46214.694000) vcan0 00000001#0A8F69 R
(46214.930000) vcan0 00000002#0B906A R
(46215.165000) vcan0 00000001#0C916B R
(46215.407000) vcan0 00000002#0D926C R
(46215.650000) vcan0 00000001#0E936D R
(46215.886000) vcan0 00000002#0F946E R
(46216.122000) vcan0 00000001#10956F R
(46216.360000) vcan0 00000002#119670 R
(46216.596000) vcan0 00000001#129771 R
(46216.839000) vcan0 00000002#139872 R
(46217.075000) vcan0 00000001#149973 R
(46217.317000) vcan0 00000002#159A74 R
(46217.552000) vcan0 00000001#169B75 R
(46217.796000) vcan0 00000002#179C76 R
(46218.032000) vcan0 00000001#189D77 R
(46218.274000) vcan0 00000002#199E78 R
(46218.509000) vcan0 00000001#1A9F79 R
(46218.753000) vcan0 00000002#1BA07A R
(46218.989000) vcan0 00000001#1CA17B R
(46219.228000) vcan0 00000002#1DA27C R
(46219.463000) vcan0 00000001#1EA37D R
(46219.707000) vcan0 00000002#1FA47E R
(46219.943000) vcan0 00000001#20A57F R
(46220.179000) vcan0 00000002#21A680 R
(46220.420000) vcan0 00000001#22A781 R
(46220.664000) vcan0 00000002#23A882 R
(46220.900000) vcan0 00000001#24A983 R
(46221.136000) vcan0 00000002#25AA84 R
(46221.374000) vcan0 00000001#265585 R
(46221.610000) vcan0 00000002#275686 R
(46221.854000) vcan0 00000001#285787 R
(46222.089000) vcan0 00000002#295888 R
(46222.327000) vcan0 00000001#2A5989 R
(46222.563000) vcan0 00000002#2B5A8A R
(46222.807000) vcan0 00000001#2C5B8B R
(46223.043000) vcan0 00000002#2D5C8C R
(46223.284000) vcan0 00000001#2E5D8D R
(46223.520000) vcan0 00000002#2F5E8E R
(46223.764000) vcan0 00000001#305F8F R
(46224.000000) vcan0 00000002#316090 R
(46224.241000) vcan0 00000001#326191 R
(46224.477000) vcan0 00000002#336292 R
(46224.721000) vcan0 00000001#346393 R
(46224.957000) vcan0 00000002#356494 R
(46225.193000) vcan0 00000001#366595 R
(46225.433000) vcan0 00000002#376696 R
(46225.677000) vcan0 00000001#386797 R
(46225.913000) vcan0 00000002#396898 R
(46226.149000) vcan0 00000001#3A6999 R
(46226.390000) vcan0 00000002#3B6A9A R
(46226.626000) vcan0 00000001#3C6B9B R
(46226.870000) vcan0 00000002#3D6C9C R
(46227.105000) vcan0 00000001#3E6D9D R
(46227.343000) vcan0 00000002#3F6E9E R
(46227.579000) vcan0 00000001#406F9F R
(46227.823000) vcan0 00000002#4170A0 R
(46228.059000) vcan0 00000001#4271A1 R
(46228.301000) vcan0 00000002#4372A2 R
(46228.536000) vcan0 00000001#4473A3 R
(46228.780000) vcan0 00000002#4574A4 R
(46229.016000) vcan0 00000001#4675A5 R
(46229.258000) vcan0 00000002#4776A6 R
(46229.493000) vcan0 00000001#4877A7 R
(46229.737000) vcan0 00000002#4978A8 R
(46229.973000) vcan0 00000001#4A79A9 R
(46230.209000) vcan0 00000002#4B7AAA R
(46230.450000) vcan0 00000001#4C7BAB R
(46230.694000) vcan0 00000002#4D7CAC R
(46230.929000) vcan0 00000001#4E7DAD R
(46231.165000) vcan0 00000002#4F7EAE R
(46231.407000) vcan0 00000001#507FAF R
(46231.650000) vcan0 00000002#5180B0 R
(46231.886000) vcan0 00000001#5281B1 R
(46232.122000) vcan0 00000002#5382B2 R
(46232.360000) vcan0 00000001#5483B3 R
(46232.595000) vcan0 00000002#0084B4 R
(46232.839000) vcan0 00000001#0185B5 R
(46233.075000) vcan0 00000002#0286B6 R
(46233.317000) vcan0 00000001#0387B7 R
(46233.553000) vcan0 00000002#0488B8 R
(46233.796000) vcan0 00000001#0589B9 R
(46234.032000) vcan0 00000002#068ABA R
(46234.274000) vcan0 00000001#078BBB R
(46234.510000) vcan0 00000002#088CBC R
(46234.754000) vcan0 00000001#098DBD R
(46234.989000) vcan0 00000002#0A8EBE R
(46235.228000) vcan0 00000001#0B8FBF R
(46235.463000) vcan0 00000002#0C90C0 R
(46235.707000) vcan0 00000001#0D91C1 R
(46235.943000) vcan0 00000002#0E92C2 R
(46236.179000) vcan0 00000001#0F93C3 R
(46236.420000) vcan0 00000002#1094C4 R
(46236.664000) vcan0 00000001#1195C5 R
(46236.900000) vcan0 00000002#1296C6 R
(46237.136000) vcan0 00000001#1397C7 R
(46237.374000) vcan0 00000002#1498C8 R
(46237.609000) vcan0 00000001#1599C9 R
(46237.853000) vcan0 00000002#169ACA R
(46238.089000) vcan0 00000001#179BCB R
(46238.327000) vcan0 00000002#189CCC R
(46238.563000) vcan0 00000001#199DCD R
(46238.807000) vcan0 00000002#1A9ECE R
(46239.043000) vcan0 00000001#1B9FCF R
(46239.284000) vcan0 00000002#1CA0D0 R
(46239.520000) vcan0 00000001#1DA1D1 R
(46239.764000) vcan0 00000002#1EA2D2 R
(46240.000000) vcan0 00000001#1FA3D3 R
(46240.241000) vcan0 00000002#20A4D4 R
(46240.477000) vcan0 00000001#21A5D5 R
(46240.721000) vcan0 00000002#22A6D6 R
(46240.957000) vcan0 00000001#23A7D7 R
(46241.193000) vcan0 00000002#24A8D8 R
(46241.433000) vcan0 00000001#25A9D9 R
(46241.677000) vcan0 00000002#26AADA R
(46241.913000) vcan0 00000001#2755DB R
(46242.149000) vcan0 00000002#2856DC R
(46242.390000) vcan0 00000001#2957DD R
(46242.626000) vcan0 00000002#2A58DE R
(46242.870000) vcan0 00000001#2B59DF R
(46243.105000) vcan0 00000002#2C5AE0 R
(46243.343000) vcan0 00000001#2D5BE1 R
(46243.579000) vcan0 00000002#2E5CE2 R
(46243.823000) vcan0 00000001#2F5DE3 R
(46244.059000) vcan0 00000002#305EE4 R
(46244.301000) vcan0 00000001#315FE5 R
(46244.536000) vcan0 00000002#3260E6 R
(46244.780000) vcan0 00000001#3361E7 R
(46245.016000) vcan0 00000002#3462E8 R
(46245.258000) vcan0 00000001#3563E9 R
(46245.493000) vcan0 00000002#3664EA R
(46245.737000) vcan0 00000001#3765EB R
(46245.973000) vcan0 00000002#3866EC R
(46246.209000) vcan0 00000001#3967ED R
(46246.450000) vcan0 00000002#3A68EE R
(46246.694000) vcan0 00000001#3B69EF R
(46246.929000) vcan0 00000002#3C6AF0 R
(46247.165000) vcan0 00000001#3D6BF1 R
(46247.407000) vcan0 00000002#3E6CF2 R
(46247.650000) vcan0 00000001#3F6DF3 R
(46247.886000) vcan0 00000002#406EF4 R
(46248.122000) vcan0 00000001#416FF5 R
(46248.360000) vcan0 00000002#4270F6 R
(46248.596000) vcan0 00000001#4371F7 R
(46248.839000) vcan0 00000002#4472F8 R
(46249.075000) vcan0 00000001#4573F9 R
(46249.317000) vcan0 00000002#4674FA R
(46249.552000) vcan0 00000001#4775FB R
(46249.796000) vcan0 00000002#4876FC R
(46250.032000) vcan0 00000001#4977FD R
(46250.274000) vcan0 00000002#4A78FE R
(46250.509000) vcan0 00000001#4B79FF R
(46250.753000) vcan0 00000002#4C7A00 R
(46250.989000) vcan0 00000001#4D7B01 R
(46251.227000) vcan0 00000002#4E7C02 R
(46251.463000) vcan0 00000001#4F7D03 R
(46251.707000) vcan0 00000002#507E04 R
(46251.943000) vcan0 00000001#517F05 R
(46252.179000) vcan0 00000002#528006 R
(46252.421000) vcan0 00000001#538107 R
(46252.665000) vcan0 00000002#548208 R
(46252.900000) vcan0 00000001#008309 R
(46253.136000) vcan0 00000002#01840A R
(46253.374000) vcan0 00000001#02850B R
(46253.610000) vcan0 00000002#03860C R
(46253.854000) vcan0 00000001#04870D R
(46254.089000) vcan0 00000002#05880E R
(46254.327000) vcan0 00000001#06890F R
(46254.563000) vcan0 00000002#078A10 R
(46254.807000) vcan0 00000001#088B11 R
(46255.043000) vcan0 00000002#098C12 R
(46255.284000) vcan0 00000001#0A8D13 R
(46255.520000) vcan0 00000002#0B8E14 R
(46255.764000) vcan0 00000001#0C8F15 R
(46256.000000) vcan0 00000002#0D9016 R
(46256.241000) vcan0 00000001#0E9117 R
(46256.477000) vcan0 00000002#0F9218 R
(46256.721000) vcan0 00000001#109319 R
(46256.957000) vcan0 00000002#11941A R
(46257.193000) vcan0 00000001#12951B R
(46257.433000) vcan0 00000002#13961C R
(46257.677000) vcan0 00000001#14971D R
(46257.913000) vcan0 00000002#15981E R
(46258.149000) vcan0 00000001#16991F R
(46258.390000) vcan0 00000002#179A20 R
(46258.626000) vcan0 00000001#189B21 R
(46258.870000) vcan0 00000002#199C22 R
(46259.105000) vcan0 00000001#1A9D23 R
(46259.343000) vcan0 00000002#1B9E24 R
(46259.579000) vcan0 00000001#1C9F25 R
(46259.823000) vcan0 00000002#1DA026 R
(46260.059000) vcan0 00000001#1EA127 R
(46260.301000) vcan0 00000002#1FA228 R
(46260.536000) vcan0 00000001#20A329 R
(46260.780000) vcan0 00000002#21A42A R
(46261.016000) vcan0 00000001#22A52B R
(46261.258000) vcan0 00000002#23A62C R
(46261.493000) vcan0 00000001#24A72D R
(46261.737000) vcan0 00000002#25A82E R
(46261.973000) vcan0 00000001#26A92F R
(46262.209000) vcan0 00000002#27AA30 R
(46262.450000) vcan0 00000001#285531 R
(46262.694000) vcan0 00000002#295632 R
(46262.929000) vcan0 00000001#2A5733 R
(46263.165000) vcan0 00000002#2B5834 R
(46263.407000) vcan0 00000001#2C5935 R
(46263.650000) vcan0 00000002#2D5A36 R
(46263.886000) vcan0 00000001#2E5B37 R
(46264.122000) vcan0 00000002#2F5C38 R
(46264.360000) vcan0 00000001#305D39 R
(46264.596000) vcan0 00000002#315E3A R
(46264.840000) vcan0 00000001#325F3B R
(46265.076000) vcan0 00000002#33603C R
(46265.317000) vcan0 00000001#34613D R
(46265.553000) vcan0 00000002#35623E R
(46265.797000) vcan0 00000001#36633F R
(46266.033000) vcan0 00000002#376440 R
(46266.273000) vcan0 00000001#386541 R
(46266.509000) vcan0 00000002#396642 R
(46266.753000) vcan0 00000001#3A6743 R
(46266.989000) vcan0 00000002#3B6844 R
(46267.227000) vcan0 00000001#3C6945 R
(46267.463000) vcan0 00000002#3D6A46 R
(46267.707000) vcan0 00000001#3E6B47 R
(46267.943000) vcan0 00000002#3F6C48 R
(46268.179000) vcan0 00000001#406D49 R
(46268.421000) vcan0 00000002#416E4A R
(46268.665000) vcan0 00000001#426F4B R
(46268.900000) vcan0 00000002#43704C R
(46269.136000) vcan0 00000001#44714D R
(46269.374000) vcan0 00000002#45724E R
(46269.610000) vcan0 00000001#46734F R
(46269.854000) vcan0 00000002#477450 R
(46270.089000) vcan0 00000001#487551 R
(46270.328000) vcan0 00000002#497652 R
(46270.563000) vcan0 00000001#4A7753 R
(46270.807000) vcan0 00000002#4B7854 R
(46271.043000) vcan0 00000001#4C7955 R
(46271.285000) vcan0 00000002#4D7A56 R
(46271.521000) vcan0 00000001#4E7B57 R
(46271.764000) vcan0 00000002#4F7C58 R
(46272.000000) vcan0 00000001#507D59 R
(46272.241000) vcan0 00000002#517E5A R
(46272.477000) vcan0 00000001#527F5B R
(46272.721000) vcan0 00000002#53805C R
(46272.956000) vcan0 00000001#54815D R
(46273.192000) vcan0 00000002#00825E R
(46273.434000) vcan0 00000001#01835F R
(46273.678000) vcan0 00000002#028460 R
(46273.914000) vcan0 00000001#038561 R
(46274.150000) vcan0 00000002#048662 R
(46274.390000) vcan0 00000001#058763 R
(46274.626000) vcan0 00000002#068864 R
