(7890.510000) vcan0 00000001#088987 R
(7890.754000) vcan0 00000002#098A88 R
(7890.989000) vcan0 00000001#0A8B89 R
(7891.228000) vcan0 00000002#0B8C8A R
(7897.677000) vcan0 00000001#26A7A5 R
(7897.913000) vcan0 00000002#27A8A6 R
(7898.149000) vcan0 00000001#28A9A7 R
(7898.391000) vcan0 00000002#29AAA8 R
(7898.626000) vcan0 00000001#2A55A9 R
(7898.870000) vcan0 00000002#2B56AA R
(7899.106000) vcan0 00000001#2C57AB R
(7899.344000) vcan0 00000002#2D58AC R
(7899.580000) vcan0 00000001#2E59AD R
(7899.824000) vcan0 00000002#2F5AAE R
(7900.060000) vcan0 00000001#305BAF R
(7900.301000) vcan0 00000002#315CB0 R
(7900.537000) vcan0 00000001#325DB1 R
(7900.781000) vcan0 00000002#335EB2 R
(7901.017000) vcan0 00000001#345FB3 R
(7901.257000) vcan0 00000002#3560B4 R
(7901.493000) vcan0 00000001#3661B5 R
(7901.737000) vcan0 00000002#3762B6 R
(7901.973000) vcan0 00000001#3863B7 R
(7902.209000) vcan0 00000002#3964B8 R
(7902.450000) vcan0 00000001#3A65B9 R
(7902.694000) vcan0 00000002#3B66BA R
(7902.930000) vcan0 00000001#3C67BB R
(7903.165000) vcan0 00000002#3D68BC R
(7903.407000) vcan0 00000001#3E69BD R
(7903.650000) vcan0 00000002#3F6ABE R
(7903.886000) vcan0 00000001#406BBF R
(7904.122000) vcan0 00000002#416CC0 R
(7904.360000) vcan0 00000001#426DC1 R
(7904.596000) vcan0 00000002#436EC2 R
(7904.840000) vcan0 00000001#446FC3 R
(7905.075000) vcan0 00000002#4570C4 R
(7905.317000) vcan0 00000001#4671C5 R
(7905.553000) vcan0 00000002#4772C6 R
(7905.796000) vcan0 00000001#4873C7 R
(7906.032000) vcan0 00000002#4974C8 R
(7906.274000) vcan0 00000001#4A75C9 R
(7906.510000) vcan0 00000002#4B76CA R
(7906.754000) vcan0 00000001#4C77CB R
(7906.990000) vcan0 00000002#4D78CC R
(7907.228000) vcan0 00000001#4E79CD R
(7907.463000) vcan0 00000002#4F7ACE R
(7907.707000) vcan0 00000001#507BCF R
(7907.943000) vcan0 00000002#517CD0 R
(7908.179000) vcan0 00000001#527DD1 R
(7908.421000) vcan0 00000002#537ED2 R
(7908.665000) vcan0 00000001#547FD3 R
(7908.900000) vcan0 00000002#0080D4 R
(7909.136000) vcan0 00000001#0181D5 R
(7909.374000) vcan0 00000002#0282D6 R
(7909.610000) vcan0 00000001#0383D7 R
(7909.854000) vcan0 00000002#0484D8 R
(7910.089000) vcan0 00000001#0585D9 R
(7910.328000) vcan0 00000002#0686DA R
(7910.563000) vcan0 00000001#0787DB R
(7910.807000) vcan0 00000002#0888DC R
(7911.043000) vcan0 00000001#0989DD R
(7911.284000) vcan0 00000002#0A8ADE R
(7911.520000) vcan0 00000001#0B8BDF R
(7911.764000) vcan0 00000002#0C8CE0 R
(7912.000000) vcan0 00000001#0D8DE1 R
(7912.241000) vcan0 00000002#0E8EE2 R
(7912.477000) vcan0 00000001#0F8FE3 R
(7912.721000) vcan0 00000002#1090E4 R
(7912.957000) vcan0 00000001#1191E5 R
(7913.193000) vcan0 00000002#1292E6 R
(7913.433000) vcan0 00000001#1393E7 R
(7913.677000) vcan0 00000002#1494E8 R
(7913.913000) vcan0 00000001#1595E9 R
(7914.149000) vcan0 00000002#1696EA R
(7914.391000) vcan0 00000001#1797EB R
(7914.626000) vcan0 00000002#1898EC R
(7914.870000) vcan0 00000001#1999ED R
(7915.106000) vcan0 00000002#1A9AEE R
(7915.344000) vcan0 00000001#1B9BEF R
(7915.580000) vcan0 00000002#1C9CF0 R
(7915.823000) vcan0 00000001#1D9DF1 R
(7916.059000) vcan0 00000002#1E9EF2 R
(7916.301000) vcan0 00000001#1F9FF3 R
(7916.536000) vcan0 00000002#20A0F4 R
(7916.780000) vcan0 00000001#21A1F5 R
(7917.016000) vcan0 00000002#22A2F6 R
(7917.258000) vcan0 00000001#23A3F7 R
(7917.493000) vcan0 00000002#24A4F8 R
(7917.737000) vcan0 00000001#25A5F9 R
(7917.973000) vcan0 00000002#26A6FA R
(7918.209000) vcan0 00000001#27A7FB R
(7918.450000) vcan0 00000002#28A8FC R
(7918.694000) vcan0 00000001#29A9FD R
(7918.930000) vcan0 00000002#2AAAFE R
(7919.165000) vcan0 00000001#2B55FF R
(7919.407000) vcan0 00000002#2C5600 R
(7919.650000) vcan0 00000001#2D5701 R
(7919.886000) vcan0 00000002#2E5802 R
(7920.122000) vcan0 00000001#2F5903 R
(7920.360000) vcan0 00000002#305A04 R
(7920.596000) vcan0 00000001#315B05 R
(7920.840000) vcan0 00000002#325C06 R
(7921.075000) vcan0 00000001#335D07 R
(7921.317000) vcan0 00000002#345E08 R
(7921.553000) vcan0 00000001#355F09 R
(7921.797000) vcan0 00000002#36600A R
(7922.032000) vcan0 00000001#37610B R
(7922.274000) vcan0 00000002#38620C R
(7922.510000) vcan0 00000001#39630D R
(7922.754000) vcan0 00000002#3A640E R
(7922.990000) vcan0 00000001#3B650F R
(7923.228000) vcan0 00000002#3C6610 R
(7923.463000) vcan0 00000001#3D6711 R
(7923.707000) vcan0 00000002#3E6812 R
(7923.943000) vcan0 00000001#3F6913 R
(7924.179000) vcan0 00000002#406A14 R
(7924.421000) vcan0 00000001#416B15 R
(7924.665000) vcan0 00000002#426C16 R
(7924.900000) vcan0 00000001#436D17 R
(7925.136000) vcan0 00000002#446E18 R
(7925.374000) vcan0 00000001#456F19 R
(7925.610000) vcan0 00000002#46701A R
(7925.854000) vcan0 00000001#47711B R
(7926.089000) vcan0 00000002#48721C R
(7926.328000) vcan0 00000001#49731D R
(7926.563000) vcan0 00000002#4A741E R
(7926.807000) vcan0 00000001#4B751F R
(7927.043000) vcan0 00000002#4C7620 R
(7927.284000) vcan0 00000001#4D7721 R
(7927.520000) vcan0 00000002#4E7822 R
(7927.764000) vcan0 00000001#4F7923 R
(7928.000000) vcan0 00000002#507A24 R
(7928.241000) vcan0 00000001#517B25 R
(7928.477000) vcan0 00000002#527C26 R
(7928.721000) vcan0 00000001#537D27 R
(7928.957000) vcan0 00000002#547E28 R
(7929.193000) vcan0 00000001#007F29 R
(7929.433000) vcan0 00000002#01802A R
(7929.677000) vcan0 00000001#02812B R
(7929.913000) vcan0 00000002#03822C R
(7930.149000) vcan0 00000001#04832D R
(7930.391000) vcan0 00000002#05842E R
(7930.626000) vcan0 00000001#06852F R
(7930.870000) vcan0 00000002#078630 R
(7931.106000) vcan0 00000001#088731 R
(7931.344000) vcan0 00000002#098832 R
(7931.580000) vcan0 00000001#0A8933 R
(7931.824000) vcan0 00000002#0B8A34 R
(7932.060000) vcan0 00000001#0C8B35 R
(7932.301000) vcan0 00000002#0D8C36 R
(7932.537000) vcan0 00000001#0E8D37 R
(7932.780000) vcan0 00000002#0F8E38 R
(7933.016000) vcan0 00000001#108F39 R
(7933.258000) vcan0 00000002#11903A R
(7933.494000) vcan0 00000001#12913B R
(7933.738000) vcan0 00000002#13923C R
(7933.974000) vcan0 00000001#14933D R
(7934.210000) vcan0 00000002#15943E R
(7934.450000) vcan0 00000001#16953F R
(7934.694000) vcan0 00000002#179640 R
(7934.930000) vcan0 00000001#189741 R
(7935.166000) vcan0 00000002#199842 R
(7935.407000) vcan0 00000001#1A9943 R
(7935.651000) vcan0 00000002#1B9A44 R
(7935.886000) vcan0 00000001#1C9B45 R
(7936.122000) vcan0 00000002#1D9C46 R
(7936.360000) vcan0 00000001#1E9D47 R
(7936.596000) vcan0 00000002#1F9E48 R
(7936.840000) vcan0 00000001#209F49 R
(7937.075000) vcan0 00000002#21A04A R
(7937.317000) vcan0 00000001#22A14B R
(7937.553000) vcan0 00000002#23A24C R
(7937.797000) vcan0 00000001#24A34D R
(7938.032000) vcan0 00000002#25A44E R
(7938.274000) vcan0 00000001#26A54F R
(7938.510000) vcan0 00000002#27A650 R
(7938.754000) vcan0 00000001#28A751 R
(7938.990000) vcan0 00000002#29A852 R
(7939.228000) vcan0 00000001#2AA953 R
(7939.463000) vcan0 00000002#2BAA54 R
(7939.707000) vcan0 00000001#2C5555 R
(7939.943000) vcan0 00000002#2D5656 R
(7940.179000) vcan0 00000001#2E5757 R
(7940.421000) vcan0 00000002#2F5858 R
(7940.665000) vcan0 00000001#305959 R
(7940.900000) vcan0 00000002#315A5A R
(7941.136000) vcan0 00000001#325B5B R
(7941.374000) vcan0 00000002#335C5C R
(7941.610000) vcan0 00000001#345D5D R
(7941.854000) vcan0 00000002#355E5E R
(7942.089000) vcan0 00000001#365F5F R
(7942.328000) vcan0 00000002#376060 R
(7942.563000) vcan0 00000001#386161 R
(7942.807000) vcan0 00000002#396262 R
(7943.043000) vcan0 00000001#3A6363 R
(7943.284000) vcan0 00000002#3B6464 R
(7943.520000) vcan0 00000001#3C6565 R
(7943.764000) vcan0 00000002#3D6666 R
(7944.000000) vcan0 00000001#3E6767 R
(7944.241000) vcan0 00000002#3F6868 R
(7944.477000) vcan0 00000001#406969 R
(7944.721000) vcan0 00000002#416A6A R
(7944.957000) vcan0 00000001#426B6B R
(7945.193000) vcan0 00000002#436C6C R
(7945.433000) vcan0 00000001#446D6D R
(7945.677000) vcan0 00000002#456E6E R
(7945.913000) vcan0 00000001#466F6F R
(7946.149000) vcan0 00000002#477070 R
(7946.391000) vcan0 00000001#487171 R
(7946.626000) vcan0 00000002#497272 R
(7946.870000) vcan0 00000001#4A7373 R
(7947.106000) vcan0 00000002#4B7474 R
(7947.344000) vcan0 00000001#4C7575 R
(7947.580000) vcan0 00000002#4D7676 R
(7947.823000) vcan0 00000001#4E7777 R
(7948.059000) vcan0 00000002#4F7878 R
(7948.301000) vcan0 00000001#507979 R
(7948.536000) vcan0 00000002#517A7A R
(7948.780000) vcan0 00000001#527B7B R
(7949.016000) vcan0 00000002#537C7C R
(7949.258000) vcan0 00000001#547D7D R
(7949.493000) vcan0 00000002#007E7E R
(7949.737000) vcan0 00000001#017F7F R
(7949.973000) vcan0 00000002#028080 R
(7950.209000) vcan0 00000001#038181 R
(7950.450000) vcan0 00000002#048282 R
(7950.694000) vcan0 00000001#058383 R
(7950.930000) vcan0 00000002#068484 R
(7951.165000) vcan0 00000001#078585 R
(7951.407000) vcan0 00000002#088686 R
(7951.650000) vcan0 00000001#098787 R
(7951.886000) vcan0 00000002#0A8888 R
(7952.122000) vcan0 00000001#0B8989 R
(7952.360000) vcan0 00000002#0C8A8A R
(7952.596000) vcan0 00000001#0D8B8B R
(7952.840000) vcan0 00000002#0E8C8C R
(7953.075000) vcan0 00000001#0F8D8D R
(7953.317000) vcan0 00000002#108E8E R
(7953.553000) vcan0 00000001#118F8F R
(7953.797000) vcan0 00000002#129090 R
(7954.032000) vcan0 00000001#139191 R
(7954.274000) vcan0 00000002#149292 R
(7954.510000) vcan0 00000001#159393 R
(7954.754000) vcan0 00000002#169494 R
(7954.990000) vcan0 00000001#179595 R
(7955.228000) vcan0 00000002#189696 R
(7955.463000) vcan0 00000001#199797 R
(7955.707000) vcan0 00000002#1A9898 R
(7955.943000) vcan0 00000001#1B9999 R
(7956.179000) vcan0 00000002#1C9A9A R
(7956.421000) vcan0 00000001#1D9B9B R
(7956.665000) vcan0 00000002#1E9C9C R
(7956.900000) vcan0 00000001#1F9D9D R
(7957.136000) vcan0 00000002#209E9E R
(7957.374000) vcan0 00000001#219F9F R
(7957.610000) vcan0 00000002#22A0A0 R
(7957.854000) vcan0 00000001#23A1A1 R
(7958.089000) vcan0 00000002#24A2A2 R
(7958.328000) vcan0 00000001#25A3A3 R
(7958.563000) vcan0 00000002#26A4A4 R
(7958.807000) vcan0 00000001#27A5A5 R
(7959.043000) vcan0 00000002#28A6A6 R
(7959.284000) vcan0 00000001#29A7A7 R
(7959.520000) vcan0 00000002#2AA8A8 R
(7959.764000) vcan0 00000001#2BA9A9 R
(7960.000000) vcan0 00000002#2CAAAA R
(7960.241000) vcan0 00000001#2D55AB R
(7960.477000) vcan0 00000002#2E56AC R
(7960.721000) vcan0 00000001#2F57AD R
(7960.957000) vcan0 00000002#3058AE R
(7961.193000) vcan0 00000001#3159AF R
(7961.433000) vcan0 00000002#325AB0 R
(7961.677000) vcan0 00000001#335BB1 R
(7961.913000) vcan0 00000002#345CB2 R
(7962.149000) vcan0 00000001#355DB3 R
(7962.391000) vcan0 00000002#365EB4 R
(7962.626000) vcan0 00000001#375FB5 R
(7962.870000) vcan0 00000002#3860B6 R
(7963.106000) vcan0 00000001#3961B7 R
(7963.344000) vcan0 00000002#3A62B8 R
(7963.580000) vcan0 00000001#3B63B9 R
(7963.824000) vcan0 00000002#3C64BA R
(7964.060000) vcan0 00000001#3D65BB R
(7964.301000) vcan0 00000002#3E66BC R
(7964.537000) vcan0 00000001#3F67BD R
(7964.780000) vcan0 00000002#4068BE R
(7965.016000) vcan0 00000001#4169BF R
(7965.258000) vcan0 00000002#426AC0 R
(7965.494000) vcan0 00000001#436BC1 R
(7965.738000) vcan0 00000002#446CC2 R
(7965.974000) vcan0 00000001#456DC3 R
(7966.210000) vcan0 00000002#466EC4 R
(7966.450000) vcan0 00000001#476FC5 R
(7966.694000) vcan0 00000002#4870C6 R
(7966.930000) vcan0 00000001#4971C7 R
(7967.166000) vcan0 00000002#4A72C8 R
(7967.407000) vcan0 00000001#4B73C9 R
(7967.651000) vcan0 00000002#4C74CA R
(7967.886000) vcan0 00000001#4D75CB R
(7968.122000) vcan0 00000002#4E76CC R
(7968.360000) vcan0 00000001#4F77CD R
(7968.596000) vcan0 00000002#5078CE R
(7968.840000) vcan0 00000001#5179CF R
(7969.075000) vcan0 00000002#527AD0 R
(7969.317000) vcan0 00000001#537BD1 R
(7969.553000) vcan0 00000002#547CD2 R
(7969.797000) vcan0 00000001#007DD3 R
(7970.032000) vcan0 00000002#017ED4 R
(7970.274000) vcan0 00000001#027FD5 R
(7970.510000) vcan0 00000002#0380D6 R
(7970.754000) vcan0 00000001#0481D7 R
(7970.990000) vcan0 00000002#0582D8 R
(7971.228000) vcan0 00000001#0683D9 R
(7971.463000) vcan0 00000002#0784DA R
(7971.707000) vcan0 00000001#0885DB R
(7971.943000) vcan0 00000002#0986DC R
(7972.179000) vcan0 00000001#0A87DD R
(7972.421000) vcan0 00000002#0B88DE R
(7972.665000) vcan0 00000001#0C89DF R
(7972.900000) vcan0 00000002#0D8AE0 R
(7973.136000) vcan0 00000001#0E8BE1 R
(7973.374000) vcan0 00000002#0F8CE2 R
(7973.610000) vcan0 00000001#108DE3 R
(7973.854000) vcan0 00000002#118EE4 R
(7974.089000) vcan0 00000001#128FE5 R
(7974.327000) vcan0 00000002#1390E6 R
(7974.563000) vcan0 00000001#1491E7 R
(7974.807000) vcan0 00000002#1592E8 R
(7975.043000) vcan0 00000001#1693E9 R
(7975.285000) vcan0 00000002#1794EA R
(7975.520000) vcan0 00000001#1895EB R
(7975.764000) vcan0 00000002#1996EC R
(7976.000000) vcan0 00000001#1A97ED R
(7976.242000) vcan0 00000002#1B98EE R
(7976.477000) vcan0 00000001#1C99EF R
(7976.721000) vcan0 00000002#1D9AF0 R
(7976.957000) vcan0 00000001#1E9BF1 R
(7977.193000) vcan0 00000002#1F9CF2 R
(7977.434000) vcan0 00000001#209DF3 R
(7977.678000) vcan0 00000002#219EF4 R
(7977.913000) vcan0 00000001#229FF5 R
(7978.149000) vcan0 00000002#23A0F6 R
(7978.390000) vcan0 00000001#24A1F7 R
(7978.626000) vcan0 00000002#25A2F8 R
(7978.870000) vcan0 00000001#26A3F9 R
(7979.106000) vcan0 00000002#27A4FA R
(7979.344000) vcan0 00000001#28A5FB R
(7979.580000) vcan0 00000002#29A6FC R
(7979.823000) vcan0 00000001#2AA7FD R
(7980.059000) vcan0 00000002#2BA8FE R
(7980.301000) vcan0 00000001#2CA9FF R
(7980.536000) vcan0 00000002#2DAA00 R
(7980.780000) vcan0 00000001#2E5501 R
(7981.016000) vcan0 00000002#2F5602 R
(7981.258000) vcan0 00000001#305703 R
(7981.493000) vcan0 00000002#315804 R
(7981.737000) vcan0 00000001#325905 R
(7981.973000) vcan0 00000002#335A06 R
(7982.209000) vcan0 00000001#345B07 R
(7982.450000) vcan0 00000002#355C08 R
(7982.694000) vcan0 00000001#365D09 R
(7982.930000) vcan0 00000002#375E0A R
(7983.165000) vcan0 00000001#385F0B R
(7983.407000) vcan0 00000002#39600C R
(7983.650000) vcan0 00000001#3A610D R
(7983.886000) vcan0 00000002#3B620E R
(7984.122000) vcan0 00000001#3C630F R
(7984.360000) vcan0 00000002#3D6410 R
(7984.596000) vcan0 00000001#3E6511 R
(7984.840000) vcan0 00000002#3F6612 R
(7985.075000) vcan0 00000001#406713 R
(7985.317000) vcan0 00000002#416814 R
(7985.553000) vcan0 00000001#426915 R
(7985.797000) vcan0 00000002#436A16 R
(7986.032000) vcan0 00000001#446B17 R
(7986.274000) vcan0 00000002#456C18 R
(7986.510000) vcan0 00000001#466D19 R
(7986.754000) vcan0 00000002#476E1A R
(7986.990000) vcan0 00000001#486F1B R
(7987.228000) vcan0 00000002#49701C R
(7987.463000) vcan0 00000001#4A711D R
(7987.707000) vcan0 00000002#4B721E R
(7987.943000) vcan0 00000001#4C731F R
(7988.179000) vcan0 00000002#4D7420 R
(7988.421000) vcan0 00000001#4E7521 R
(7988.665000) vcan0 00000002#4F7622 R
(7988.900000) vcan0 00000001#507723 R
(7989.136000) vcan0 00000002#517824 R
(7989.374000) vcan0 00000001#527925 R
(7989.610000) vcan0 00000002#537A26 R
(7989.854000) vcan0 00000001#547B27 R
(7990.089000) vcan0 00000002#007C28 R
(7990.328000) vcan0 00000001#017D29 R
(7990.563000) vcan0 00000002#027E2A R
(7990.807000) vcan0 00000001#037F2B R
(7991.043000) vcan0 00000002#04802C R
(7991.284000) vcan0 00000001#05812D R
(7991.520000) vcan0 00000002#06822E R
(7991.764000) vcan0 00000001#07832F R
(7992.000000) vcan0 00000002#088430 R
(7992.241000) vcan0 00000001#098531 R
(7992.477000) vcan0 00000002#0A8632 R
(7992.721000) vcan0 00000001#0B8733 R
(7992.957000) vcan0 00000002#0C8834 R
(7993.193000) vcan0 00000001#0D8935 R
(7993.433000) vcan0 00000002#0E8A36 R
(7993.677000) vcan0 00000001#0F8B37 R
(7993.913000) vcan0 00000002#108C38 R
(7994.149000) vcan0 00000001#118D39 R
(7994.391000) vcan0 00000002#128E3A R
(7994.626000) vcan0 00000001#138F3B R
(7994.870000) vcan0 00000002#14903C R
(7995.106000) vcan0 00000001#15913D R
(7995.344000) vcan0 00000002#16923E R
(7995.580000) vcan0 00000001#17933F R
(7995.824000) vcan0 00000002#189440 R
(7996.060000) vcan0 00000001#199541 R
(7996.301000) vcan0 00000002#1A9642 R
(7996.537000) vcan0 00000001#1B9743 R
(7996.780000) vcan0 00000002#1C9844 R
(7997.016000) vcan0 00000001#1D9945 R
(7997.258000) vcan0 00000002#1E9A46 R
(7997.494000) vcan0 00000001#1F9B47 R
(7997.738000) vcan0 00000002#209C48 R
(7997.974000) vcan0 00000001#219D49 R
(7998.210000) vcan0 00000002#229E4A R
(7998.450000) vcan0 00000001#239F4B R
(7998.694000) vcan0 00000002#24A04C R
(7998.930000) vcan0 00000001#25A14D R
(7999.166000) vcan0 00000002#26A24E R
(7999.407000) vcan0 00000001#27A34F R
(7999.651000) vcan0 00000002#28A450 R
(7999.886000) vcan0 00000001#29A551 R
(8000.122000) vcan0 00000002#2AA652 R
(8000.360000) vcan0 00000001#2BA753 R
(8000.596000) vcan0 00000002#2CA854 R
(8000.840000) vcan0 00000001#2DA955 R
(8001.075000) vcan0 00000002#2EAA56 R
(8001.317000) vcan0 00000001#2F5557 R
(8001.553000) vcan0 00000002#305658 R
(8001.797000) vcan0 00000001#315759 R
(8002.032000) vcan0 00000002#32585A R
(8002.274000) vcan0 00000001#33595B R
(8002.510000) vcan0 00000002#345A5C R
(8002.754000) vcan0 00000001#355B5D R
(8002.990000) vcan0 00000002#365C5E R
(8003.228000) vcan0 00000001#375D5F R
(8003.463000) vcan0 00000002#385E60 R
(8003.707000) vcan0 00000001#395F61 R
(8003.943000) vcan0 00000002#3A6062 R
(8004.179000) vcan0 00000001#3B6163 R
(8004.421000) vcan0 00000002#3C6264 R
(8004.665000) vcan0 00000001#3D6365 R
(8004.900000) vcan0 00000002#3E6466 R
(8005.136000) vcan0 00000001#3F6567 R
(8005.374000) vcan0 00000002#406668 R
(8005.610000) vcan0 00000001#416769 R
(8005.854000) vcan0 00000002#42686A R
(8006.089000) vcan0 00000001#43696B R
(8006.327000) vcan0 00000002#446A6C R
(8006.563000) vcan0 00000001#456B6D R
(8006.807000) vcan0 00000002#466C6E R
(8007.043000) vcan0 00000001#476D6F R
(8007.285000) vcan0 00000002#486E70 R
(8007.520000) vcan0 00000001#496F71 R
(8007.764000) vcan0 00000002#4A7072 R
(8008.000000) vcan0 00000001#4B7173 R
(8008.242000) vcan0 00000002#4C7274 R
(8008.477000) vcan0 00000001#4D7375 R
(8008.721000) vcan0 00000002#4E7476 R
(8008.957000) vcan0 00000001#4F7577 R
(8009.193000) vcan0 00000002#507678 R
(8009.434000) vcan0 00000001#517779 R
(8009.678000) vcan0 00000002#52787A R
(8009.913000) vcan0 00000001#53797B R
(8010.149000) vcan0 00000002#547A7C R
(8010.390000) vcan0 00000001#007B7D R
(8010.626000) vcan0 00000002#017C7E R
(8010.870000) vcan0 00000001#027D7F R
(8011.106000) vcan0 00000002#037E80 R
(8011.344000) vcan0 00000001#047F81 R
(8011.580000) vcan0 00000002#058082 R
(8011.823000) vcan0 00000001#068183 R
(8012.059000) vcan0 00000002#078284 R
(8012.301000) vcan0 00000001#088385 R
(8012.536000) vcan0 00000002#098486 R
(8012.780000) vcan0 00000001#0A8587 R
(8013.016000) vcan0 00000002#0B8688 R
(8013.258000) vcan0 00000001#0C8789 R
(8013.493000) vcan0 00000002#0D888A R
(8013.737000) vcan0 00000001#0E898B R
(8013.973000) vcan0 00000002#0F8A8C R
(8014.209000) vcan0 00000001#108B8D R
(8014.450000) vcan0 00000002#118C8E R
(8014.694000) vcan0 00000001#128D8F R
(8014.930000) vcan0 00000002#138E90 R
(8015.165000) vcan0 00000001#148F91 R
(8015.407000) vcan0 00000002#159092 R
(8015.651000) vcan0 00000001#169193 R
(8015.886000) vcan0 00000002#179294 R
(8016.122000) vcan0 00000001#189395 R
(8016.360000) vcan0 00000002#199496 R
(8016.596000) vcan0 00000001#1A9597 R
(8016.840000) vcan0 00000002#1B9698 R
(8017.075000) vcan0 00000001#1C9799 R
(8017.317000) vcan0 00000002#1D989A R
(8017.553000) vcan0 00000001#1E999B R
(8017.797000) vcan0 00000002#1F9A9C R
(8018.032000) vcan0 00000001#209B9D R
(8018.274000) vcan0 00000002#219C9E R
(8018.510000) vcan0 00000001#229D9F R
(8018.754000) vcan0 00000002#239EA0 R
(8018.990000) vcan0 00000001#249FA1 R
(8019.228000) vcan0 00000002#25A0A2 R
(8019.463000) vcan0 00000001#26A1A3 R
(8019.707000) vcan0 00000002#27A2A4 R
(8019.943000) vcan0 00000001#28A3A5 R
(8020.179000) vcan0 00000002#29A4A6 R
(8020.421000) vcan0 00000001#2AA5A7 R
(8020.665000) vcan0 00000002#2BA6A8 R
(8020.900000) vcan0 00000001#2CA7A9 R
(8021.136000) vcan0 00000002#2DA8AA R
(8021.374000) vcan0 00000001#2EA9AB R
(8021.610000) vcan0 00000002#2FAAAC R
(8021.854000) vcan0 00000001#3055AD R
(8022.089000) vcan0 00000002#3156AE R
(8022.328000) vcan0 00000001#3257AF R
(8022.563000) vcan0 00000002#3358B0 R
(8022.807000) vcan0 00000001#3459B1 R
(8023.043000) vcan0 00000002#355AB2 R
(8023.284000) vcan0 00000001#365BB3 R
(8023.520000) vcan0 00000002#375CB4 R
(8023.764000) vcan0 00000001#385DB5 R
(8024.000000) vcan0 00000002#395EB6 R
(8024.241000) vcan0 00000001#3A5FB7 R
(8024.477000) vcan0 00000002#3B60B8 R
(8024.721000) vcan0 00000001#3C61B9 R
(8024.957000) vcan0 00000002#3D62BA R
(8025.193000) vcan0 00000001#3E63BB R
(8025.433000) vcan0 00000002#3F64BC R
(8025.677000) vcan0 00000001#4065BD R
(8025.913000) vcan0 00000002#4166BE R
(8026.149000) vcan0 00000001#4267BF R
(8026.391000) vcan0 00000002#4368C0 R
(8026.626000) vcan0 00000001#4469C1 R
(8026.870000) vcan0 00000002#456AC2 R
(8027.106000) vcan0 00000001#466BC3 R
(8027.344000) vcan0 00000002#476CC4 R
(8027.580000) vcan0 00000001#486DC5 R
(8027.824000) vcan0 00000002#496EC6 R
(8028.060000) vcan0 00000001#4A6FC7 R
(8028.301000) vcan0 00000002#4B70C8 R
(8028.537000) vcan0 00000001#4C71C9 R
(8028.780000) vcan0 00000002#4D72CA R
(8029.016000) vcan0 00000001#4E73CB R
(8029.258000) vcan0 00000002#4F74CC R
(8029.494000) vcan0 00000001#5075CD R
(8029.738000) vcan0 00000002#5176CE R
(8029.974000) vcan0 00000001#5277CF R
(8030.210000) vcan0 00000002#5378D0 R
(8030.450000) vcan0 00000001#5479D1 R
(8030.694000) vcan0 00000002#007AD2 R
(8030.930000) vcan0 00000001#017BD3 R
(8031.166000) vcan0 00000002#027CD4 R
(8031.407000) vcan0 00000001#037DD5 R
(8031.651000) vcan0 00000002#047ED6 R
(8031.886000) vcan0 00000001#057FD7 R
(8032.122000) vcan0 00000002#0680D8 R
(8032.360000) vcan0 00000001#0781D9 R
(8032.596000) vcan0 00000002#0882DA R
(8032.840000) vcan0 00000001#0983DB R
(8033.075000) vcan0 00000002#0A84DC R
(8033.317000) vcan0 00000001#0B85DD R
(8033.553000) vcan0 00000002#0C86DE R
(8033.797000) vcan0 00000001#0D87DF R
(8034.032000) vcan0 00000002#0E88E0 R
(8034.274000) vcan0 00000001#0F89E1 R
(8034.510000) vcan0 00000002#108AE2 R
(8034.754000) vcan0 00000001#118BE3 R
(8034.990000) vcan0 00000002#128CE4 R
(8035.228000) vcan0 00000001#138DE5 R
(8035.463000) vcan0 00000002#148EE6 R
(8035.707000) vcan0 00000001#158FE7 R
(8035.943000) vcan0 00000002#1690E8 R
(8036.179000) vcan0 00000001#1791E9 R
(8036.421000) vcan0 00000002#1892EA R
(8036.665000) vcan0 00000001#1993EB R
(8036.900000) vcan0 00000002#1A94EC R
(8037.136000) vcan0 00000001#1B95ED R
(8037.374000) vcan0 00000002#1C96EE R
(8037.610000) vcan0 00000001#1D97EF R
(8037.854000) vcan0 00000002#1E98F0 R
(8038.089000) vcan0 00000001#1F99F1 R
(8038.327000) vcan0 00000002#209AF2 R
(8038.563000) vcan0 00000001#219BF3 R
(8038.807000) vcan0 00000002#229CF4 R
(8039.043000) vcan0 00000001#239DF5 R
(8039.285000) vcan0 00000002#249EF6 R
(8039.520000) vcan0 00000001#259FF7 R
(8039.764000) vcan0 00000002#26A0F8 R
(8040.000000) vcan0 00000001#27A1F9 R
(8040.242000) vcan0 00000002#28A2FA R
(8040.477000) vcan0 00000001#29A3FB R
(8040.721000) vcan0 00000002#2AA4FC R
(8040.957000) vcan0 00000001#2BA5FD R
(8041.193000) vcan0 00000002#2CA6FE R
(8041.434000) vcan0 00000001#2DA7FF R
(8041.678000) vcan0 00000002#2EA800 R
(8041.913000) vcan0 00000001#2FA901 R
(8042.149000) vcan0 00000002#30AA02 R
(8042.390000) vcan0 00000001#315503 R
(8042.626000) vcan0 00000002#325604 R
(8042.870000) vcan0 00000001#335705 R
(8043.106000) vcan0 00000002#345806 R
(8043.344000) vcan0 00000001#355907 R
(8043.580000) vcan0 00000002#365A08 R
(8043.823000) vcan0 00000001#375B09 R
(8044.059000) vcan0 00000002#385C0A R
(8044.301000) vcan0 00000001#395D0B R
(8044.536000) vcan0 00000002#3A5E0C R
(8044.780000) vcan0 00000001#3B5F0D R
(8045.016000) vcan0 00000002#3C600E R
(8045.258000) vcan0 00000001#3D610F R
(8045.493000) vcan0 00000002#3E6210 R
(8045.737000) vcan0 00000001#3F6311 R
(8045.973000) vcan0 00000002#406412 R
(8046.209000) vcan0 00000001#416513 R
(8046.450000) vcan0 00000002#426614 R
(8046.694000) vcan0 00000001#436715 R
(8046.930000) vcan0 00000002#446816 R
(8047.165000) vcan0 00000001#456917 R
(8047.407000) vcan0 00000002#466A18 R
(8047.651000) vcan0 00000001#476B19 R
(8047.886000) vcan0 00000002#486C1A R
(8048.122000) vcan0 00000001#496D1B R
(8048.360000) vcan0 00000002#4A6E1C R
(8048.596000) vcan0 00000001#4B6F1D R
(8048.840000) vcan0 00000002#4C701E R
(8049.075000) vcan0 00000001#4D711F R
(8049.317000) vcan0 00000002#4E7220 R
(8049.553000) vcan0 00000001#4F7321 R
(8049.797000) vcan0 00000002#507422 R
(8050.032000) vcan0 00000001#517523 R
(8050.274000) vcan0 00000002#527624 R
(8050.510000) vcan0 00000001#537725 R
(8050.754000) vcan0 00000002#547826 R
(8050.990000) vcan0 00000001#007927 R
(8051.228000) vcan0 00000002#017A28 R
(8051.463000) vcan0 00000001#027B29 R
(8051.707000) vcan0 00000002#037C2A R
(8051.943000) vcan0 00000001#047D2B R
(8052.179000) vcan0 00000002#057E2C R
(8052.421000) vcan0 00000001#067F2D R
(8052.665000) vcan0 00000002#07802E R
(8052.900000) vcan0 00000001#08812F R
(8053.136000) vcan0 00000002#098230 R
(8053.374000) vcan0 00000001#0A8331 R
(8053.610000) vcan0 00000002#0B8432 R
(8053.854000) vcan0 00000001#0C8533 R
(8054.089000) vcan0 00000002#0D8634 R
(8054.328000) vcan0 00000001#0E8735 R
(8054.563000) vcan0 00000002#0F8836 R
(8054.807000) vcan0 00000001#108937 R
(8055.043000) vcan0 00000002#118A38 R
(8055.284000) vcan0 00000001#128B39 R
(8055.520000) vcan0 00000002#138C3A R
(8055.764000) vcan0 00000001#148D3B R
(8056.000000) vcan0 00000002#158E3C R
(8056.241000) vcan0 00000001#168F3D R
(8056.477000) vcan0 00000002#17903E R
(8056.721000) vcan0 00000001#18913F R
(8056.957000) vcan0 00000002#199240 R
(8057.193000) vcan0 00000001#1A9341 R
(8057.433000) vcan0 00000002#1B9442 R
(8057.677000) vcan0 00000001#1C9543 R
(8057.913000) vcan0 00000002#1D9644 R
(8058.149000) vcan0 00000001#1E9745 R
(8058.391000) vcan0 00000002#1F9846 R
(8058.626000) vcan0 00000001#209947 R
(8058.870000) vcan0 00000002#219A48 R
(8059.106000) vcan0 00000001#229B49 R
(8059.344000) vcan0 00000002#239C4A R
(8059.580000) vcan0 00000001#249D4B R
(8059.824000) vcan0 00000002#259E4C R
(8060.060000) vcan0 00000001#269F4D R
(8060.301000) vcan0 00000002#27A04E R
(8060.537000) vcan0 00000001#28A14F R
(8060.780000) vcan0 00000002#29A250 R
(8061.016000) vcan0 00000001#2AA351 R
(8061.258000) vcan0 00000002#2BA452 R
(8061.494000) vcan0 00000001#2CA553 R
(8061.738000) vcan0 00000002#2DA654 R
(8061.974000) vcan0 00000001#2EA755 R
(8062.210000) vcan0 00000002#2FA856 R
(8062.450000) vcan0 00000001#30A957 R
(8062.694000) vcan0 00000002#31AA58 R
(8062.930000) vcan0 00000001#325559 R
(8063.166000) vcan0 00000002#33565A R
(8063.407000) vcan0 00000001#34575B R
(8063.651000) vcan0 00000002#35585C R
(8063.886000) vcan0 00000001#36595D R
(8064.122000) vcan0 00000002#375A5E R
(8064.360000) vcan0 00000001#385B5F R
(8064.596000) vcan0 00000002#395C60 R
(8064.840000) vcan0 00000001#3A5D61 R
(8065.075000) vcan0 00000002#3B5E62 R
(8065.317000) vcan0 00000001#3C5F63 R
(8065.553000) vcan0 00000002#3D6064 R
(8065.797000) vcan0 00000001#3E6165 R
(8066.032000) vcan0 00000002#3F6266 R
(8066.274000) vcan0 00000001#406367 R
(8066.510000) vcan0 00000002#416468 R
(8066.754000) vcan0 00000001#426569 R
(8066.990000) vcan0 00000002#43666A R
(8067.228000) vcan0 00000001#44676B R
(8067.463000) vcan0 00000002#45686C R
(8067.707000) vcan0 00000001#46696D R
(8067.943000) vcan0 00000002#476A6E R
(8068.179000) vcan0 00000001#486B6F R
(8068.421000) vcan0 00000002#496C70 R
(8068.665000) vcan0 00000001#4A6D71 R
(8068.900000) vcan0 00000002#4B6E72 R
(8069.136000) vcan0 00000001#4C6F73 R
(8069.374000) vcan0 00000002#4D7074 R
(8069.610000) vcan0 00000001#4E7175 R
(8069.854000) vcan0 00000002#4F7276 R
(8070.089000) vcan0 00000001#507377 R
(8070.327000) vcan0 00000002#517478 R
(8070.563000) vcan0 00000001#527579 R
(8070.807000) vcan0 00000002#53767A R
(8071.043000) vcan0 00000001#54777B R
(8071.285000) vcan0 00000002#00787C R
(8071.520000) vcan0 00000001#01797D R
(8071.764000) vcan0 00000002#027A7E R
(8072.000000) vcan0 00000001#037B7F R
(8072.242000) vcan0 00000002#047C80 R
(8072.477000) vcan0 00000001#057D81 R
(8072.721000) vcan0 00000002#067E82 R
(8072.957000) vcan0 00000001#077F83 R
(8073.193000) vcan0 00000002#088084 R
(8073.434000) vcan0 00000001#098185 R
(8073.678000) vcan0 00000002#0A8286 R
(8073.913000) vcan0 00000001#0B8387 R
(8074.149000) vcan0 00000002#0C8488 R
(8074.390000) vcan0 00000001#0D8589 R
(8074.626000) vcan0 00000002#0E868A R
(8074.870000) vcan0 00000001#0F878B R
(8075.106000) vcan0 00000002#10888C R
(8075.344000) vcan0 00000001#11898D R
(8075.580000) vcan0 00000002#128A8E R
(8075.823000) vcan0 00000001#138B8F R
(8076.059000) vcan0 00000002#148C90 R
(8076.301000) vcan0 00000001#158D91 R
(8076.536000) vcan0 00000002#168E92 R
(8076.780000) vcan0 00000001#178F93 R
(8077.016000) vcan0 00000002#189094 R
(8077.258000) vcan0 00000001#199195 R
(8077.493000) vcan0 00000002#1A9296 R
(8077.737000) vcan0 00000001#1B9397 R
(8077.973000) vcan0 00000002#1C9498 R
(8078.209000) vcan0 00000001#1D9599 R
(8078.450000) vcan0 00000002#1E969A R
(8078.694000) vcan0 00000001#1F979B R
(8078.930000) vcan0 00000002#20989C R
(8079.165000) vcan0 00000001#21999D R
(8079.407000) vcan0 00000002#229A9E R
(8079.651000) vcan0 00000001#239B9F R
(8079.886000) vcan0 00000002#249CA0 R
(8080.122000) vcan0 00000001#259DA1 R
(8080.360000) vcan0 00000002#269EA2 R
(8080.596000) vcan0 00000001#279FA3 R
(8080.840000) vcan0 00000002#28A0A4 R
(8081.075000) vcan0 00000001#29A1A5 R
(8081.317000) vcan0 00000002#2AA2A6 R
(8081.553000) vcan0 00000001#2BA3A7 R
(8081.797000) vcan0 00000002#2CA4A8 R
(8082.032000) vcan0 00000001#2DA5A9 R
(8082.274000) vcan0 00000002#2EA6AA R
(8082.510000) vcan0 00000001#2FA7AB R
(8082.754000) vcan0 00000002#30A8AC R
(8082.990000) vcan0 00000001#31A9AD R
(8083.228000) vcan0 00000002#32AAAE R
(8083.463000) vcan0 00000001#3355AF R
(8083.707000) vcan0 00000002#3456B0 R
(8083.943000) vcan0 00000001#3557B1 R
(8084.179000) vcan0 00000002#3658B2 R
(8084.421000) vcan0 00000001#3759B3 R
(8084.665000) vcan0 00000002#385AB4 R
(8084.900000) vcan0 00000001#395BB5 R
(8085.136000) vcan0 00000002#3A5CB6 R
(8085.374000) vcan0 00000001#3B5DB7 R
(8085.610000) vcan0 00000002#3C5EB8 R
(8085.854000) vcan0 00000001#3D5FB9 R
(8086.089000) vcan0 00000002#3E60BA R
(8086.328000) vcan0 00000001#3F61BB R
(8086.563000) vcan0 00000002#4062BC R
(8086.807000) vcan0 00000001#4163BD R
(8087.043000) vcan0 00000002#4264BE R
(8087.284000) vcan0 00000001#4365BF R
(8087.520000) vcan0 00000002#4466C0 R
(8087.764000) vcan0 00000001#4567C1 R
(8088.000000) vcan0 00000002#4668C2 R
(8088.241000) vcan0 00000001#4769C3 R
(8088.477000) vcan0 00000002#486AC4 R
(8088.721000) vcan0 00000001#496BC5 R
(8088.957000) vcan0 00000002#4A6CC6 R
(8089.193000) vcan0 00000001#4B6DC7 R
(8089.433000) vcan0 00000002#4C6EC8 R
(8089.677000) vcan0 00000001#4D6FC9 R
(8089.913000) vcan0 00000002#4E70CA R
(8090.149000) vcan0 00000001#4F71CB R
(8090.391000) vcan0 00000002#5072CC R
(8090.626000) vcan0 00000001#5173CD R
(8090.870000) vcan0 00000002#5274CE R
(8091.106000) vcan0 00000001#5375CF R
(8091.344000) vcan0 00000002#5476D0 R
(8091.580000) vcan0 00000001#0077D1 R
(8091.824000) vcan0 00000002#0178D2 R
(8092.059000) vcan0 00000001#0279D3 R
(8092.301000) vcan0 00000002#037AD4 R
(8092.537000) vcan0 00000001#047BD5 R
(8092.780000) vcan0 00000002#057CD6 R
(8093.016000) vcan0 00000001#067DD7 R
(8093.258000) vcan0 00000002#077ED8 R
(8093.494000) vcan0 00000001#087FD9 R
(8093.738000) vcan0 00000002#0980DA R
(8093.974000) vcan0 00000001#0A81DB R
(8094.210000) vcan0 00000002#0B82DC R
(8094.450000) vcan0 00000001#0C83DD R
(8094.694000) vcan0 00000002#0D84DE R
(8094.930000) vcan0 00000001#0E85DF R
(8095.166000) vcan0 00000002#0F86E0 R
(8095.407000) vcan0 00000001#1087E1 R
(8095.650000) vcan0 00000002#1188E2 R
(8095.886000) vcan0 00000001#1289E3 R
(8096.122000) vcan0 00000002#138AE4 R
(8096.360000) vcan0 00000001#148BE5 R
(8096.596000) vcan0 00000002#158CE6 R
(8096.840000) vcan0 00000001#168DE7 R
(8097.075000) vcan0 00000002#178EE8 R
(8097.317000) vcan0 00000001#188FE9 R
(8097.553000) vcan0 00000002#1990EA R
(8097.796000) vcan0 00000001#1A91EB R
(8098.032000) vcan0 00000002#1B92EC R
(8098.274000) vcan0 00000001#1C93ED R
(8098.510000) vcan0 00000002#1D94EE R
(8098.754000) vcan0 00000001#1E95EF R
(8098.990000) vcan0 00000002#1F96F0 R
(8099.228000) vcan0 00000001#2097F1 R
(8099.463000) vcan0 00000002#2198F2 R
(8099.707000) vcan0 00000001#2299F3 R
(8099.943000) vcan0 00000002#239AF4 R
(8100.179000) vcan0 00000001#249BF5 R
(8100.421000) vcan0 00000002#259CF6 R
(8100.665000) vcan0 00000001#269DF7 R
(8100.900000) vcan0 00000002#279EF8 R
(8101.136000) vcan0 00000001#289FF9 R
(8101.374000) vcan0 00000002#29A0FA R
(8101.610000) vcan0 00000001#2AA1FB R
(8101.854000) vcan0 00000002#2BA2FC R
(8102.089000) vcan0 00000001#2CA3FD R
(8102.328000) vcan0 00000002#2DA4FE R
(8102.563000) vcan0 00000001#2EA5FF R
(8102.807000) vcan0 00000002#2FA600 R
(8103.043000) vcan0 00000001#30A701 R
(8103.284000) vcan0 00000002#31A802 R
(8103.520000) vcan0 00000001#32A903 R
(8103.764000) vcan0 00000002#33AA04 R
(8104.000000) vcan0 00000001#345505 R
(8104.241000) vcan0 00000002#355606 R
(8104.477000) vcan0 00000001#365707 R
(8104.721000) vcan0 00000002#375808 R
(8104.957000) vcan0 00000001#385909 R
(8105.193000) vcan0 00000002#395A0A R
(8105.433000) vcan0 00000001#3A5B0B R
(8105.677000) vcan0 00000002#3B5C0C R
(8105.913000) vcan0 00000001#3C5D0D R
(8106.149000) vcan0 00000002#3D5E0E R
(8106.391000) vcan0 00000001#3E5F0F R
(8106.626000) vcan0 00000002#3F6010 R
(8106.870000) vcan0 00000001#406111 R
(8107.106000) vcan0 00000002#416212 R
(8107.344000) vcan0 00000001#426313 R
(8107.580000) vcan0 00000002#436414 R
(8107.824000) vcan0 00000001#446515 R
(8108.060000) vcan0 00000002#456616 R
(8108.301000) vcan0 00000001#466717 R
(8108.537000) vcan0 00000002#476818 R
(8108.780000) vcan0 00000001#486919 R
(8109.016000) vcan0 00000002#496A1A R
(8109.258000) vcan0 00000001#4A6B1B R
(8109.494000) vcan0 00000002#4B6C1C R
(8109.738000) vcan0 00000001#4C6D1D R
(8109.974000) vcan0 00000002#4D6E1E R
(8110.210000) vcan0 00000001#4E6F1F R
(8110.450000) vcan0 00000002#4F7020 R
(8110.694000) vcan0 00000001#507121 R
(8110.930000) vcan0 00000002#517222 R
(8111.165000) vcan0 00000001#527323 R
(8111.407000) vcan0 00000002#537424 R
(8111.650000) vcan0 00000001#547525 R
(8111.886000) vcan0 00000002#007626 R
(8112.122000) vcan0 00000001#017727 R
(8112.360000) vcan0 00000002#027828 R
(8112.596000) vcan0 00000001#037929 R
(8112.840000) vcan0 00000002#047A2A R
(8113.076000) vcan0 00000001#057B2B R
(8113.318000) vcan0 00000002#067C2C R
(8113.553000) vcan0 00000001#077D2D R
(8113.797000) vcan0 00000002#087E2E R
(8114.033000) vcan0 00000001#097F2F R
(8114.274000) vcan0 00000002#0A8030 R
(8114.509000) vcan0 00000001#0B8131 R
(8114.753000) vcan0 00000002#0C8232 R
(8114.989000) vcan0 00000001#0D8333 R
(8115.228000) vcan0 00000002#0E8434 R
(8115.463000) vcan0 00000001#0F8535 R
(8115.707000) vcan0 00000002#108636 R
(8115.943000) vcan0 00000001#118737 R
(8116.179000) vcan0 00000002#128838 R
(8116.421000) vcan0 00000001#138939 R
(8116.665000) vcan0 00000002#148A3A R
(8116.900000) vcan0 00000001#158B3B R
(8117.136000) vcan0 00000002#168C3C R
(8117.374000) vcan0 00000001#178D3D R
(8117.610000) vcan0 00000002#188E3E R
(8117.854000) vcan0 00000001#198F3F R
(8118.089000) vcan0 00000002#1A9040 R
(8118.328000) vcan0 00000001#1B9141 R
(8118.563000) vcan0 00000002#1C9242 R
(8118.807000) vcan0 00000001#1D9343 R
(8119.043000) vcan0 00000002#1E9444 R
(8119.284000) vcan0 00000001#1F9545 R
(8119.520000) vcan0 00000002#209646 R
(8119.764000) vcan0 00000001#219747 R
(8120.000000) vcan0 00000002#229848 R
(8120.241000) vcan0 00000001#239949 R
(8120.477000) vcan0 00000002#249A4A R
(8120.721000) vcan0 00000001#259B4B R
(8120.957000) vcan0 00000002#269C4C R
(8121.193000) vcan0 00000001#279D4D R
(8121.433000) vcan0 00000002#289E4E R
(8121.677000) vcan0 00000001#299F4F R
(8121.913000) vcan0 00000002#2AA050 R
(8122.149000) vcan0 00000001#2BA151 R
(8122.391000) vcan0 00000002#2CA252 R
(8122.626000) vcan0 00000001#2DA353 R
(8122.870000) vcan0 00000002#2EA454 R
(8123.106000) vcan0 00000001#2FA555 R
(8123.344000) vcan0 00000002#30A656 R
(8123.580000) vcan0 00000001#31A757 R
(8123.824000) vcan0 00000002#32A858 R
(8124.060000) vcan0 00000001#33A959 R
(8124.301000) vcan0 00000002#34AA5A R
(8124.537000) vcan0 00000001#35555B R
(8124.780000) vcan0 00000002#36565C R
(8125.016000) vcan0 00000001#37575D R
(8125.258000) vcan0 00000002#38585E R
(8125.494000) vcan0 00000001#39595F R
(8125.738000) vcan0 00000002#3A5A60 R
(8125.974000) vcan0 00000001#3B5B61 R
(8126.210000) vcan0 00000002#3C5C62 R
(8126.450000) vcan0 00000001#3D5D63 R
(8126.694000) vcan0 00000002#3E5E64 R
(8126.930000) vcan0 00000001#3F5F65 R
(8127.166000) vcan0 00000002#406066 R
(8127.407000) vcan0 00000001#416167 R
(8127.651000) vcan0 00000002#426268 R
(8127.886000) vcan0 00000001#436369 R
(8128.122000) vcan0 00000002#44646A R
(8128.360000) vcan0 00000001#45656B R
(8128.596000) vcan0 00000002#46666C R
(8128.840000) vcan0 00000001#47676D R
(8129.075000) vcan0 00000002#48686E R
(8129.317000) vcan0 00000001#49696F R
(8129.553000) vcan0 00000002#4A6A70 R
(8129.797000) vcan0 00000001#4B6B71 R
(8130.032000) vcan0 00000002#4C6C72 R
(8130.274000) vcan0 00000001#4D6D73 R
(8130.510000) vcan0 00000002#4E6E74 R
(8130.754000) vcan0 00000001#4F6F75 R
(8130.990000) vcan0 00000002#507076 R
(8131.228000) vcan0 00000001#517177 R
(8131.463000) vcan0 00000002#527278 R
(8131.707000) vcan0 00000001#537379 R
(8131.943000) vcan0 00000002#54747A R
(8132.179000) vcan0 00000001#00757B R
(8132.421000) vcan0 00000002#01767C R
(8132.665000) vcan0 00000001#02777D R
(8132.900000) vcan0 00000002#03787E R
(8133.136000) vcan0 00000001#04797F R
(8133.374000) vcan0 00000002#057A80 R
(8133.610000) vcan0 00000001#067B81 R
(8133.854000) vcan0 00000002#077C82 R
(8134.089000) vcan0 00000001#087D83 R
(8134.328000) vcan0 00000002#097E84 R
(8134.563000) vcan0 00000001#0A7F85 R
(8134.807000) vcan0 00000002#0B8086 R
(8135.043000) vcan0 00000001#0C8187 R
(8135.284000) vcan0 00000002#0D8288 R
(8135.520000) vcan0 00000001#0E8389 R
(8135.764000) vcan0 00000002#0F848A R
(8136.000000) vcan0 00000001#10858B R
(8136.241000) vcan0 00000002#11868C R
(8136.477000) vcan0 00000001#12878D R
(8136.721000) vcan0 00000002#13888E R
(8136.957000) vcan0 00000001#14898F R
(8137.193000) vcan0 00000002#158A90 R
(8137.433000) vcan0 00000001#168B91 R
(8137.677000) vcan0 00000002#178C92 R
(8137.913000) vcan0 00000001#188D93 R
(8138.149000) vcan0 00000002#198E94 R
(8138.391000) vcan0 00000001#1A8F95 R
(8138.626000) vcan0 00000002#1B9096 R
(8138.870000) vcan0 00000001#1C9197 R
(8139.106000) vcan0 00000002#1D9298 R
(8139.344000) vcan0 00000001#1E9399 R
(8139.580000) vcan0 00000002#1F949A R
(8139.823000) vcan0 00000001#20959B R
(8140.059000) vcan0 00000002#21969C R
(8140.301000) vcan0 00000001#22979D R
(8140.536000) vcan0 00000002#23989E R
(8140.780000) vcan0 00000001#24999F R
(8141.016000) vcan0 00000002#259AA0 R
(8141.258000) vcan0 00000001#269BA1 R
(8141.493000) vcan0 00000002#279CA2 R
(8141.737000) vcan0 00000001#289DA3 R
(8141.973000) vcan0 00000002#299EA4 R
(8142.209000) vcan0 00000001#2A9FA5 R
(8142.450000) vcan0 00000002#2BA0A6 R
(8142.694000) vcan0 00000001#2CA1A7 R
(8142.930000) vcan0 00000002#2DA2A8 R
(8143.165000) vcan0 00000001#2EA3A9 R
(8143.407000) vcan0 00000002#2FA4AA R
(8143.651000) vcan0 00000001#30A5AB R
(8143.886000) vcan0 00000002#31A6AC R
(8144.122000) vcan0 00000001#32A7AD R
(8144.360000) vcan0 00000002#33A8AE R
(8144.596000) vcan0 00000001#34A9AF R
(8144.840000) vcan0 00000002#35AAB0 R
(8145.075000) vcan0 00000001#3655B1 R
(8145.317000) vcan0 00000002#3756B2 R
(8145.553000) vcan0 00000001#3857B3 R
(8145.797000) vcan0 00000002#3958B4 R
(8146.032000) vcan0 00000001#3A59B5 R
(8146.274000) vcan0 00000002#3B5AB6 R
(8146.510000) vcan0 00000001#3C5BB7 R
(8146.754000) vcan0 00000002#3D5CB8 R
(8146.990000) vcan0 00000001#3E5DB9 R
(8147.228000) vcan0 00000002#3F5EBA R
(8147.463000) vcan0 00000001#405FBB R
(8147.707000) vcan0 00000002#4160BC R
(8147.943000) vcan0 00000001#4261BD R
(8148.179000) vcan0 00000002#4362BE R
(8148.421000) vcan0 00000001#4463BF R
(8148.665000) vcan0 00000002#4564C0 R
(8148.900000) vcan0 00000001#4665C1 R
(8149.136000) vcan0 00000002#4766C2 R
(8149.374000) vcan0 00000001#4867C3 R
(8149.610000) vcan0 00000002#4968C4 R
(8149.854000) vcan0 00000001#4A69C5 R
(8150.089000) vcan0 00000002#4B6AC6 R
(8150.328000) vcan0 00000001#4C6BC7 R
(8150.563000) vcan0 00000002#4D6CC8 R
(8150.807000) vcan0 00000001#4E6DC9 R
(8151.043000) vcan0 00000002#4F6ECA R
(8151.284000) vcan0 00000001#506FCB R
(8151.520000) vcan0 00000002#5170CC R
(8151.764000) vcan0 00000001#5271CD R
(8152.000000) vcan0 00000002#5372CE R
(8152.241000) vcan0 00000001#5473CF R
(8152.477000) vcan0 00000002#0074D0 R
(8152.721000) vcan0 00000001#0175D1 R
(8152.957000) vcan0 00000002#0276D2 R
(8153.193000) vcan0 00000001#0377D3 R
(8153.433000) vcan0 00000002#0478D4 R
(8153.677000) vcan0 00000001#0579D5 R
(8153.913000) vcan0 00000002#067AD6 R
(8154.149000) vcan0 00000001#077BD7 R
(8154.391000) vcan0 00000002#087CD8 R
(8154.626000) vcan0 00000001#097DD9 R
(8154.870000) vcan0 00000002#0A7EDA R
(8155.106000) vcan0 00000001#0B7FDB R
(8155.344000) vcan0 00000002#0C80DC R
(8155.580000) vcan0 00000001#0D81DD R
(8155.824000) vcan0 00000002#0E82DE R
(8156.060000) vcan0 00000001#0F83DF R
(8156.301000) vcan0 00000002#1084E0 R
(8156.537000) vcan0 00000001#1185E1 R
(8156.780000) vcan0 00000002#1286E2 R
(8157.016000) vcan0 00000001#1387E3 R
(8157.258000) vcan0 00000002#1488E4 R
(8157.494000) vcan0 00000001#1589E5 R
(8157.738000) vcan0 00000002#168AE6 R
(8157.974000) vcan0 00000001#178BE7 R
(8158.210000) vcan0 00000002#188CE8 R
(8158.450000) vcan0 00000001#198DE9 R
(8158.694000) vcan0 00000002#1A8EEA R
(8158.930000) vcan0 00000001#1B8FEB R
(8159.166000) vcan0 00000002#1C90EC R
(8159.407000) vcan0 00000001#1D91ED R
(8159.651000) vcan0 00000002#1E92EE R
(8159.886000) vcan0 00000001#1F93EF R
(8160.122000) vcan0 00000002#2094F0 R
(8160.360000) vcan0 00000001#2195F1 R
(8160.596000) vcan0 00000002#2296F2 R
(8160.840000) vcan0 00000001#2397F3 R
(8161.075000) vcan0 00000002#2498F4 R
(8161.317000) vcan0 00000001#2599F5 R
(8161.553000) vcan0 00000002#269AF6 R
(8161.797000) vcan0 00000001#279BF7 R
(8162.032000) vcan0 00000002#289CF8 R
(8162.274000) vcan0 00000001#299DF9 R
(8162.510000) vcan0 00000002#2A9EFA R
(8162.754000) vcan0 00000001#2B9FFB R
(8162.990000) vcan0 00000002#2CA0FC R
(8163.228000) vcan0 00000001#2DA1FD R
(8163.463000) vcan0 00000002#2EA2FE R
(8163.707000) vcan0 00000001#2FA3FF R
(8163.943000) vcan0 00000002#30A400 R
(8164.179000) vcan0 00000001#31A501 R
(8164.421000) vcan0 00000002#32A602 R
(8164.665000) vcan0 00000001#33A703 R
(8164.900000) vcan0 00000002#34A804 R
(8165.136000) vcan0 00000001#35A905 R
(8165.374000) vcan0 00000002#36AA06 R
(8165.610000) vcan0 00000001#375507 R
(8165.854000) vcan0 00000002#385608 R
(8166.089000) vcan0 00000001#395709 R
(8166.327000) vcan0 00000002#3A580A R
(8166.563000) vcan0 00000001#3B590B R
(8166.807000) vcan0 00000002#3C5A0C R
(8167.043000) vcan0 00000001#3D5B0D R
(8167.285000) vcan0 00000002#3E5C0E R
(8167.520000) vcan0 00000001#3F5D0F R
(8167.764000) vcan0 00000002#405E10 R
(8168.000000) vcan0 00000001#415F11 R
(8168.242000) vcan0 00000002#426012 R
(8168.477000) vcan0 00000001#436113 R
(8168.721000) vcan0 00000002#446214 R
(8168.957000) vcan0 00000001#456315 R
(8169.193000) vcan0 00000002#466416 R
(8169.434000) vcan0 00000001#476517 R
(8169.678000) vcan0 00000002#486618 R
(8169.913000) vcan0 00000001#496719 R
(8170.149000) vcan0 00000002#4A681A R
(8170.390000) vcan0 00000001#4B691B R
(8170.626000) vcan0 00000002#4C6A1C R
(8170.870000) vcan0 00000001#4D6B1D R
(8171.106000) vcan0 00000002#4E6C1E R
(8171.343000) vcan0 00000001#4F6D1F R
(8171.579000) vcan0 00000002#506E20 R
(8171.823000) vcan0 00000001#516F21 R
(8172.059000) vcan0 00000002#527022 R
(8172.301000) vcan0 00000001#537123 R
(8172.536000) vcan0 00000002#547224 R
(8172.780000) vcan0 00000001#007325 R
(8173.016000) vcan0 00000002#017426 R
(8173.258000) vcan0 00000001#027527 R
(8173.493000) vcan0 00000002#037628 R
(8173.737000) vcan0 00000001#047729 R
(8173.973000) vcan0 00000002#05782A R
(8174.210000) vcan0 00000001#06792B R
(8174.450000) vcan0 00000002#077A2C R
(8174.694000) vcan0 00000001#087B2D R
(8174.930000) vcan0 00000002#097C2E R
(8175.165000) vcan0 00000001#0A7D2F R
(8175.407000) vcan0 00000002#0B7E30 R
(8175.650000) vcan0 00000001#0C7F31 R
(8175.886000) vcan0 00000002#0D8032 R
(8176.122000) vcan0 00000001#0E8133 R
(8176.360000) vcan0 00000002#0F8234 R
(8176.596000) vcan0 00000001#108335 R
(8176.840000) vcan0 00000002#118436 R
(8177.075000) vcan0 00000001#128537 R
(8177.317000) vcan0 00000002#138638 R
(8177.553000) vcan0 00000001#148739 R
(8177.797000) vcan0 00000002#15883A R
(8178.032000) vcan0 00000001#16893B R
(8178.274000) vcan0 00000002#178A3C R
(8178.510000) vcan0 00000001#188B3D R
(8178.754000) vcan0 00000002#198C3E R
(8178.990000) vcan0 00000001#1A8D3F R
(8179.228000) vcan0 00000002#1B8E40 R
(8179.463000) vcan0 00000001#1C8F41 R
(8179.707000) vcan0 00000002#1D9042 R
(8179.943000) vcan0 00000001#1E9143 R
(8180.179000) vcan0 00000002#1F9244 R
(8180.421000) vcan0 00000001#209345 R
(8180.665000) vcan0 00000002#219446 R
(8180.900000) vcan0 00000001#229547 R
(8181.136000) vcan0 00000002#239648 R
(8181.374000) vcan0 00000001#249749 R
(8181.610000) vcan0 00000002#25984A R
(8181.854000) vcan0 00000001#26994B R
(8182.089000) vcan0 00000002#279A4C R
(8182.328000) vcan0 00000001#289B4D R
(8182.563000) vcan0 00000002#299C4E R
(8182.807000) vcan0 00000001#2A9D4F R
(8183.043000) vcan0 00000002#2B9E50 R
(8183.284000) vcan0 00000001#2C9F51 R
(8183.520000) vcan0 00000002#2DA052 R
(8183.764000) vcan0 00000001#2EA153 R
(8184.000000) vcan0 00000002#2FA254 R
(8184.241000) vcan0 00000001#30A355 R
(8184.477000) vcan0 00000002#31A456 R
(8184.721000) vcan0 00000001#32A557 R
(8184.957000) vcan0 00000002#33A658 R
(8185.193000) vcan0 00000001#34A759 R
(8185.433000) vcan0 00000002#35A85A R
(8185.677000) vcan0 00000001#36A95B R
(8185.913000) vcan0 00000002#37AA5C R
(8186.149000) vcan0 00000001#38555D R
(8186.391000) vcan0 00000002#39565E R
(8186.626000) vcan0 00000001#3A575F R
(8186.870000) vcan0 00000002#3B5860 R
(8187.106000) vcan0 00000001#3C5961 R
(8187.344000) vcan0 00000002#3D5A62 R
(8187.580000) vcan0 00000001#3E5B63 R
(8187.824000) vcan0 00000002#3F5C64 R
(8188.060000) vcan0 00000001#405D65 R
(8188.301000) vcan0 00000002#415E66 R
(8188.537000) vcan0 00000001#425F67 R
(8188.780000) vcan0 00000002#436068 R
(8189.016000) vcan0 00000001#446169 R
(8189.258000) vcan0 00000002#45626A R
(8189.494000) vcan0 00000001#46636B R
(8189.738000) vcan0 00000002#47646C R
(8189.974000) vcan0 00000001#48656D R
(8190.210000) vcan0 00000002#49666E R
(8190.450000) vcan0 00000001#4A676F R
(8190.694000) vcan0 00000002#4B6870 R
(8190.930000) vcan0 00000001#4C6971 R
(8191.166000) vcan0 00000002#4D6A72 R
(8191.407000) vcan0 00000001#4E6B73 R
(8191.651000) vcan0 00000002#4F6C74 R
(8191.886000) vcan0 00000001#506D75 R
(8192.122000) vcan0 00000002#516E76 R
(8192.360000) vcan0 00000001#526F77 R
(8192.596000) vcan0 00000002#537078 R
(8192.840000) vcan0 00000001#547179 R
(8193.075000) vcan0 00000002#00727A R
(8193.317000) vcan0 00000001#01737B R
(8193.553000) vcan0 00000002#02747C R
(8193.797000) vcan0 00000001#03757D R
(8194.032000) vcan0 00000002#04767E R
(8194.274000) vcan0 00000001#05777F R
(8194.510000) vcan0 00000002#067880 R
(8194.754000) vcan0 00000001#077981 R
(8194.990000) vcan0 00000002#087A82 R
(8195.228000) vcan0 00000001#097B83 R
(8195.463000) vcan0 00000002#0A7C84 R
(8195.707000) vcan0 00000001#0B7D85 R
(8195.943000) vcan0 00000002#0C7E86 R
(8196.179000) vcan0 00000001#0D7F87 R
(8196.421000) vcan0 00000002#0E8088 R
(8196.665000) vcan0 00000001#0F8189 R
(8196.900000) vcan0 00000002#10828A R
(8197.136000) vcan0 00000001#11838B R
(8197.374000) vcan0 00000002#12848C R
(8197.610000) vcan0 00000001#13858D R
(8197.854000) vcan0 00000002#14868E R
(8198.089000) vcan0 00000001#15878F R
(8198.327000) vcan0 00000002#168890 R
(8198.563000) vcan0 00000001#178991 R
(8198.807000) vcan0 00000002#188A92 R
(8199.043000) vcan0 00000001#198B93 R
(8199.285000) vcan0 00000002#1A8C94 R
(8199.520000) vcan0 00000001#1B8D95 R
(8199.764000) vcan0 00000002#1C8E96 R
(8200.000000) vcan0 00000001#1D8F97 R
(8200.242000) vcan0 00000002#1E9098 R
(8200.477000) vcan0 00000001#1F9199 R
(8200.721000) vcan0 00000002#20929A R
(8200.957000) vcan0 00000001#21939B R
(8201.193000) vcan0 00000002#22949C R
(8201.434000) vcan0 00000001#23959D R
(8201.678000) vcan0 00000002#24969E R
(8201.913000) vcan0 00000001#25979F R
(8202.149000) vcan0 00000002#2698A0 R
(8202.390000) vcan0 00000001#2799A1 R
(8202.626000) vcan0 00000002#289AA2 R
(8202.870000) vcan0 00000001#299BA3 R
(8203.106000) vcan0 00000002#2A9CA4 R
(8203.344000) vcan0 00000001#2B9DA5 R
(8203.580000) vcan0 00000002#2C9EA6 R
(8203.823000) vcan0 00000001#2D9FA7 R
(8204.059000) vcan0 00000002#2EA0A8 R
(8204.301000) vcan0 00000001#2FA1A9 R
(8204.536000) vcan0 00000002#30A2AA R
(8204.780000) vcan0 00000001#31A3AB R
(8205.016000) vcan0 00000002#32A4AC R
(8205.258000) vcan0 00000001#33A5AD R
(8205.493000) vcan0 00000002#34A6AE R
(8205.737000) vcan0 00000001#35A7AF R
(8205.973000) vcan0 00000002#36A8B0 R
(8206.209000) vcan0 00000001#37A9B1 R
(8206.450000) vcan0 00000002#38AAB2 R
(8206.694000) vcan0 00000001#3955B3 R
(8206.930000) vcan0 00000002#3A56B4 R
(8207.165000) vcan0 00000001#3B57B5 R
(8207.407000) vcan0 00000002#3C58B6 R
(8207.650000) vcan0 00000001#3D59B7 R
(8207.886000) vcan0 00000002#3E5AB8 R
(8208.122000) vcan0 00000001#3F5BB9 R
(8208.360000) vcan0 00000002#405CBA R
(8208.596000) vcan0 00000001#415DBB R
(8208.840000) vcan0 00000002#425EBC R
(8209.075000) vcan0 00000001#435FBD R
(8209.317000) vcan0 00000002#4460BE R
(8209.553000) vcan0 00000001#4561BF R
(8209.797000) vcan0 00000002#4662C0 R
(8210.032000) vcan0 00000001#4763C1 R
(8210.274000) vcan0 00000002#4864C2 R
(8210.510000) vcan0 00000001#4965C3 R
(8210.754000) vcan0 00000002#4A66C4 R
(8210.990000) vcan0 00000001#4B67C5 R
(8211.228000) vcan0 00000002#4C68C6 R
(8211.463000) vcan0 00000001#4D69C7 R
(8211.707000) vcan0 00000002#4E6AC8 R
(8211.943000) vcan0 00000001#4F6BC9 R
(8212.179000) vcan0 00000002#506CCA R
(8212.421000) vcan0 00000001#516DCB R
(8212.665000) vcan0 00000002#526ECC R
(8212.900000) vcan0 00000001#536FCD R
(8213.136000) vcan0 00000002#5470CE R
(8213.374000) vcan0 00000001#0071CF R
(8213.610000) vcan0 00000002#0172D0 R
(8213.854000) vcan0 00000001#0273D1 R
(8214.089000) vcan0 00000002#0374D2 R
(8214.328000) vcan0 00000001#0475D3 R
(8214.563000) vcan0 00000002#0576D4 R
(8214.807000) vcan0 00000001#0677D5 R
(8215.043000) vcan0 00000002#0778D6 R
(8215.284000) vcan0 00000001#0879D7 R
(8215.520000) vcan0 00000002#097AD8 R
(8215.764000) vcan0 00000001#0A7BD9 R
(8216.000000) vcan0 00000002#0B7CDA R
(8216.241000) vcan0 00000001#0C7DDB R
(8216.477000) vcan0 00000002#0D7EDC R
(8216.721000) vcan0 00000001#0E7FDD R
(8216.957000) vcan0 00000002#0F80DE R
(8217.193000) vcan0 00000001#1081DF R
(8217.433000) vcan0 00000002#1182E0 R
(8217.677000) vcan0 00000001#1283E1 R
(8217.913000) vcan0 00000002#1384E2 R
(8218.149000) vcan0 00000001#1485E3 R
(8218.391000) vcan0 00000002#1586E4 R
(8218.626000) vcan0 00000001#1687E5 R
(8218.870000) vcan0 00000002#1788E6 R
(8219.106000) vcan0 00000001#1889E7 R
(8219.344000) vcan0 00000002#198AE8 R
(8219.580000) vcan0 00000001#1A8BE9 R
(8219.824000) vcan0 00000002#1B8CEA R
(8220.060000) vcan0 00000001#1C8DEB R
(8220.301000) vcan0 00000002#1D8EEC R
(8220.537000) vcan0 00000001#1E8FED R
(8220.780000) vcan0 00000002#1F90EE R
(8221.016000) vcan0 00000001#2091EF R
(8221.258000) vcan0 00000002#2192F0 R
(8221.494000) vcan0 00000001#2293F1 R
(8221.738000) vcan0 00000002#2394F2 R
(8221.974000) vcan0 00000001#2495F3 R
(8222.210000) vcan0 00000002#2596F4 R
(8222.450000) vcan0 00000001#2697F5 R
(8222.694000) vcan0 00000002#2798F6 R
(8222.930000) vcan0 00000001#2899F7 R
(8223.166000) vcan0 00000002#299AF8 R
(8223.407000) vcan0 00000001#2A9BF9 R
(8223.651000) vcan0 00000002#2B9CFA R
(8223.886000) vcan0 00000001#2C9DFB R
(8224.122000) vcan0 00000002#2D9EFC R
(8224.360000) vcan0 00000001#2E9FFD R
(8224.596000) vcan0 00000002#2FA0FE R
(8224.840000) vcan0 00000001#30A1FF R
(8225.075000) vcan0 00000002#31A200 R
(8225.317000) vcan0 00000001#32A301 R
(8225.553000) vcan0 00000002#33A402 R
(8225.797000) vcan0 00000001#34A503 R
(8226.032000) vcan0 00000002#35A604 R
(8226.274000) vcan0 00000001#36A705 R
(8226.510000) vcan0 00000002#37A806 R
(8226.754000) vcan0 00000001#38A907 R
(8226.990000) vcan0 00000002#39AA08 R
(8227.228000) vcan0 00000001#3A5509 R
(8227.463000) vcan0 00000002#3B560A R
(8227.707000) vcan0 00000001#3C570B R
(8227.943000) vcan0 00000002#3D580C R
(8228.179000) vcan0 00000001#3E590D R
(8228.421000) vcan0 00000002#3F5A0E R
(8228.665000) vcan0 00000001#405B0F R
(8228.900000) vcan0 00000002#415C10 R
(8229.136000) vcan0 00000001#425D11 R
(8229.374000) vcan0 00000002#435E12 R
(8229.610000) vcan0 00000001#445F13 R
(8229.854000) vcan0 00000002#456014 R
(8230.089000) vcan0 00000001#466115 R
(8230.328000) vcan0 00000002#476216 R
(8230.563000) vcan0 00000001#486317 R
(8230.807000) vcan0 00000002#496418 R
(8231.043000) vcan0 00000001#4A6519 R
(8231.284000) vcan0 00000002#4B661A R
(8231.520000) vcan0 00000001#4C671B R
(8231.764000) vcan0 00000002#4D681C R
(8232.000000) vcan0 00000001#4E691D R
(8232.241000) vcan0 00000002#4F6A1E R
(8232.477000) vcan0 00000001#506B1F R
(8232.721000) vcan0 00000002#516C20 R
(8232.957000) vcan0 00000001#526D21 R
(8233.193000) vcan0 00000002#536E22 R
(8233.433000) vcan0 00000001#546F23 R
(8233.677000) vcan0 00000002#007024 R
(8233.913000) vcan0 00000001#017125 R
(8234.149000) vcan0 00000002#027226 R
(8234.391000) vcan0 00000001#037327 R
(8234.626000) vcan0 00000002#047428 R
(8234.870000) vcan0 00000001#057529 R
(8235.106000) vcan0 00000002#06762A R
(8235.344000) vcan0 00000001#07772B R
(8235.580000) vcan0 00000002#08782C R
(8235.824000) vcan0 00000001#09792D R
(8236.060000) vcan0 00000002#0A7A2E R
(8236.301000) vcan0 00000001#0B7B2F R
(8236.537000) vcan0 00000002#0C7C30 R
(8236.780000) vcan0 00000001#0D7D31 R
(8237.016000) vcan0 00000002#0E7E32 R
(8237.258000) vcan0 00000001#0F7F33 R
(8237.494000) vcan0 00000002#108034 R
(8237.738000) vcan0 00000001#118135 R
(8237.974000) vcan0 00000002#128236 R
(8238.210000) vcan0 00000001#138337 R
(8238.450000) vcan0 00000002#148438 R
(8238.694000) vcan0 00000001#158539 R
(8238.930000) vcan0 00000002#16863A R
(8239.165000) vcan0 00000001#17873B R
(8239.407000) vcan0 00000002#18883C R
(8239.650000) vcan0 00000001#19893D R
(8239.886000) vcan0 00000002#1A8A3E R
(8240.122000) vcan0 00000001#1B8B3F R
(8240.360000) vcan0 00000002#1C8C40 R
(8240.596000) vcan0 00000001#1D8D41 R
(8240.840000) vcan0 00000002#1E8E42 R
(8241.075000) vcan0 00000001#1F8F43 R
(8241.317000) vcan0 00000002#209044 R
(8241.553000) vcan0 00000001#219145 R
(8241.797000) vcan0 00000002#229246 R
(8242.032000) vcan0 00000001#239347 R
(8242.274000) vcan0 00000002#249448 R
(8242.510000) vcan0 00000001#259549 R
(8242.754000) vcan0 00000002#26964A R
(8242.990000) vcan0 00000001#27974B R
(8243.228000) vcan0 00000002#28984C R
(8243.463000) vcan0 00000001#29994D R
(8243.707000) vcan0 00000002#2A9A4E R
(8243.943000) vcan0 00000001#2B9B4F R
(8244.179000) vcan0 00000002#2C9C50 R
(8244.421000) vcan0 00000001#2D9D51 R
(8244.665000) vcan0 00000002#2E9E52 R
(8244.900000) vcan0 00000001#2F9F53 R
(8245.136000) vcan0 00000002#30A054 R
(8245.374000) vcan0 00000001#31A155 R
(8245.610000) vcan0 00000002#32A256 R
(8245.854000) vcan0 00000001#33A357 R
(8246.089000) vcan0 00000002#34A458 R
(8246.328000) vcan0 00000001#35A559 R
(8246.563000) vcan0 00000002#36A65A R
(8246.807000) vcan0 00000001#37A75B R
(8247.043000) vcan0 00000002#38A85C R
(8247.284000) vcan0 00000001#39A95D R
(8247.520000) vcan0 00000002#3AAA5E R
(8247.764000) vcan0 00000001#3B555F R
(8248.000000) vcan0 00000002#3C5660 R
(8248.241000) vcan0 00000001#3D5761 R
(8248.477000) vcan0 00000002#3E5862 R
(8248.721000) vcan0 00000001#3F5963 R
(8248.957000) vcan0 00000002#405A64 R
(8249.193000) vcan0 00000001#415B65 R
(8249.433000) vcan0 00000002#425C66 R
(8249.677000) vcan0 00000001#435D67 R
(8249.913000) vcan0 00000002#445E68 R
(8250.149000) vcan0 00000001#455F69 R
(8250.391000) vcan0 00000002#46606A R
(8250.626000) vcan0 00000001#47616B R
(8250.870000) vcan0 00000002#48626C R
(8251.106000) vcan0 00000001#49636D R
(8251.344000) vcan0 00000002#4A646E R
(8251.580000) vcan0 00000001#4B656F R
(8251.824000) vcan0 00000002#4C6670 R
(8252.060000) vcan0 00000001#4D6771 R
(8252.301000) vcan0 00000002#4E6872 R
(8252.537000) vcan0 00000001#4F6973 R
(8252.780000) vcan0 00000002#506A74 R
(8253.016000) vcan0 00000001#516B75 R
(8253.258000) vcan0 00000002#526C76 R
(8253.494000) vcan0 00000001#536D77 R
(8253.738000) vcan0 00000002#546E78 R
(8253.974000) vcan0 00000001#006F79 R
(8254.210000) vcan0 00000002#01707A R
(8254.450000) vcan0 00000001#02717B R
(8254.694000) vcan0 00000002#03727C R
(8254.930000) vcan0 00000001#04737D R
(8255.166000) vcan0 00000002#05747E R
(8255.407000) vcan0 00000001#06757F R
(8255.650000) vcan0 00000002#077680 R
(8255.886000) vcan0 00000001#087781 R
(8256.122000) vcan0 00000002#097882 R
(8256.360000) vcan0 00000001#0A7983 R
(8256.596000) vcan0 00000002#0B7A84 R
(8256.840000) vcan0 00000001#0C7B85 R
(8257.075000) vcan0 00000002#0D7C86 R
(8257.317000) vcan0 00000001#0E7D87 R
(8257.553000) vcan0 00000002#0F7E88 R
(8257.797000) vcan0 00000001#107F89 R
(8258.032000) vcan0 00000002#11808A R
(8258.274000) vcan0 00000001#12818B R
(8258.510000) vcan0 00000002#13828C R
(8258.754000) vcan0 00000001#14838D R
(8258.990000) vcan0 00000002#15848E R
(8259.228000) vcan0 00000001#16858F R
(8259.463000) vcan0 00000002#178690 R
(8259.707000) vcan0 00000001#188791 R
(8259.943000) vcan0 00000002#198892 R
(8260.179000) vcan0 00000001#1A8993 R
(8260.421000) vcan0 00000002#1B8A94 R
(8260.665000) vcan0 00000001#1C8B95 R
(8260.900000) vcan0 00000002#1D8C96 R
(8261.136000) vcan0 00000001#1E8D97 R
(8261.374000) vcan0 00000002#1F8E98 R
(8261.610000) vcan0 00000001#208F99 R
(8261.854000) vcan0 00000002#21909A R
(8262.089000) vcan0 00000001#22919B R
(8262.328000) vcan0 00000002#23929C R
(8262.563000) vcan0 00000001#24939D R
(8262.807000) vcan0 00000002#25949E R
(8263.043000) vcan0 00000001#26959F R
(8263.284000) vcan0 00000002#2796A0 R
(8263.520000) vcan0 00000001#2897A1 R
(8263.764000) vcan0 00000002#2998A2 R
(8264.000000) vcan0 00000001#2A99A3 R
(8264.241000) vcan0 00000002#2B9AA4 R
(8264.477000) vcan0 00000001#2C9BA5 R
(8264.721000) vcan0 00000002#2D9CA6 R
(8264.957000) vcan0 00000001#2E9DA7 R
(8265.193000) vcan0 00000002#2F9EA8 R
(8265.433000) vcan0 00000001#309FA9 R
(8265.677000) vcan0 00000002#31A0AA R
(8265.913000) vcan0 00000001#32A1AB R
(8266.149000) vcan0 00000002#33A2AC R
(8266.391000) vcan0 00000001#34A3AD R
(8266.626000) vcan0 00000002#35A4AE R
(8266.870000) vcan0 00000001#36A5AF R
(8267.106000) vcan0 00000002#37A6B0 R
(8267.344000) vcan0 00000001#38A7B1 R
(8267.580000) vcan0 00000002#39A8B2 R
(8267.823000) vcan0 00000001#3AA9B3 R
(8268.059000) vcan0 00000002#3BAAB4 R
(8268.301000) vcan0 00000001#3C55B5 R
(8268.536000) vcan0 00000002#3D56B6 R
(8268.780000) vcan0 00000001#3E57B7 R
(8269.016000) vcan0 00000002#3F58B8 R
(8269.258000) vcan0 00000001#4059B9 R
(8269.493000) vcan0 00000002#415ABA R
(8269.737000) vcan0 00000001#425BBB R
(8269.973000) vcan0 00000002#435CBC R
(8270.210000) vcan0 00000001#445DBD R
(8270.450000) vcan0 00000002#455EBE R
(8270.694000) vcan0 00000001#465FBF R
(8270.930000) vcan0 00000002#4760C0 R
(8271.165000) vcan0 00000001#4861C1 R
(8271.407000) vcan0 00000002#4962C2 R
(8271.651000) vcan0 00000001#4A63C3 R
(8271.886000) vcan0 00000002#4B64C4 R
(8272.122000) vcan0 00000001#4C65C5 R
(8272.360000) vcan0 00000002#4D66C6 R
(8272.596000) vcan0 00000001#4E67C7 R
(8272.839000) vcan0 00000002#4F68C8 R
(8273.075000) vcan0 00000001#5069C9 R
(8273.317000) vcan0 00000002#516ACA R
(8273.553000) vcan0 00000001#526BCB R
(8273.796000) vcan0 00000002#536CCC R
(8274.032000) vcan0 00000001#546DCD R
(8274.274000) vcan0 00000002#006ECE R
(8274.510000) vcan0 00000001#016FCF R
(8274.754000) vcan0 00000002#0270D0 R
(8274.989000) vcan0 00000001#0371D1 R
(8275.228000) vcan0 00000002#0472D2 R
(8275.463000) vcan0 00000001#0573D3 R
(8275.707000) vcan0 00000002#0674D4 R
(8275.943000) vcan0 00000001#0775D5 R
(8276.179000) vcan0 00000002#0876D6 R
(8276.420000) vcan0 00000001#0977D7 R
(8276.664000) vcan0 00000002#0A78D8 R
(8276.900000) vcan0 00000001#0B79D9 R
(8277.136000) vcan0 00000002#0C7ADA R
(8277.374000) vcan0 00000001#0D7BDB R
(8277.610000) vcan0 00000002#0E7CDC R
(8277.854000) vcan0 00000001#0F7DDD R
(8278.089000) vcan0 00000002#107EDE R
(8278.328000) vcan0 00000001#117FDF R
(8278.563000) vcan0 00000002#1280E0 R
(8278.807000) vcan0 00000001#1381E1 R
(8279.043000) vcan0 00000002#1482E2 R
(8279.284000) vcan0 00000001#1583E3 R
(8279.520000) vcan0 00000002#1684E4 R
(8279.764000) vcan0 00000001#1785E5 R
(8280.000000) vcan0 00000002#1886E6 R
(8280.241000) vcan0 00000001#1987E7 R
(8280.477000) vcan0 00000002#1A88E8 R
(8280.721000) vcan0 00000001#1B89E9 R
(8280.957000) vcan0 00000002#1C8AEA R
(8281.193000) vcan0 00000001#1D8BEB R
(8281.433000) vcan0 00000002#1E8CEC R
(8281.677000) vcan0 00000001#1F8DED R
(8281.913000) vcan0 00000002#208EEE R
(8282.149000) vcan0 00000001#218FEF R
(8282.391000) vcan0 00000002#2290F0 R
(8282.626000) vcan0 00000001#2391F1 R
(8282.870000) vcan0 00000002#2492F2 R
(8283.106000) vcan0 00000001#2593F3 R
(8283.344000) vcan0 00000002#2694F4 R
(8283.580000) vcan0 00000001#2795F5 R
(8283.824000) vcan0 00000002#2896F6 R
(8284.060000) vcan0 00000001#2997F7 R
(8284.301000) vcan0 00000002#2A98F8 R
(8284.537000) vcan0 00000001#2B99F9 R
(8284.780000) vcan0 00000002#2C9AFA R
(8285.016000) vcan0 00000001#2D9BFB R
(8285.258000) vcan0 00000002#2E9CFC R
(8285.494000) vcan0 00000001#2F9DFD R
(8285.738000) vcan0 00000002#309EFE R
(8285.974000) vcan0 00000001#319FFF R
(8286.210000) vcan0 00000002#32A000 R
(8286.450000) vcan0 00000001#33A101 R
(8286.694000) vcan0 00000002#34A202 R
(8286.930000) vcan0 00000001#35A303 R
(8287.166000) vcan0 00000002#36A404 R
(8287.407000) vcan0 00000001#37A505 R
(8287.651000) vcan0 00000002#38A606 R
(8287.886000) vcan0 00000001#39A707 R
(8288.122000) vcan0 00000002#3AA808 R
(8288.360000) vcan0 00000001#3BA909 R
(8288.596000) vcan0 00000002#3CAA0A R
(8288.840000) vcan0 00000001#3D550B R
(8289.075000) vcan0 00000002#3E560C R
(8289.317000) vcan0 00000001#3F570D R
(8289.553000) vcan0 00000002#40580E R
(8289.797000) vcan0 00000001#41590F R
(8290.032000) vcan0 00000002#425A10 R
(8290.274000) vcan0 00000001#435B11 R
(8290.510000) vcan0 00000002#445C12 R
(8290.754000) vcan0 00000001#455D13 R
(8290.990000) vcan0 00000002#465E14 R
(8291.228000) vcan0 00000001#475F15 R
(8291.463000) vcan0 00000002#486016 R
(8291.707000) vcan0 00000001#496117 R
(8291.943000) vcan0 00000002#4A6218 R
(8292.179000) vcan0 00000001#4B6319 R
(8292.421000) vcan0 00000002#4C641A R
(8292.665000) vcan0 00000001#4D651B R
(8292.900000) vcan0 00000002#4E661C R
(8293.136000) vcan0 00000001#4F671D R
(8293.374000) vcan0 00000002#50681E R
(8293.610000) vcan0 00000001#51691F R
(8293.854000) vcan0 00000002#526A20 R
(8294.089000) vcan0 00000001#536B21 R
(8294.327000) vcan0 00000002#546C22 R
(8294.563000) vcan0 00000001#006D23 R
(8294.807000) vcan0 00000002#016E24 R
(8295.043000) vcan0 00000001#026F25 R
(8295.285000) vcan0 00000002#037026 R
(8295.520000) vcan0 00000001#047127 R
(8295.764000) vcan0 00000002#057228 R
(8296.000000) vcan0 00000001#067329 R
(8296.242000) vcan0 00000002#07742A R
(8296.477000) vcan0 00000001#08752B R
(8296.721000) vcan0 00000002#09762C R
(8296.957000) vcan0 00000001#0A772D R
(8297.193000) vcan0 00000002#0B782E R
(8297.434000) vcan0 00000001#0C792F R
(8297.678000) vcan0 00000002#0D7A30 R
(8297.913000) vcan0 00000001#0E7B31 R
(8298.149000) vcan0 00000002#0F7C32 R
(8298.390000) vcan0 00000001#107D33 R
(8298.626000) vcan0 00000002#117E34 R
(8298.870000) vcan0 00000001#127F35 R
(8299.106000) vcan0 00000002#138036 R
(8299.343000) vcan0 00000001#148137 R
(8299.579000) vcan0 00000002#158238 R
(8299.823000) vcan0 00000001#168339 R
(8300.059000) vcan0 00000002#17843A R
(8300.301000) vcan0 00000001#18853B R
(8300.536000) vcan0 00000002#19863C R
(8300.780000) vcan0 00000001#1A873D R
(8301.016000) vcan0 00000002#1B883E R
(8301.258000) vcan0 00000001#1C893F R
(8301.493000) vcan0 00000002#1D8A40 R
(8301.737000) vcan0 00000001#1E8B41 R
(8301.973000) vcan0 00000002#1F8C42 R
(8302.210000) vcan0 00000001#208D43 R
(8302.450000) vcan0 00000002#218E44 R
(8302.694000) vcan0 00000001#228F45 R
(8302.930000) vcan0 00000002#239046 R
(8303.165000) vcan0 00000001#249147 R
(8303.407000) vcan0 00000002#259248 R
(8303.651000) vcan0 00000001#269349 R
(8303.886000) vcan0 00000002#27944A R
(8304.122000) vcan0 00000001#28954B R
(8304.360000) vcan0 00000002#29964C R
(8304.596000) vcan0 00000001#2A974D R
(8304.839000) vcan0 00000002#2B984E R
(8305.075000) vcan0 00000001#2C994F R
(8305.317000) vcan0 00000002#2D9A50 R
(8305.553000) vcan0 00000001#2E9B51 R
(8305.796000) vcan0 00000002#2F9C52 R
(8306.032000) vcan0 00000001#309D53 R
(8306.274000) vcan0 00000002#319E54 R
(8306.510000) vcan0 00000001#329F55 R
(8306.754000) vcan0 00000002#33A056 R
(8306.989000) vcan0 00000001#34A157 R
(8307.228000) vcan0 00000002#35A258 R
(8307.463000) vcan0 00000001#36A359 R
(8307.707000) vcan0 00000002#37A45A R
(8307.943000) vcan0 00000001#38A55B R
(8308.179000) vcan0 00000002#39A65C R
(8308.420000) vcan0 00000001#3AA75D R
(8308.664000) vcan0 00000002#3BA85E R
(8308.900000) vcan0 00000001#3CA95F R
(8309.136000) vcan0 00000002#3DAA60 R
(8309.374000) vcan0 00000001#3E5561 R
(8309.610000) vcan0 00000002#3F5662 R
(8309.854000) vcan0 00000001#405763 R
(8310.089000) vcan0 00000002#415864 R
(8310.327000) vcan0 00000001#425965 R
(8310.563000) vcan0 00000002#435A66 R
(8310.807000) vcan0 00000001#445B67 R
(8311.043000) vcan0 00000002#455C68 R
(8311.284000) vcan0 00000001#465D69 R
(8311.520000) vcan0 00000002#475E6A R
(8311.764000) vcan0 00000001#485F6B R
(8312.000000) vcan0 00000002#49606C R
(8312.241000) vcan0 00000001#4A616D R
(8312.477000) vcan0 00000002#4B626E R
(8312.721000) vcan0 00000001#4C636F R
(8312.957000) vcan0 00000002#4D6470 R
(8313.193000) vcan0 00000001#4E6571 R
(8313.433000) vcan0 00000002#4F6672 R
(8313.677000) vcan0 00000001#506773 R
(8313.913000) vcan0 00000002#516874 R
(8314.149000) vcan0 00000001#526975 R
(8314.391000) vcan0 00000002#536A76 R
(8314.626000) vcan0 00000001#546B77 R
(8314.870000) vcan0 00000002#006C78 R
(8315.106000) vcan0 00000001#016D79 R
(8315.344000) vcan0 00000002#026E7A R
(8315.580000) vcan0 00000001#036F7B R
(8315.824000) vcan0 00000002#04707C R
(8316.060000) vcan0 00000001#05717D R
(8316.301000) vcan0 00000002#06727E R
(8316.537000) vcan0 00000001#07737F R
(8316.781000) vcan0 00000002#087480 R
(8317.017000) vcan0 00000001#097581 R
(8317.257000) vcan0 00000002#0A7682 R
(8317.493000) vcan0 00000001#0B7783 R
(8317.737000) vcan0 00000002#0C7884 R
(8317.973000) vcan0 00000001#0D7985 R
(8318.209000) vcan0 00000002#0E7A86 R
(8318.450000) vcan0 00000001#0F7B87 R
(8318.694000) vcan0 00000002#107C88 R
(8318.930000) vcan0 00000001#117D89 R
(8319.165000) vcan0 00000002#127E8A R
(8319.407000) vcan0 00000001#137F8B R
(8319.650000) vcan0 00000002#14808C R
(8319.886000) vcan0 00000001#15818D R
(8320.122000) vcan0 00000002#16828E R
(8320.360000) vcan0 00000001#17838F R
(8320.596000) vcan0 00000002#188490 R
(8320.840000) vcan0 00000001#198591 R
(8321.075000) vcan0 00000002#1A8692 R
(8321.317000) vcan0 00000001#1B8793 R
(8321.553000) vcan0 00000002#1C8894 R
(8321.796000) vcan0 00000001#1D8995 R
(8322.032000) vcan0 00000002#1E8A96 R
(8322.274000) vcan0 00000001#1F8B97 R
(8322.510000) vcan0 00000002#208C98 R
(8322.754000) vcan0 00000001#218D99 R
(8322.990000) vcan0 00000002#228E9A R
(8323.228000) vcan0 00000001#238F9B R
(8323.463000) vcan0 00000002#24909C R
(8323.707000) vcan0 00000001#25919D R
(8323.943000) vcan0 00000002#26929E R
(8324.179000) vcan0 00000001#27939F R
(8324.421000) vcan0 00000002#2894A0 R
(8324.665000) vcan0 00000001#2995A1 R
(8324.900000) vcan0 00000002#2A96A2 R
(8325.136000) vcan0 00000001#2B97A3 R
(8325.374000) vcan0 00000002#2C98A4 R
(8325.610000) vcan0 00000001#2D99A5 R
(8325.854000) vcan0 00000002#2E9AA6 R
(8326.089000) vcan0 00000001#2F9BA7 R
(8326.328000) vcan0 00000002#309CA8 R
(8326.563000) vcan0 00000001#319DA9 R
(8326.807000) vcan0 00000002#329EAA R
(8327.043000) vcan0 00000001#339FAB R
(8327.284000) vcan0 00000002#34A0AC R
(8327.520000) vcan0 00000001#35A1AD R
(8327.764000) vcan0 00000002#36A2AE R
(8328.000000) vcan0 00000001#37A3AF R
(8328.241000) vcan0 00000002#38A4B0 R
(8328.477000) vcan0 00000001#39A5B1 R
(8328.721000) vcan0 00000002#3AA6B2 R
(8328.957000) vcan0 00000001#3BA7B3 R
(8329.193000) vcan0 00000002#3CA8B4 R
(8329.433000) vcan0 00000001#3DA9B5 R
(8329.677000) vcan0 00000002#3EAAB6 R
(8329.913000) vcan0 00000001#3F55B7 R
(8330.149000) vcan0 00000002#4056B8 R
(8330.391000) vcan0 00000001#4157B9 R
(8330.626000) vcan0 00000002#4258BA R
(8330.870000) vcan0 00000001#4359BB R
(8331.106000) vcan0 00000002#445ABC R
(8331.344000) vcan0 00000001#455BBD R
(8331.580000) vcan0 00000002#465CBE R
(8331.824000) vcan0 00000001#475DBF R
(8332.060000) vcan0 00000002#485EC0 R
(8332.301000) vcan0 00000001#495FC1 R
(8332.537000) vcan0 00000002#4A60C2 R
(8332.780000) vcan0 00000001#4B61C3 R
(8333.016000) vcan0 00000002#4C62C4 R
(8333.258000) vcan0 00000001#4D63C5 R
(8333.494000) vcan0 00000002#4E64C6 R
(8333.738000) vcan0 00000001#4F65C7 R
(8333.974000) vcan0 00000002#5066C8 R
(8334.210000) vcan0 00000001#5167C9 R
(8334.450000) vcan0 00000002#5268CA R
(8334.694000) vcan0 00000001#5369CB R
(8334.930000) vcan0 00000002#546ACC R
(8335.165000) vcan0 00000001#006BCD R
(8335.407000) vcan0 00000002#016CCE R
(8335.650000) vcan0 00000001#026DCF R
(8335.886000) vcan0 00000002#036ED0 R
(8336.122000) vcan0 00000001#046FD1 R
(8336.360000) vcan0 00000002#0570D2 R
(8336.596000) vcan0 00000001#0671D3 R
(8336.840000) vcan0 00000002#0772D4 R
(8337.075000) vcan0 00000001#0873D5 R
(8337.317000) vcan0 00000002#0974D6 R
(8337.553000) vcan0 00000001#0A75D7 R
(8337.797000) vcan0 00000002#0B76D8 R
(8338.032000) vcan0 00000001#0C77D9 R
(8338.274000) vcan0 00000002#0D78DA R
(8338.510000) vcan0 00000001#0E79DB R
(8338.754000) vcan0 00000002#0F7ADC R
(8338.990000) vcan0 00000001#107BDD R
(8339.228000) vcan0 00000002#117CDE R
(8339.463000) vcan0 00000001#127DDF R
(8339.707000) vcan0 00000002#137EE0 R
(8339.943000) vcan0 00000001#147FE1 R
(8340.179000) vcan0 00000002#1580E2 R
(8340.421000) vcan0 00000001#1681E3 R
(8340.665000) vcan0 00000002#1782E4 R
(8340.900000) vcan0 00000001#1883E5 R
(8341.136000) vcan0 00000002#1984E6 R
(8341.374000) vcan0 00000001#1A85E7 R
(8341.610000) vcan0 00000002#1B86E8 R
(8341.854000) vcan0 00000001#1C87E9 R
(8342.089000) vcan0 00000002#1D88EA R
(8342.328000) vcan0 00000001#1E89EB R
(8342.563000) vcan0 00000002#1F8AEC R
(8342.807000) vcan0 00000001#208BED R
(8343.043000) vcan0 00000002#218CEE R
(8343.284000) vcan0 00000001#228DEF R
(8343.520000) vcan0 00000002#238EF0 R
(8343.764000) vcan0 00000001#248FF1 R
(8344.000000) vcan0 00000002#2590F2 R
(8344.241000) vcan0 00000001#2691F3 R
(8344.477000) vcan0 00000002#2792F4 R
(8344.721000) vcan0 00000001#2893F5 R
(8344.957000) vcan0 00000002#2994F6 R
(8345.193000) vcan0 00000001#2A95F7 R
(8345.433000) vcan0 00000002#2B96F8 R
(8345.677000) vcan0 00000001#2C97F9 R
(8345.913000) vcan0 00000002#2D98FA R
(8346.149000) vcan0 00000001#2E99FB R
(8346.391000) vcan0 00000002#2F9AFC R
(8346.626000) vcan0 00000001#309BFD R
(8346.870000) vcan0 00000002#319CFE R
(8347.106000) vcan0 00000001#329DFF R
(8347.344000) vcan0 00000002#339E00 R
(8347.580000) vcan0 00000001#349F01 R
(8347.824000) vcan0 00000002#35A002 R
(8348.060000) vcan0 00000001#36A103 R
(8348.301000) vcan0 00000002#37A204 R
(8348.537000) vcan0 00000001#38A305 R
(8348.780000) vcan0 00000002#39A406 R
(8349.016000) vcan0 00000001#3AA507 R
(8349.258000) vcan0 00000002#3BA608 R
(8349.494000) vcan0 00000001#3CA709 R
(8349.738000) vcan0 00000002#3DA80A R
(8349.974000) vcan0 00000001#3EA90B R
(8350.210000) vcan0 00000002#3FAA0C R
(8350.450000) vcan0 00000001#40550D R
(8350.694000) vcan0 00000002#41560E R
(8350.930000) vcan0 00000001#42570F R
(8351.166000) vcan0 00000002#435810 R
(8351.407000) vcan0 00000001#445911 R
(8351.651000) vcan0 00000002#455A12 R
(8351.886000) vcan0 00000001#465B13 R
(8352.122000) vcan0 00000002#475C14 R
(8352.360000) vcan0 00000001#485D15 R
(8352.596000) vcan0 00000002#495E16 R
(8352.840000) vcan0 00000001#4A5F17 R
(8353.075000) vcan0 00000002#4B6018 R
(8353.317000) vcan0 00000001#4C6119 R
(8353.553000) vcan0 00000002#4D621A R
(8353.797000) vcan0 00000001#4E631B R
(8354.032000) vcan0 00000002#4F641C R
(8354.274000) vcan0 00000001#50651D R
(8354.510000) vcan0 00000002#51661E R
(8354.754000) vcan0 00000001#52671F R
(8354.990000) vcan0 00000002#536820 R
(8355.228000) vcan0 00000001#546921 R
(8355.463000) vcan0 00000002#006A22 R
(8355.707000) vcan0 00000001#016B23 R
(8355.943000) vcan0 00000002#026C24 R
(8356.179000) vcan0 00000001#036D25 R
(8356.421000) vcan0 00000002#046E26 R
(8356.665000) vcan0 00000001#056F27 R
(8356.900000) vcan0 00000002#067028 R
(8357.136000) vcan0 00000001#077129 R
(8357.374000) vcan0 00000002#08722A R
(8357.610000) vcan0 00000001#09732B R
(8357.854000) vcan0 00000002#0A742C R
(8358.089000) vcan0 00000001#0B752D R
(8358.328000) vcan0 00000002#0C762E R
(8358.563000) vcan0 00000001#0D772F R
(8358.807000) vcan0 00000002#0E7830 R
(8359.043000) vcan0 00000001#0F7931 R
(8359.284000) vcan0 00000002#107A32 R
(8359.520000) vcan0 00000001#117B33 R
(8359.764000) vcan0 00000002#127C34 R
(8360.000000) vcan0 00000001#137D35 R
(8360.241000) vcan0 00000002#147E36 R
(8360.477000) vcan0 00000001#157F37 R
(8360.721000) vcan0 00000002#168038 R
(8360.957000) vcan0 00000001#178139 R
(8361.193000) vcan0 00000002#18823A R
(8361.433000) vcan0 00000001#19833B R
(8361.677000) vcan0 00000002#1A843C R
(8361.913000) vcan0 00000001#1B853D R
(8362.149000) vcan0 00000002#1C863E R
(8362.391000) vcan0 00000001#1D873F R
(8362.626000) vcan0 00000002#1E8840 R
(8362.870000) vcan0 00000001#1F8941 R
(8363.106000) vcan0 00000002#208A42 R
(8363.344000) vcan0 00000001#218B43 R
(8363.580000) vcan0 00000002#228C44 R
(8363.823000) vcan0 00000001#238D45 R
(8364.059000) vcan0 00000002#248E46 R
(8364.301000) vcan0 00000001#258F47 R
(8364.536000) vcan0 00000002#269048 R
(8364.780000) vcan0 00000001#279149 R
(8365.016000) vcan0 00000002#28924A R
(8365.258000) vcan0 00000001#29934B R
(8365.493000) vcan0 00000002#2A944C R
(8365.737000) vcan0 00000001#2B954D R
(8365.973000) vcan0 00000002#2C964E R
(8366.209000) vcan0 00000001#2D974F R
(8366.450000) vcan0 00000002#2E9850 R
(8366.694000) vcan0 00000001#2F9951 R
(8366.930000) vcan0 00000002#309A52 R
(8367.165000) vcan0 00000001#319B53 R
(8367.407000) vcan0 00000002#329C54 R
(8367.651000) vcan0 00000001#339D55 R
(8367.886000) vcan0 00000002#349E56 R
(8368.122000) vcan0 00000001#359F57 R
(8368.360000) vcan0 00000002#36A058 R
(8368.596000) vcan0 00000001#37A159 R
(8368.840000) vcan0 00000002#38A25A R
(8369.075000) vcan0 00000001#39A35B R
(8369.317000) vcan0 00000002#3AA45C R
(8369.553000) vcan0 00000001#3BA55D R
(8369.797000) vcan0 00000002#3CA65E R
(8370.032000) vcan0 00000001#3DA75F R
(8370.274000) vcan0 00000002#3EA860 R
(8370.510000) vcan0 00000001#3FA961 R
(8370.754000) vcan0 00000002#40AA62 R
(8370.990000) vcan0 00000001#415563 R
(8371.228000) vcan0 00000002#425664 R
(8371.463000) vcan0 00000001#435765 R
(8371.707000) vcan0 00000002#445866 R
(8371.943000) vcan0 00000001#455967 R
(8372.179000) vcan0 00000002#465A68 R
(8372.421000) vcan0 00000001#475B69 R
(8372.665000) vcan0 00000002#485C6A R
(8372.900000) vcan0 00000001#495D6B R
(8373.136000) vcan0 00000002#4A5E6C R
(8373.374000) vcan0 00000001#4B5F6D R
(8373.610000) vcan0 00000002#4C606E R
(8373.854000) vcan0 00000001#4D616F R
(8374.089000) vcan0 00000002#4E6270 R
(8374.328000) vcan0 00000001#4F6371 R
(8374.563000) vcan0 00000002#506472 R
(8374.807000) vcan0 00000001#516573 R
(8375.043000) vcan0 00000002#526674 R
(8375.284000) vcan0 00000001#536775 R
(8375.520000) vcan0 00000002#546876 R
(8375.764000) vcan0 00000001#006977 R
(8376.000000) vcan0 00000002#016A78 R
(8376.241000) vcan0 00000001#026B79 R
(8376.477000) vcan0 00000002#036C7A R
(8376.721000) vcan0 00000001#046D7B R
(8376.957000) vcan0 00000002#056E7C R
(8377.193000) vcan0 00000001#066F7D R
(8377.433000) vcan0 00000002#07707E R
(8377.677000) vcan0 00000001#08717F R
(8377.913000) vcan0 00000002#097280 R
(8378.149000) vcan0 00000001#0A7381 R
(8378.391000) vcan0 00000002#0B7482 R
(8378.626000) vcan0 00000001#0C7583 R
(8378.870000) vcan0 00000002#0D7684 R
(8379.106000) vcan0 00000001#0E7785 R
(8379.344000) vcan0 00000002#0F7886 R
(8379.580000) vcan0 00000001#107987 R
(8379.824000) vcan0 00000002#117A88 R
(8380.060000) vcan0 00000001#127B89 R
(8380.301000) vcan0 00000002#137C8A R
(8380.537000) vcan0 00000001#147D8B R
(8380.780000) vcan0 00000002#157E8C R
(8381.016000) vcan0 00000001#167F8D R
(8381.258000) vcan0 00000002#17808E R
(8381.494000) vcan0 00000001#18818F R
(8381.738000) vcan0 00000002#198290 R
(8381.974000) vcan0 00000001#1A8391 R
(8382.210000) vcan0 00000002#1B8492 R
(8382.450000) vcan0 00000001#1C8593 R
(8382.694000) vcan0 00000002#1D8694 R
(8382.930000) vcan0 00000001#1E8795 R
(8383.166000) vcan0 00000002#1F8896 R
(8383.407000) vcan0 00000001#208997 R
(8383.651000) vcan0 00000002#218A98 R
(8383.886000) vcan0 00000001#228B99 R
(8384.122000) vcan0 00000002#238C9A R
(8384.360000) vcan0 00000001#248D9B R
(8384.596000) vcan0 00000002#258E9C R
(8384.840000) vcan0 00000001#268F9D R
(8385.075000) vcan0 00000002#27909E R
(8385.317000) vcan0 00000001#28919F R
(8385.553000) vcan0 00000002#2992A0 R
(8385.797000) vcan0 00000001#2A93A1 R
(8386.032000) vcan0 00000002#2B94A2 R
(8386.274000) vcan0 00000001#2C95A3 R
(8386.510000) vcan0 00000002#2D96A4 R
(8386.754000) vcan0 00000001#2E97A5 R
(8386.990000) vcan0 00000002#2F98A6 R
(8387.228000) vcan0 00000001#3099A7 R
(8387.463000) vcan0 00000002#319AA8 R
(8387.707000) vcan0 00000001#329BA9 R
(8387.943000) vcan0 00000002#339CAA R
(8388.179000) vcan0 00000001#349DAB R
(8388.421000) vcan0 00000002#359EAC R
(8388.665000) vcan0 00000001#369FAD R
(8388.900000) vcan0 00000002#37A0AE R
(8389.136000) vcan0 00000001#38A1AF R
(8389.374000) vcan0 00000002#39A2B0 R
(8389.610000) vcan0 00000001#3AA3B1 R
(8389.854000) vcan0 00000002#3BA4B2 R
(8390.089000) vcan0 00000001#3CA5B3 R
(8390.327000) vcan0 00000002#3DA6B4 R
(8390.563000) vcan0 00000001#3EA7B5 R
(8390.807000) vcan0 00000002#3FA8B6 R
(8391.043000) vcan0 00000001#40A9B7 R
(8391.285000) vcan0 00000002#41AAB8 R
(8391.520000) vcan0 00000001#4255B9 R
(8391.764000) vcan0 00000002#4356BA R
(8392.000000) vcan0 00000001#4457BB R
(8392.242000) vcan0 00000002#4558BC R
(8392.477000) vcan0 00000001#4659BD R
(8392.721000) vcan0 00000002#475ABE R
(8392.957000) vcan0 00000001#485BBF R
(8393.193000) vcan0 00000002#495CC0 R
(8393.434000) vcan0 00000001#4A5DC1 R
(8393.678000) vcan0 00000002#4B5EC2 R
(8393.913000) vcan0 00000001#4C5FC3 R
(8394.149000) vcan0 00000002#4D60C4 R
(8394.390000) vcan0 00000001#4E61C5 R
(8394.626000) vcan0 00000002#4F62C6 R
(8394.870000) vcan0 00000001#5063C7 R
(8395.106000) vcan0 00000002#5164C8 R
(8395.344000) vcan0 00000001#5265C9 R
(8395.580000) vcan0 00000002#5366CA R
(8395.823000) vcan0 00000001#5467CB R
(8396.059000) vcan0 00000002#0068CC R
(8396.301000) vcan0 00000001#0169CD R
(8396.536000) vcan0 00000002#026ACE R
(8396.780000) vcan0 00000001#036BCF R
(8397.016000) vcan0 00000002#046CD0 R
(8397.258000) vcan0 00000001#056DD1 R
(8397.493000) vcan0 00000002#066ED2 R
(8397.737000) vcan0 00000001#076FD3 R
(8397.973000) vcan0 00000002#0870D4 R
(8398.210000) vcan0 00000001#0971D5 R
(8398.450000) vcan0 00000002#0A72D6 R
(8398.694000) vcan0 00000001#0B73D7 R
(8398.930000) vcan0 00000002#0C74D8 R
(8399.165000) vcan0 00000001#0D75D9 R
(8399.407000) vcan0 00000002#0E76DA R
(8399.651000) vcan0 00000001#0F77DB R
(8399.886000) vcan0 00000002#1078DC R
(8400.122000) vcan0 00000001#1179DD R
(8400.360000) vcan0 00000002#127ADE R
(8400.596000) vcan0 00000001#137BDF R
(8400.839000) vcan0 00000002#147CE0 R
(8401.075000) vcan0 00000001#157DE1 R
(8401.317000) vcan0 00000002#167EE2 R
(8401.553000) vcan0 00000001#177FE3 R
(8401.796000) vcan0 00000002#1880E4 R
(8402.032000) vcan0 00000001#1981E5 R
(8402.274000) vcan0 00000002#1A82E6 R
(8402.510000) vcan0 00000001#1B83E7 R
(8402.754000) vcan0 00000002#1C84E8 R
(8402.989000) vcan0 00000001#1D85E9 R
(8403.228000) vcan0 00000002#1E86EA R
(8403.463000) vcan0 00000001#1F87EB R
(8403.707000) vcan0 00000002#2088EC R
(8403.943000) vcan0 00000001#2189ED R
(8404.179000) vcan0 00000002#228AEE R
(8404.420000) vcan0 00000001#238BEF R
(8404.664000) vcan0 00000002#248CF0 R
(8404.900000) vcan0 00000001#258DF1 R
(8405.136000) vcan0 00000002#268EF2 R
(8405.374000) vcan0 00000001#278FF3 R
(8405.610000) vcan0 00000002#2890F4 R
(8405.854000) vcan0 00000001#2991F5 R
(8406.089000) vcan0 00000002#2A92F6 R
(8406.327000) vcan0 00000001#2B93F7 R
(8406.563000) vcan0 00000002#2C94F8 R
(8406.807000) vcan0 00000001#2D95F9 R
(8407.043000) vcan0 00000002#2E96FA R
(8407.284000) vcan0 00000001#2F97FB R
(8407.520000) vcan0 00000002#3098FC R
(8407.764000) vcan0 00000001#3199FD R
(8408.000000) vcan0 00000002#329AFE R
(8408.241000) vcan0 00000001#339BFF R
(8408.477000) vcan0 00000002#349C00 R
(8408.721000) vcan0 00000001#359D01 R
(8408.957000) vcan0 00000002#369E02 R
(8409.193000) vcan0 00000001#379F03 R
(8409.433000) vcan0 00000002#38A004 R
(8409.677000) vcan0 00000001#39A105 R
(8409.913000) vcan0 00000002#3AA206 R
(8410.149000) vcan0 00000001#3BA307 R
(8410.391000) vcan0 00000002#3CA408 R
(8410.626000) vcan0 00000001#3DA509 R
(8410.870000) vcan0 00000002#3EA60A R
(8411.106000) vcan0 00000001#3FA70B R
(8411.344000) vcan0 00000002#40A80C R
(8411.580000) vcan0 00000001#41A90D R
(8411.824000) vcan0 00000002#42AA0E R
(8412.060000) vcan0 00000001#43550F R
(8412.301000) vcan0 00000002#445610 R
(8412.537000) vcan0 00000001#455711 R
(8412.780000) vcan0 00000002#465812 R
(8413.016000) vcan0 00000001#475913 R
(8413.258000) vcan0 00000002#485A14 R
(8413.494000) vcan0 00000001#495B15 R
(8413.738000) vcan0 00000002#4A5C16 R
(8413.974000) vcan0 00000001#4B5D17 R
(8414.210000) vcan0 00000002#4C5E18 R
(8414.450000) vcan0 00000001#4D5F19 R
(8414.694000) vcan0 00000002#4E601A R
(8414.930000) vcan0 00000001#4F611B R
(8415.166000) vcan0 00000002#50621C R
(8415.407000) vcan0 00000001#51631D R
(8415.651000) vcan0 00000002#52641E R
(8415.886000) vcan0 00000001#53651F R
(8416.122000) vcan0 00000002#546620 R
(8416.360000) vcan0 00000001#006721 R
(8416.596000) vcan0 00000002#016822 R
(8416.840000) vcan0 00000001#026923 R
(8417.075000) vcan0 00000002#036A24 R
(8417.317000) vcan0 00000001#046B25 R
(8417.553000) vcan0 00000002#056C26 R
(8417.797000) vcan0 00000001#066D27 R
(8418.032000) vcan0 00000002#076E28 R
(8418.274000) vcan0 00000001#086F29 R
(8418.510000) vcan0 00000002#09702A R
(8418.754000) vcan0 00000001#0A712B R
(8418.990000) vcan0 00000002#0B722C R
(8419.228000) vcan0 00000001#0C732D R
(8419.463000) vcan0 00000002#0D742E R
(8419.707000) vcan0 00000001#0E752F R
(8419.943000) vcan0 00000002#0F7630 R
(8420.179000) vcan0 00000001#107731 R
(8420.421000) vcan0 00000002#117832 R
(8420.665000) vcan0 00000001#127933 R
(8420.900000) vcan0 00000002#137A34 R
(8421.136000) vcan0 00000001#147B35 R
(8421.374000) vcan0 00000002#157C36 R
(8421.610000) vcan0 00000001#167D37 R
(8421.854000) vcan0 00000002#177E38 R
(8422.089000) vcan0 00000001#187F39 R
(8422.327000) vcan0 00000002#19803A R
(8422.563000) vcan0 00000001#1A813B R
(8422.807000) vcan0 00000002#1B823C R
(8423.043000) vcan0 00000001#1C833D R
(8423.285000) vcan0 00000002#1D843E R
(8423.520000) vcan0 00000001#1E853F R
(8423.764000) vcan0 00000002#1F8640 R
(8424.000000) vcan0 00000001#208741 R
(8424.242000) vcan0 00000002#218842 R
(8424.477000) vcan0 00000001#228943 R
(8424.721000) vcan0 00000002#238A44 R
(8424.957000) vcan0 00000001#248B45 R
(8425.193000) vcan0 00000002#258C46 R
(8425.434000) vcan0 00000001#268D47 R
(8425.678000) vcan0 00000002#278E48 R
(8425.913000) vcan0 00000001#288F49 R
(8426.149000) vcan0 00000002#29904A R
(8426.390000) vcan0 00000001#2A914B R
(8426.626000) vcan0 00000002#2B924C R
(8426.870000) vcan0 00000001#2C934D R
(8427.106000) vcan0 00000002#2D944E R
(8427.344000) vcan0 00000001#2E954F R
(8427.580000) vcan0 00000002#2F9650 R
(8427.823000) vcan0 00000001#309751 R
(8428.059000) vcan0 00000002#319852 R
(8428.301000) vcan0 00000001#329953 R
(8428.536000) vcan0 00000002#339A54 R
(8428.780000) vcan0 00000001#349B55 R
(8429.016000) vcan0 00000002#359C56 R
(8429.258000) vcan0 00000001#369D57 R
(8429.493000) vcan0 00000002#379E58 R
(8429.737000) vcan0 00000001#389F59 R
(8429.973000) vcan0 00000002#39A05A R
(8430.209000) vcan0 00000001#3AA15B R
(8430.450000) vcan0 00000002#3BA25C R
(8430.694000) vcan0 00000001#3CA35D R
(8430.930000) vcan0 00000002#3DA45E R
(8431.165000) vcan0 00000001#3EA55F R
(8431.407000) vcan0 00000002#3FA660 R
(8431.651000) vcan0 00000001#40A761 R
(8431.886000) vcan0 00000002#41A862 R
(8432.122000) vcan0 00000001#42A963 R
(8432.360000) vcan0 00000002#43AA64 R
(8432.596000) vcan0 00000001#445565 R
(8432.839000) vcan0 00000002#455666 R
(8433.075000) vcan0 00000001#465767 R
(8433.317000) vcan0 00000002#475868 R
(8433.553000) vcan0 00000001#485969 R
(8433.796000) vcan0 00000002#495A6A R
(8434.032000) vcan0 00000001#4A5B6B R
(8434.274000) vcan0 00000002#4B5C6C R
(8434.510000) vcan0 00000001#4C5D6D R
(8434.754000) vcan0 00000002#4D5E6E R
(8434.989000) vcan0 00000001#4E5F6F R
(8435.228000) vcan0 00000002#4F6070 R
(8435.463000) vcan0 00000001#506171 R
(8435.707000) vcan0 00000002#516272 R
(8435.943000) vcan0 00000001#526373 R
(8436.179000) vcan0 00000002#536474 R
(8436.421000) vcan0 00000001#546575 R
(8436.665000) vcan0 00000002#006676 R
(8436.900000) vcan0 00000001#016777 R
(8437.136000) vcan0 00000002#026878 R
(8437.374000) vcan0 00000001#036979 R
(8437.610000) vcan0 00000002#046A7A R
(8437.854000) vcan0 00000001#056B7B R
(8438.089000) vcan0 00000002#066C7C R
(8438.328000) vcan0 00000001#076D7D R
(8438.563000) vcan0 00000002#086E7E R
(8438.807000) vcan0 00000001#096F7F R
(8439.043000) vcan0 00000002#0A7080 R
(8439.284000) vcan0 00000001#0B7181 R
(8439.520000) vcan0 00000002#0C7282 R
(8439.764000) vcan0 00000001#0D7383 R
(8440.000000) vcan0 00000002#0E7484 R
(8440.241000) vcan0 00000001#0F7585 R
(8440.477000) vcan0 00000002#107686 R
(8440.721000) vcan0 00000001#117787 R
(8440.957000) vcan0 00000002#127888 R
(8441.193000) vcan0 00000001#137989 R
(8441.433000) vcan0 00000002#147A8A R
(8441.677000) vcan0 00000001#157B8B R
(8441.913000) vcan0 00000002#167C8C R
(8442.149000) vcan0 00000001#177D8D R
(8442.391000) vcan0 00000002#187E8E R
(8442.626000) vcan0 00000001#197F8F R
(8442.870000) vcan0 00000002#1A8090 R
(8443.106000) vcan0 00000001#1B8191 R
(8443.344000) vcan0 00000002#1C8292 R
(8443.580000) vcan0 00000001#1D8393 R
(8443.824000) vcan0 00000002#1E8494 R
(8444.060000) vcan0 00000001#1F8595 R
(8444.301000) vcan0 00000002#208696 R
(8444.537000) vcan0 00000001#218797 R
(8444.780000) vcan0 00000002#228898 R
(8445.016000) vcan0 00000001#238999 R
(8445.258000) vcan0 00000002#248A9A R
(8445.494000) vcan0 00000001#258B9B R
(8445.738000) vcan0 00000002#268C9C R
(8445.974000) vcan0 00000001#278D9D R
(8446.210000) vcan0 00000002#288E9E R
(8446.450000) vcan0 00000001#298F9F R
(8446.694000) vcan0 00000002#2A90A0 R
(8446.930000) vcan0 00000001#2B91A1 R
(8447.166000) vcan0 00000002#2C92A2 R
(8447.407000) vcan0 00000001#2D93A3 R
(8447.651000) vcan0 00000002#2E94A4 R
(8447.886000) vcan0 00000001#2F95A5 R
(8448.122000) vcan0 00000002#3096A6 R
(8448.360000) vcan0 00000001#3197A7 R
(8448.596000) vcan0 00000002#3298A8 R
(8448.840000) vcan0 00000001#3399A9 R
(8449.075000) vcan0 00000002#349AAA R
(8449.317000) vcan0 00000001#359BAB R
(8449.553000) vcan0 00000002#369CAC R
(8449.797000) vcan0 00000001#379DAD R
(8450.032000) vcan0 00000002#389EAE R
(8450.274000) vcan0 00000001#399FAF R
(8450.510000) vcan0 00000002#3AA0B0 R
(8450.754000) vcan0 00000001#3BA1B1 R
(8450.990000) vcan0 00000002#3CA2B2 R
(8451.228000) vcan0 00000001#3DA3B3 R
(8451.463000) vcan0 00000002#3EA4B4 R
(8451.707000) vcan0 00000001#3FA5B5 R
(8451.943000) vcan0 00000002#40A6B6 R
(8452.179000) vcan0 00000001#41A7B7 R
(8452.421000) vcan0 00000002#42A8B8 R
(8452.665000) vcan0 00000001#43A9B9 R
(8452.900000) vcan0 00000002#44AABA R
(8453.136000) vcan0 00000001#4555BB R
(8453.374000) vcan0 00000002#4656BC R
(8453.610000) vcan0 00000001#4757BD R
(8453.854000) vcan0 00000002#4858BE R
(8454.089000) vcan0 00000001#4959BF R
(8454.327000) vcan0 00000002#4A5AC0 R
(8454.563000) vcan0 00000001#4B5BC1 R
(8454.807000) vcan0 00000002#4C5CC2 R
(8455.043000) vcan0 00000001#4D5DC3 R
(8455.285000) vcan0 00000002#4E5EC4 R
(8455.520000) vcan0 00000001#4F5FC5 R
(8455.764000) vcan0 00000002#5060C6 R
(8456.000000) vcan0 00000001#5161C7 R
(8456.242000) vcan0 00000002#5262C8 R
(8456.477000) vcan0 00000001#5363C9 R
(8456.721000) vcan0 00000002#5464CA R
(8456.957000) vcan0 00000001#0065CB R
(8457.193000) vcan0 00000002#0166CC R
(8457.433000) vcan0 00000001#0267CD R
(8457.677000) vcan0 00000002#0368CE R
(8457.913000) vcan0 00000001#0469CF R
(8458.149000) vcan0 00000002#056AD0 R
(8458.391000) vcan0 00000001#066BD1 R
(8458.626000) vcan0 00000002#076CD2 R
(8458.870000) vcan0 00000001#086DD3 R
(8459.106000) vcan0 00000002#096ED4 R
(8459.344000) vcan0 00000001#0A6FD5 R
(8459.580000) vcan0 00000002#0B70D6 R
(8459.824000) vcan0 00000001#0C71D7 R
(8460.060000) vcan0 00000002#0D72D8 R
(8460.301000) vcan0 00000001#0E73D9 R
(8460.537000) vcan0 00000002#0F74DA R
(8460.780000) vcan0 00000001#1075DB R
(8461.016000) vcan0 00000002#1176DC R
(8461.258000) vcan0 00000001#1277DD R
(8461.494000) vcan0 00000002#1378DE R
(8461.738000) vcan0 00000001#1479DF R
(8461.974000) vcan0 00000002#157AE0 R
(8462.210000) vcan0 00000001#167BE1 R
(8462.450000) vcan0 00000002#177CE2 R
(8462.694000) vcan0 00000001#187DE3 R
(8462.930000) vcan0 00000002#197EE4 R
(8463.165000) vcan0 00000001#1A7FE5 R
(8463.407000) vcan0 00000002#1B80E6 R
(8463.650000) vcan0 00000001#1C81E7 R
(8463.886000) vcan0 00000002#1D82E8 R
(8464.122000) vcan0 00000001#1E83E9 R
(8464.360000) vcan0 00000002#1F84EA R
(8464.596000) vcan0 00000001#2085EB R
(8464.840000) vcan0 00000002#2186EC R
(8465.075000) vcan0 00000001#2287ED R
(8465.317000) vcan0 00000002#2388EE R
(8465.553000) vcan0 00000001#2489EF R
(8465.797000) vcan0 00000002#258AF0 R
(8466.032000) vcan0 00000001#268BF1 R
(8466.274000) vcan0 00000002#278CF2 R
(8466.510000) vcan0 00000001#288DF3 R
(8466.754000) vcan0 00000002#298EF4 R
(8466.990000) vcan0 00000001#2A8FF5 R
(8467.228000) vcan0 00000002#2B90F6 R
(8467.463000) vcan0 00000001#2C91F7 R
(8467.707000) vcan0 00000002#2D92F8 R
(8467.943000) vcan0 00000001#2E93F9 R
(8468.179000) vcan0 00000002#2F94FA R
(8468.421000) vcan0 00000001#3095FB R
(8468.665000) vcan0 00000002#3196FC R
(8468.900000) vcan0 00000001#3297FD R
(8469.136000) vcan0 00000002#3398FE R
(8469.374000) vcan0 00000001#3499FF R
(8469.610000) vcan0 00000002#359A00 R
(8469.854000) vcan0 00000001#369B01 R
(8470.089000) vcan0 00000002#379C02 R
(8470.328000) vcan0 00000001#389D03 R
(8470.563000) vcan0 00000002#399E04 R
(8470.807000) vcan0 00000001#3A9F05 R
(8471.043000) vcan0 00000002#3BA006 R
(8471.284000) vcan0 00000001#3CA107 R
(8471.520000) vcan0 00000002#3DA208 R
(8471.764000) vcan0 00000001#3EA309 R
(8472.000000) vcan0 00000002#3FA40A R
(8472.241000) vcan0 00000001#40A50B R
(8472.477000) vcan0 00000002#41A60C R
(8472.721000) vcan0 00000001#42A70D R
(8472.957000) vcan0 00000002#43A80E R
(8473.193000) vcan0 00000001#44A90F R
(8473.433000) vcan0 00000002#45AA10 R
(8473.677000) vcan0 00000001#465511 R
(8473.913000) vcan0 00000002#475612 R
(8474.149000) vcan0 00000001#485713 R
(8474.391000) vcan0 00000002#495814 R
(8474.626000) vcan0 00000001#4A5915 R
(8474.870000) vcan0 00000002#4B5A16 R
(8475.106000) vcan0 00000001#4C5B17 R
(8475.344000) vcan0 00000002#4D5C18 R
(8475.580000) vcan0 00000001#4E5D19 R
(8475.824000) vcan0 00000002#4F5E1A R
(8476.060000) vcan0 00000001#505F1B R
(8476.301000) vcan0 00000002#51601C R
(8476.537000) vcan0 00000001#52611D R
(8476.780000) vcan0 00000002#53621E R
(8477.016000) vcan0 00000001#54631F R
(8477.258000) vcan0 00000002#006420 R
(8477.494000) vcan0 00000001#016521 R
(8477.738000) vcan0 00000002#026622 R
(8477.974000) vcan0 00000001#036723 R
(8478.210000) vcan0 00000002#046824 R
(8478.450000) vcan0 00000001#056925 R
(8478.694000) vcan0 00000002#066A26 R
(8478.930000) vcan0 00000001#076B27 R
(8479.166000) vcan0 00000002#086C28 R
(8479.407000) vcan0 00000001#096D29 R
(8479.650000) vcan0 00000002#0A6E2A R
(8479.886000) vcan0 00000001#0B6F2B R
(8480.122000) vcan0 00000002#0C702C R
(8480.360000) vcan0 00000001#0D712D R
(8480.596000) vcan0 00000002#0E722E R
(8480.840000) vcan0 00000001#0F732F R
(8481.075000) vcan0 00000002#107430 R
(8481.317000) vcan0 00000001#117531 R
(8481.553000) vcan0 00000002#127632 R
(8481.797000) vcan0 00000001#137733 R
(8482.032000) vcan0 00000002#147834 R
(8482.274000) vcan0 00000001#157935 R
(8482.510000) vcan0 00000002#167A36 R
(8482.754000) vcan0 00000001#177B37 R
(8482.990000) vcan0 00000002#187C38 R
(8483.228000) vcan0 00000001#197D39 R
(8483.463000) vcan0 00000002#1A7E3A R
(8483.707000) vcan0 00000001#1B7F3B R
(8483.943000) vcan0 00000002#1C803C R
(8484.179000) vcan0 00000001#1D813D R
(8484.421000) vcan0 00000002#1E823E R
(8484.665000) vcan0 00000001#1F833F R
(8484.900000) vcan0 00000002#208440 R
(8485.136000) vcan0 00000001#218541 R
(8485.374000) vcan0 00000002#228642 R
(8485.610000) vcan0 00000001#238743 R
(8485.854000) vcan0 00000002#248844 R
(8486.089000) vcan0 00000001#258945 R
(8486.328000) vcan0 00000002#268A46 R
(8486.563000) vcan0 00000001#278B47 R
(8486.807000) vcan0 00000002#288C48 R
(8487.043000) vcan0 00000001#298D49 R
(8487.284000) vcan0 00000002#2A8E4A R
(8487.520000) vcan0 00000001#2B8F4B R
(8487.764000) vcan0 00000002#2C904C R
(8488.000000) vcan0 00000001#2D914D R
(8488.241000) vcan0 00000002#2E924E R
(8488.477000) vcan0 00000001#2F934F R
(8488.721000) vcan0 00000002#309450 R
(8488.957000) vcan0 00000001#319551 R
(8489.193000) vcan0 00000002#329652 R
(8489.433000) vcan0 00000001#339753 R
(8489.677000) vcan0 00000002#349854 R
(8489.913000) vcan0 00000001#359955 R
(8490.149000) vcan0 00000002#369A56 R
(8490.391000) vcan0 00000001#379B57 R
(8490.626000) vcan0 00000002#389C58 R
(8490.870000) vcan0 00000001#399D59 R
(8491.106000) vcan0 00000002#3A9E5A R
(8491.344000) vcan0 00000001#3B9F5B R
(8491.580000) vcan0 00000002#3CA05C R
(8491.823000) vcan0 00000001#3DA15D R
(8492.059000) vcan0 00000002#3EA25E R
(8492.301000) vcan0 00000001#3FA35F R
(8492.536000) vcan0 00000002#40A460 R
(8492.780000) vcan0 00000001#41A561 R
(8493.016000) vcan0 00000002#42A662 R
(8493.258000) vcan0 00000001#43A763 R
(8493.493000) vcan0 00000002#44A864 R
(8493.737000) vcan0 00000001#45A965 R
(8493.973000) vcan0 00000002#46AA66 R
(8494.209000) vcan0 00000001#475567 R
(8494.450000) vcan0 00000002#485668 R
(8494.694000) vcan0 00000001#495769 R
(8494.930000) vcan0 00000002#4A586A R
(8495.165000) vcan0 00000001#4B596B R
(8495.407000) vcan0 00000002#4C5A6C R
(8495.651000) vcan0 00000001#4D5B6D R
(8495.886000) vcan0 00000002#4E5C6E R
(8496.122000) vcan0 00000001#4F5D6F R
(8496.360000) vcan0 00000002#505E70 R
(8496.596000) vcan0 00000001#515F71 R
(8496.840000) vcan0 00000002#526072 R
(8497.075000) vcan0 00000001#536173 R
(8497.317000) vcan0 00000002#546274 R
(8497.553000) vcan0 00000001#006375 R
(8497.797000) vcan0 00000002#016476 R
(8498.032000) vcan0 00000001#026577 R
(8498.274000) vcan0 00000002#036678 R
(8498.510000) vcan0 00000001#046779 R
(8498.754000) vcan0 00000002#05687A R
(8498.990000) vcan0 00000001#06697B R
(8499.228000) vcan0 00000002#076A7C R
(8499.463000) vcan0 00000001#086B7D R
(8499.707000) vcan0 00000002#096C7E R
(8499.943000) vcan0 00000001#0A6D7F R
(8500.179000) vcan0 00000002#0B6E80 R
(8500.421000) vcan0 00000001#0C6F81 R
(8500.665000) vcan0 00000002#0D7082 R
(8500.900000) vcan0 00000001#0E7183 R
(8501.136000) vcan0 00000002#0F7284 R
(8501.374000) vcan0 00000001#107385 R
(8501.610000) vcan0 00000002#117486 R
(8501.854000) vcan0 00000001#127587 R
(8502.089000) vcan0 00000002#137688 R
(8502.328000) vcan0 00000001#147789 R
(8502.563000) vcan0 00000002#15788A R
(8502.807000) vcan0 00000001#16798B R
(8503.043000) vcan0 00000002#177A8C R
(8503.284000) vcan0 00000001#187B8D R
(8503.520000) vcan0 00000002#197C8E R
(8503.764000) vcan0 00000001#1A7D8F R
(8504.000000) vcan0 00000002#1B7E90 R
(8504.241000) vcan0 00000001#1C7F91 R
(8504.477000) vcan0 00000002#1D8092 R
(8504.721000) vcan0 00000001#1E8193 R
(8504.957000) vcan0 00000002#1F8294 R
(8505.193000) vcan0 00000001#208395 R
(8505.433000) vcan0 00000002#218496 R
(8505.677000) vcan0 00000001#228597 R
(8505.913000) vcan0 00000002#238698 R
(8506.149000) vcan0 00000001#248799 R
(8506.391000) vcan0 00000002#25889A R
(8506.626000) vcan0 00000001#26899B R
(8506.870000) vcan0 00000002#278A9C R
(8507.106000) vcan0 00000001#288B9D R
(8507.344000) vcan0 00000002#298C9E R
(8507.580000) vcan0 00000001#2A8D9F R
(8507.824000) vcan0 00000002#2B8EA0 R
(8508.060000) vcan0 00000001#2C8FA1 R
(8508.301000) vcan0 00000002#2D90A2 R
(8508.537000) vcan0 00000001#2E91A3 R
(8508.780000) vcan0 00000002#2F92A4 R
(8509.016000) vcan0 00000001#3093A5 R
(8509.258000) vcan0 00000002#3194A6 R
(8509.494000) vcan0 00000001#3295A7 R
(8509.738000) vcan0 00000002#3396A8 R
(8509.974000) vcan0 00000001#3497A9 R
(8510.210000) vcan0 00000002#3598AA R
(8510.450000) vcan0 00000001#3699AB R
(8510.694000) vcan0 00000002#379AAC R
(8510.930000) vcan0 00000001#389BAD R
(8511.166000) vcan0 00000002#399CAE R
(8511.407000) vcan0 00000001#3A9DAF R
(8511.651000) vcan0 00000002#3B9EB0 R
(8511.886000) vcan0 00000001#3C9FB1 R
(8512.122000) vcan0 00000002#3DA0B2 R
(8512.360000) vcan0 00000001#3EA1B3 R
(8512.596000) vcan0 00000002#3FA2B4 R
(8512.840000) vcan0 00000001#40A3B5 R
(8513.075000) vcan0 00000002#41A4B6 R
(8513.317000) vcan0 00000001#42A5B7 R
(8513.553000) vcan0 00000002#43A6B8 R
(8513.797000) vcan0 00000001#44A7B9 R
(8514.032000) vcan0 00000002#45A8BA R
(8514.274000) vcan0 00000001#46A9BB R
(8514.510000) vcan0 00000002#47AABC R
(8514.754000) vcan0 00000001#4855BD R
(8514.990000) vcan0 00000002#4956BE R
(8515.228000) vcan0 00000001#4A57BF R
(8515.463000) vcan0 00000002#4B58C0 R
(8515.707000) vcan0 00000001#4C59C1 R
(8515.943000) vcan0 00000002#4D5AC2 R
(8516.179000) vcan0 00000001#4E5BC3 R
(8516.421000) vcan0 00000002#4F5CC4 R
(8516.665000) vcan0 00000001#505DC5 R
(8516.900000) vcan0 00000002#515EC6 R
(8517.136000) vcan0 00000001#525FC7 R
(8517.374000) vcan0 00000002#5360C8 R
(8517.610000) vcan0 00000001#5461C9 R
(8517.854000) vcan0 00000002#0062CA R
(8518.089000) vcan0 00000001#0163CB R
(8518.328000) vcan0 00000002#0264CC R
(8518.563000) vcan0 00000001#0365CD R
(8518.807000) vcan0 00000002#0466CE R
(8519.043000) vcan0 00000001#0567CF R
(8519.284000) vcan0 00000002#0668D0 R
(8519.520000) vcan0 00000001#0769D1 R
(8519.764000) vcan0 00000002#086AD2 R
(8520.000000) vcan0 00000001#096BD3 R
(8520.241000) vcan0 00000002#0A6CD4 R
(8520.477000) vcan0 00000001#0B6DD5 R
(8520.721000) vcan0 00000002#0C6ED6 R
(8520.957000) vcan0 00000001#0D6FD7 R
(8521.193000) vcan0 00000002#0E70D8 R
(8521.433000) vcan0 00000001#0F71D9 R
(8521.677000) vcan0 00000002#1072DA R
(8521.913000) vcan0 00000001#1173DB R
(8522.149000) vcan0 00000002#1274DC R
(8522.391000) vcan0 00000001#1375DD R
(8522.626000) vcan0 00000002#1476DE R
(8522.870000) vcan0 00000001#1577DF R
(8523.106000) vcan0 00000002#1678E0 R
(8523.344000) vcan0 00000001#1779E1 R
(8523.580000) vcan0 00000002#187AE2 R
(8523.823000) vcan0 00000001#197BE3 R
(8524.059000) vcan0 00000002#1A7CE4 R
(8524.301000) vcan0 00000001#1B7DE5 R
(8524.536000) vcan0 00000002#1C7EE6 R
(8524.780000) vcan0 00000001#1D7FE7 R
