(1792435.934000) vcan0 00000001#117B17 R
(1792436.170000) vcan0 00000002#127C18 R
(1792436.412000) vcan0 00000001#137D19 R
(1792436.656000) vcan0 00000002#147E1A R
(1792444.050000) vcan0 00000001#339D39 R
(1792444.292000) vcan0 00000002#349E3A R
(1792444.528000) vcan0 00000001#359F3B R
(1792444.771000) vcan0 00000002#36A03C R
(1792445.007000) vcan0 00000001#37A13D R
(1792445.249000) vcan0 00000002#38A23E R
(1792445.485000) vcan0 00000001#39A33F R
(1792445.729000) vcan0 00000002#3AA440 R
(1792445.964000) vcan0 00000001#3BA541 R
(1792446.201000) vcan0 00000002#3CA642 R
(1792446.441000) vcan0 00000001#3DA743 R
(1792446.685000) vcan0 00000002#3EA844 R
(1792446.921000) vcan0 00000001#3FA945 R
(1792447.157000) vcan0 00000002#40AA46 R
(1792447.398000) vcan0 00000001#415547 R
(1792447.642000) vcan0 00000002#425648 R
(1792447.878000) vcan0 00000001#435749 R
(1792448.113000) vcan0 00000002#44584A R
(1792448.352000) vcan0 00000001#45594B R
(1792448.587000) vcan0 00000002#465A4C R
(1792448.831000) vcan0 00000001#475B4D R
(1792449.067000) vcan0 00000002#485C4E R
(1792449.309000) vcan0 00000001#495D4F R
(1792449.545000) vcan0 00000002#4A5E50 R
(1792449.788000) vcan0 00000001#4B5F51 R
(1792450.024000) vcan0 00000002#4C6052 R
(1792450.265000) vcan0 00000001#4D6153 R
(1792450.501000) vcan0 00000002#4E6254 R
(1792450.745000) vcan0 00000001#4F6355 R
(1792450.981000) vcan0 00000002#506456 R
(1792451.219000) vcan0 00000001#516557 R
(1792451.455000) vcan0 00000002#526658 R
(1792451.698000) vcan0 00000001#536759 R
(1792451.934000) vcan0 00000002#54685A R
(1792452.170000) vcan0 00000001#00695B R
(1792452.412000) vcan0 00000002#016A5C R
(1792452.656000) vcan0 00000001#026B5D R
(1792452.891000) vcan0 00000002#036C5E R
(1792453.127000) vcan0 00000001#046D5F R
(1792453.366000) vcan0 00000002#056E60 R
(1792453.601000) vcan0 00000001#066F61 R
(1792453.845000) vcan0 00000002#077062 R
(1792454.081000) vcan0 00000001#087163 R
(1792454.319000) vcan0 00000002#097264 R
(1792454.554000) vcan0 00000001#0A7365 R
(1792454.798000) vcan0 00000002#0B7466 R
(1792455.034000) vcan0 00000001#0C7567 R
(1792455.276000) vcan0 00000002#0D7668 R
(1792455.512000) vcan0 00000001#0E7769 R
(1792455.755000) vcan0 00000002#0F786A R
(1792455.991000) vcan0 00000001#10796B R
(1792456.233000) vcan0 00000002#117A6C R
(1792456.469000) vcan0 00000001#127B6D R
(1792456.713000) vcan0 00000002#137C6E R
(1792456.948000) vcan0 00000001#147D6F R
(1792457.184000) vcan0 00000002#157E70 R
(1792457.425000) vcan0 00000001#167F71 R
(1792457.669000) vcan0 00000002#178072 R
(1792457.905000) vcan0 00000001#188173 R
(1792458.140000) vcan0 00000002#198274 R
(1792458.382000) vcan0 00000001#1A8375 R
(1792458.618000) vcan0 00000002#1B8476 R
(1792458.861000) vcan0 00000001#1C8577 R
(1792459.097000) vcan0 00000002#1D8678 R
(1792459.335000) vcan0 00000001#1E8779 R
(1792459.571000) vcan0 00000002#1F887A R
(1792459.815000) vcan0 00000001#20897B R
(1792460.050000) vcan0 00000002#218A7C R
(1792460.292000) vcan0 00000001#228B7D R
(1792460.528000) vcan0 00000002#238C7E R
(1792460.772000) vcan0 00000001#248D7F R
(1792461.007000) vcan0 00000002#258E80 R
(1792461.249000) vcan0 00000001#268F81 R
(1792461.485000) vcan0 00000002#279082 R
(1792461.729000) vcan0 00000001#289183 R
(1792461.965000) vcan0 00000002#299284 R
(1792462.201000) vcan0 00000001#2A9385 R
(1792462.441000) vcan0 00000002#2B9486 R
(1792462.685000) vcan0 00000001#2C9587 R
(1792462.921000) vcan0 00000002#2D9688 R
(1792463.157000) vcan0 00000001#2E9789 R
(1792463.398000) vcan0 00000002#2F988A R
(1792463.642000) vcan0 00000001#30998B R
(1792463.878000) vcan0 00000002#319A8C R
(1792464.114000) vcan0 00000001#329B8D R
(1792464.352000) vcan0 00000002#339C8E R
(1792464.587000) vcan0 00000001#349D8F R
(1792464.831000) vcan0 00000002#359E90 R
(1792465.067000) vcan0 00000001#369F91 R
(1792465.309000) vcan0 00000002#37A092 R
(1792465.544000) vcan0 00000001#38A193 R
(1792465.788000) vcan0 00000002#39A294 R
(1792466.024000) vcan0 00000001#3AA395 R
(1792466.266000) vcan0 00000002#3BA496 R
(1792466.501000) vcan0 00000001#3CA597 R
(1792466.745000) vcan0 00000002#3DA698 R
(1792466.981000) vcan0 00000001#3EA799 R
(1792467.219000) vcan0 00000002#3FA89A R
(1792467.455000) vcan0 00000001#40A99B R
(1792467.699000) vcan0 00000002#41AA9C R
(1792467.934000) vcan0 00000001#42559D R
(1792468.170000) vcan0 00000002#43569E R
(1792468.412000) vcan0 00000001#44579F R
(1792468.656000) vcan0 00000002#4558A0 R
(1792468.892000) vcan0 00000001#4659A1 R
(1792469.128000) vcan0 00000002#475AA2 R
(1792469.365000) vcan0 00000001#485BA3 R
(1792469.601000) vcan0 00000002#495CA4 R
(1792469.845000) vcan0 00000001#4A5DA5 R
(1792470.081000) vcan0 00000002#4B5EA6 R
(1792470.319000) vcan0 00000001#4C5FA7 R
(1792470.555000) vcan0 00000002#4D60A8 R
(1792470.798000) vcan0 00000001#4E61A9 R
(1792471.034000) vcan0 00000002#4F62AA R
(1792471.276000) vcan0 00000001#5063AB R
(1792471.511000) vcan0 00000002#5164AC R
(1792471.755000) vcan0 00000001#5265AD R
(1792471.991000) vcan0 00000002#5366AE R
(1792472.233000) vcan0 00000001#5467AF R
(1792472.468000) vcan0 00000002#0068B0 R
(1792472.712000) vcan0 00000001#0169B1 R
(1792472.948000) vcan0 00000002#026AB2 R
(1792473.184000) vcan0 00000001#036BB3 R
(1792473.425000) vcan0 00000002#046CB4 R
(1792473.669000) vcan0 00000001#056DB5 R
(1792473.905000) vcan0 00000002#066EB6 R
(1792474.140000) vcan0 00000001#076FB7 R
(1792474.382000) vcan0 00000002#0870B8 R
(1792474.618000) vcan0 00000001#0971B9 R
(1792474.861000) vcan0 00000002#0A72BA R
(1792475.097000) vcan0 00000001#0B73BB R
(1792475.335000) vcan0 00000002#0C74BC R
(1792475.571000) vcan0 00000001#0D75BD R
(1792475.815000) vcan0 00000002#0E76BE R
(1792476.050000) vcan0 00000001#0F77BF R
(1792476.292000) vcan0 00000002#1078C0 R
(1792476.528000) vcan0 00000001#1179C1 R
(1792476.771000) vcan0 00000002#127AC2 R
(1792477.007000) vcan0 00000001#137BC3 R
(1792477.249000) vcan0 00000002#147CC4 R
(1792477.485000) vcan0 00000001#157DC5 R
(1792477.729000) vcan0 00000002#167EC6 R
(1792477.964000) vcan0 00000001#177FC7 R
(1792478.201000) vcan0 00000002#1880C8 R
(1792478.441000) vcan0 00000001#1981C9 R
(1792478.685000) vcan0 00000002#1A82CA R
(1792478.921000) vcan0 00000001#1B83CB R
(1792479.157000) vcan0 00000002#1C84CC R
(1792479.398000) vcan0 00000001#1D85CD R
(1792479.642000) vcan0 00000002#1E86CE R
(1792479.878000) vcan0 00000001#1F87CF R
(1792480.113000) vcan0 00000002#2088D0 R
(1792480.352000) vcan0 00000001#2189D1 R
(1792480.587000) vcan0 00000002#228AD2 R
(1792480.831000) vcan0 00000001#238BD3 R
(1792481.067000) vcan0 00000002#248CD4 R
(1792481.309000) vcan0 00000001#258DD5 R
(1792481.544000) vcan0 00000002#268ED6 R
(1792481.788000) vcan0 00000001#278FD7 R
(1792482.024000) vcan0 00000002#2890D8 R
(1792482.266000) vcan0 00000001#2991D9 R
(1792482.501000) vcan0 00000002#2A92DA R
(1792482.745000) vcan0 00000001#2B93DB R
(1792482.981000) vcan0 00000002#2C94DC R
(1792483.219000) vcan0 00000001#2D95DD R
(1792483.455000) vcan0 00000002#2E96DE R
(1792483.699000) vcan0 00000001#2F97DF R
(1792483.934000) vcan0 00000002#3098E0 R
(1792484.170000) vcan0 00000001#3199E1 R
(1792484.412000) vcan0 00000002#329AE2 R
(1792484.656000) vcan0 00000001#339BE3 R
(1792484.892000) vcan0 00000002#349CE4 R
(1792485.128000) vcan0 00000001#359DE5 R
(1792485.365000) vcan0 00000002#369EE6 R
(1792485.601000) vcan0 00000001#379FE7 R
(1792485.845000) vcan0 00000002#38A0E8 R
(1792486.081000) vcan0 00000001#39A1E9 R
(1792486.319000) vcan0 00000002#3AA2EA R
(1792486.555000) vcan0 00000001#3BA3EB R
(1792486.798000) vcan0 00000002#3CA4EC R
(1792487.034000) vcan0 00000001#3DA5ED R
(1792487.276000) vcan0 00000002#3EA6EE R
(1792487.511000) vcan0 00000001#3FA7EF R
(1792487.755000) vcan0 00000002#40A8F0 R
(1792487.991000) vcan0 00000001#41A9F1 R
(1792488.233000) vcan0 00000002#42AAF2 R
(1792488.468000) vcan0 00000001#4355F3 R
(1792488.712000) vcan0 00000002#4456F4 R
(1792488.948000) vcan0 00000001#4557F5 R
(1792489.184000) vcan0 00000002#4658F6 R
(1792489.425000) vcan0 00000001#4759F7 R
(1792489.669000) vcan0 00000002#485AF8 R
(1792489.905000) vcan0 00000001#495BF9 R
(1792490.140000) vcan0 00000002#4A5CFA R
(1792490.382000) vcan0 00000001#4B5DFB R
(1792490.618000) vcan0 00000002#4C5EFC R
(1792490.861000) vcan0 00000001#4D5FFD R
(1792491.097000) vcan0 00000002#4E60FE R
(1792491.335000) vcan0 00000001#4F61FF R
(1792491.571000) vcan0 00000002#506200 R
(1792491.815000) vcan0 00000001#516301 R
(1792492.050000) vcan0 00000002#526402 R
(1792492.292000) vcan0 00000001#536503 R
(1792492.528000) vcan0 00000002#546604 R
(1792492.771000) vcan0 00000001#006705 R
(1792493.007000) vcan0 00000002#016806 R
(1792493.249000) vcan0 00000001#026907 R
(1792493.485000) vcan0 00000002#036A08 R
(1792493.729000) vcan0 00000001#046B09 R
(1792493.964000) vcan0 00000002#056C0A R
(1792494.201000) vcan0 00000001#066D0B R
(1792494.441000) vcan0 00000002#076E0C R
(1792494.685000) vcan0 00000001#086F0D R
(1792494.921000) vcan0 00000002#09700E R
(1792495.157000) vcan0 00000001#0A710F R
(1792495.398000) vcan0 00000002#0B7210 R
(1792495.642000) vcan0 00000001#0C7311 R
(1792495.878000) vcan0 00000002#0D7412 R
(1792496.113000) vcan0 00000001#0E7513 R
(1792496.352000) vcan0 00000002#0F7614 R
(1792496.587000) vcan0 00000001#107715 R
(1792496.831000) vcan0 00000002#117816 R
(1792497.067000) vcan0 00000001#127917 R
(1792497.309000) vcan0 00000002#137A18 R
(1792497.544000) vcan0 00000001#147B19 R
(1792497.788000) vcan0 00000002#157C1A R
(1792498.024000) vcan0 00000001#167D1B R
(1792498.266000) vcan0 00000002#177E1C R
(1792498.501000) vcan0 00000001#187F1D R
(1792498.745000) vcan0 00000002#19801E R
(1792498.981000) vcan0 00000001#1A811F R
(1792499.219000) vcan0 00000002#1B8220 R
(1792499.455000) vcan0 00000001#1C8321 R
(1792499.699000) vcan0 00000002#1D8422 R
(1792499.934000) vcan0 00000001#1E8523 R
(1792500.170000) vcan0 00000002#1F8624 R
(1792500.412000) vcan0 00000001#208725 R
(1792500.656000) vcan0 00000002#218826 R
(1792500.892000) vcan0 00000001#228927 R
(1792501.128000) vcan0 00000002#238A28 R
(1792501.365000) vcan0 00000001#248B29 R
(1792501.601000) vcan0 00000002#258C2A R
(1792501.845000) vcan0 00000001#268D2B R
(1792502.081000) vcan0 00000002#278E2C R
(1792502.319000) vcan0 00000001#288F2D R
(1792502.555000) vcan0 00000002#29902E R
(1792502.798000) vcan0 00000001#2A912F R
(1792503.034000) vcan0 00000002#2B9230 R
(1792503.276000) vcan0 00000001#2C9331 R
(1792503.511000) vcan0 00000002#2D9432 R
(1792503.755000) vcan0 00000001#2E9533 R
(1792503.991000) vcan0 00000002#2F9634 R
(1792504.233000) vcan0 00000001#309735 R
(1792504.468000) vcan0 00000002#319836 R
(1792504.712000) vcan0 00000001#329937 R
(1792504.948000) vcan0 00000002#339A38 R
(1792505.184000) vcan0 00000001#349B39 R
(1792505.425000) vcan0 00000002#359C3A R
(1792505.669000) vcan0 00000001#369D3B R
(1792505.905000) vcan0 00000002#379E3C R
(1792506.140000) vcan0 00000001#389F3D R
(1792506.382000) vcan0 00000002#39A03E R
(1792506.618000) vcan0 00000001#3AA13F R
(1792506.861000) vcan0 00000002#3BA240 R
(1792507.097000) vcan0 00000001#3CA341 R
(1792507.335000) vcan0 00000002#3DA442 R
(1792507.571000) vcan0 00000001#3EA543 R
(1792507.815000) vcan0 00000002#3FA644 R
(1792508.050000) vcan0 00000001#40A745 R
(1792508.292000) vcan0 00000002#41A846 R
(1792508.528000) vcan0 00000001#42A947 R
(1792508.771000) vcan0 00000002#43AA48 R
(1792509.007000) vcan0 00000001#445549 R
(1792509.249000) vcan0 00000002#45564A R
(1792509.485000) vcan0 00000001#46574B R
(1792509.729000) vcan0 00000002#47584C R
(1792509.964000) vcan0 00000001#48594D R
(1792510.201000) vcan0 00000002#495A4E R
(1792510.441000) vcan0 00000001#4A5B4F R
(1792510.685000) vcan0 00000002#4B5C50 R
(1792510.921000) vcan0 00000001#4C5D51 R
(1792511.157000) vcan0 00000002#4D5E52 R
(1792511.398000) vcan0 00000001#4E5F53 R
(1792511.642000) vcan0 00000002#4F6054 R
(1792511.877000) vcan0 00000001#506155 R
(1792512.113000) vcan0 00000002#516256 R
(1792512.351000) vcan0 00000001#526357 R
(1792512.587000) vcan0 00000002#536458 R
(1792512.831000) vcan0 00000001#546559 R
(1792513.067000) vcan0 00000002#00665A R
(1792513.308000) vcan0 00000001#01675B R
(1792513.544000) vcan0 00000002#02685C R
(1792513.788000) vcan0 00000001#03695D R
(1792514.023000) vcan0 00000002#046A5E R
(1792514.265000) vcan0 00000001#056B5F R
(1792514.501000) vcan0 00000002#066C60 R
(1792514.745000) vcan0 00000001#076D61 R
(1792514.981000) vcan0 00000002#086E62 R
(1792515.219000) vcan0 00000001#096F63 R
(1792515.455000) vcan0 00000002#0A7064 R
(1792515.699000) vcan0 00000001#0B7165 R
(1792515.935000) vcan0 00000002#0C7266 R
(1792516.170000) vcan0 00000001#0D7367 R
(1792516.412000) vcan0 00000002#0E7468 R
(1792516.656000) vcan0 00000001#0F7569 R
(1792516.892000) vcan0 00000002#10766A R
(1792517.127000) vcan0 00000001#11776B R
(1792517.365000) vcan0 00000002#12786C R
(1792517.601000) vcan0 00000001#13796D R
(1792517.845000) vcan0 00000002#147A6E R
(1792518.081000) vcan0 00000001#157B6F R
(1792518.319000) vcan0 00000002#167C70 R
(1792518.555000) vcan0 00000001#177D71 R
(1792518.798000) vcan0 00000002#187E72 R
(1792519.034000) vcan0 00000001#197F73 R
(1792519.276000) vcan0 00000002#1A8074 R
(1792519.511000) vcan0 00000001#1B8175 R
(1792519.755000) vcan0 00000002#1C8276 R
(1792519.991000) vcan0 00000001#1D8377 R
(1792520.233000) vcan0 00000002#1E8478 R
(1792520.468000) vcan0 00000001#1F8579 R
(1792520.712000) vcan0 00000002#20867A R
(1792520.948000) vcan0 00000001#21877B R
(1792521.184000) vcan0 00000002#22887C R
(1792521.425000) vcan0 00000001#23897D R
(1792521.669000) vcan0 00000002#248A7E R
(1792521.905000) vcan0 00000001#258B7F R
(1792522.140000) vcan0 00000002#268C80 R
(1792522.382000) vcan0 00000001#278D81 R
(1792522.618000) vcan0 00000002#288E82 R
(1792522.861000) vcan0 00000001#298F83 R
(1792523.097000) vcan0 00000002#2A9084 R
(1792523.335000) vcan0 00000001#2B9185 R
(1792523.571000) vcan0 00000002#2C9286 R
(1792523.815000) vcan0 00000001#2D9387 R
(1792524.050000) vcan0 00000002#2E9488 R
(1792524.292000) vcan0 00000001#2F9589 R
(1792524.528000) vcan0 00000002#30968A R
(1792524.771000) vcan0 00000001#31978B R
(1792525.007000) vcan0 00000002#32988C R
(1792525.249000) vcan0 00000001#33998D R
(1792525.485000) vcan0 00000002#349A8E R
(1792525.729000) vcan0 00000001#359B8F R
(1792525.964000) vcan0 00000002#369C90 R
(1792526.201000) vcan0 00000001#379D91 R
(1792526.441000) vcan0 00000002#389E92 R
(1792526.685000) vcan0 00000001#399F93 R
(1792526.921000) vcan0 00000002#3AA094 R
(1792527.157000) vcan0 00000001#3BA195 R
(1792527.398000) vcan0 00000002#3CA296 R
(1792527.642000) vcan0 00000001#3DA397 R
(1792527.878000) vcan0 00000002#3EA498 R
(1792528.114000) vcan0 00000001#3FA599 R
(1792528.352000) vcan0 00000002#40A69A R
(1792528.587000) vcan0 00000001#41A79B R
(1792528.831000) vcan0 00000002#42A89C R
(1792529.067000) vcan0 00000001#43A99D R
(1792529.308000) vcan0 00000002#44AA9E R
(1792529.544000) vcan0 00000001#45559F R
(1792529.788000) vcan0 00000002#4656A0 R
(1792530.023000) vcan0 00000001#4757A1 R
(1792530.265000) vcan0 00000002#4858A2 R
(1792530.501000) vcan0 00000001#4959A3 R
(1792530.745000) vcan0 00000002#4A5AA4 R
(1792530.981000) vcan0 00000001#4B5BA5 R
(1792531.219000) vcan0 00000002#4C5CA6 R
(1792531.455000) vcan0 00000001#4D5DA7 R
(1792531.699000) vcan0 00000002#4E5EA8 R
(1792531.935000) vcan0 00000001#4F5FA9 R
(1792532.170000) vcan0 00000002#5060AA R
(1792532.412000) vcan0 00000001#5161AB R
(1792532.656000) vcan0 00000002#5262AC R
(1792532.892000) vcan0 00000001#5363AD R
(1792533.128000) vcan0 00000002#5464AE R
(1792533.365000) vcan0 00000001#0065AF R
(1792533.601000) vcan0 00000002#0166B0 R
(1792533.845000) vcan0 00000001#0267B1 R
(1792534.081000) vcan0 00000002#0368B2 R
(1792534.319000) vcan0 00000001#0469B3 R
(1792534.555000) vcan0 00000002#056AB4 R
(1792534.798000) vcan0 00000001#066BB5 R
(1792535.034000) vcan0 00000002#076CB6 R
(1792535.276000) vcan0 00000001#086DB7 R
(1792535.511000) vcan0 00000002#096EB8 R
(1792535.755000) vcan0 00000001#0A6FB9 R
(1792535.991000) vcan0 00000002#0B70BA R
(1792536.233000) vcan0 00000001#0C71BB R
(1792536.468000) vcan0 00000002#0D72BC R
(1792536.712000) vcan0 00000001#0E73BD R
(1792536.948000) vcan0 00000002#0F74BE R
(1792537.184000) vcan0 00000001#1075BF R
(1792537.425000) vcan0 00000002#1176C0 R
(1792537.669000) vcan0 00000001#1277C1 R
(1792537.905000) vcan0 00000002#1378C2 R
(1792538.140000) vcan0 00000001#1479C3 R
(1792538.382000) vcan0 00000002#157AC4 R
(1792538.618000) vcan0 00000001#167BC5 R
(1792538.861000) vcan0 00000002#177CC6 R
(1792539.097000) vcan0 00000001#187DC7 R
(1792539.335000) vcan0 00000002#197EC8 R
(1792539.571000) vcan0 00000001#1A7FC9 R
(1792539.815000) vcan0 00000002#1B80CA R
(1792540.050000) vcan0 00000001#1C81CB R
(1792540.292000) vcan0 00000002#1D82CC R
(1792540.528000) vcan0 00000001#1E83CD R
(1792540.771000) vcan0 00000002#1F84CE R
(1792541.007000) vcan0 00000001#2085CF R
(1792541.249000) vcan0 00000002#2186D0 R
(1792541.485000) vcan0 00000001#2287D1 R
(1792541.729000) vcan0 00000002#2388D2 R
(1792541.964000) vcan0 00000001#2489D3 R
(1792542.201000) vcan0 00000002#258AD4 R
(1792542.441000) vcan0 00000001#268BD5 R
(1792542.685000) vcan0 00000002#278CD6 R
(1792542.921000) vcan0 00000001#288DD7 R
(1792543.157000) vcan0 00000002#298ED8 R
(1792543.398000) vcan0 00000001#2A8FD9 R
(1792543.642000) vcan0 00000002#2B90DA R
(1792543.878000) vcan0 00000001#2C91DB R
(1792544.113000) vcan0 00000002#2D92DC R
(1792544.352000) vcan0 00000001#2E93DD R
(1792544.587000) vcan0 00000002#2F94DE R
(1792544.831000) vcan0 00000001#3095DF R
(1792545.067000) vcan0 00000002#3196E0 R
(1792545.309000) vcan0 00000001#3297E1 R
(1792545.544000) vcan0 00000002#3398E2 R
(1792545.788000) vcan0 00000001#3499E3 R
(1792546.024000) vcan0 00000002#359AE4 R
(1792546.266000) vcan0 00000001#369BE5 R
(1792546.501000) vcan0 00000002#379CE6 R
(1792546.745000) vcan0 00000001#389DE7 R
(1792546.981000) vcan0 00000002#399EE8 R
(1792547.219000) vcan0 00000001#3A9FE9 R
(1792547.455000) vcan0 00000002#3BA0EA R
(1792547.699000) vcan0 00000001#3CA1EB R
(1792547.934000) vcan0 00000002#3DA2EC R
(1792548.170000) vcan0 00000001#3EA3ED R
(1792548.412000) vcan0 00000002#3FA4EE R
(1792548.656000) vcan0 00000001#40A5EF R
(1792548.892000) vcan0 00000002#41A6F0 R
(1792549.128000) vcan0 00000001#42A7F1 R
(1792549.365000) vcan0 00000002#43A8F2 R
(1792549.601000) vcan0 00000001#44A9F3 R
(1792549.845000) vcan0 00000002#45AAF4 R
(1792550.081000) vcan0 00000001#4655F5 R
(1792550.319000) vcan0 00000002#4756F6 R
(1792550.555000) vcan0 00000001#4857F7 R
(1792550.798000) vcan0 00000002#4958F8 R
(1792551.034000) vcan0 00000001#4A59F9 R
(1792551.276000) vcan0 00000002#4B5AFA R
(1792551.511000) vcan0 00000001#4C5BFB R
(1792551.755000) vcan0 00000002#4D5CFC R
(1792551.991000) vcan0 00000001#4E5DFD R
(1792552.233000) vcan0 00000002#4F5EFE R
(1792552.468000) vcan0 00000001#505FFF R
(1792552.712000) vcan0 00000002#516000 R
(1792552.948000) vcan0 00000001#526101 R
(1792553.184000) vcan0 00000002#536202 R
(1792553.425000) vcan0 00000001#546303 R
(1792553.669000) vcan0 00000002#006404 R
(1792553.905000) vcan0 00000001#016505 R
(1792554.140000) vcan0 00000002#026606 R
(1792554.382000) vcan0 00000001#036707 R
(1792554.618000) vcan0 00000002#046808 R
(1792554.861000) vcan0 00000001#056909 R
(1792555.097000) vcan0 00000002#066A0A R
(1792555.335000) vcan0 00000001#076B0B R
(1792555.571000) vcan0 00000002#086C0C R
(1792555.815000) vcan0 00000001#096D0D R
(1792556.050000) vcan0 00000002#0A6E0E R
(1792556.292000) vcan0 00000001#0B6F0F R
(1792556.528000) vcan0 00000002#0C7010 R
(1792556.771000) vcan0 00000001#0D7111 R
(1792557.007000) vcan0 00000002#0E7212 R
(1792557.249000) vcan0 00000001#0F7313 R
(1792557.485000) vcan0 00000002#107414 R
(1792557.729000) vcan0 00000001#117515 R
(1792557.964000) vcan0 00000002#127616 R
(1792558.201000) vcan0 00000001#137717 R
(1792558.441000) vcan0 00000002#147818 R
(1792558.685000) vcan0 00000001#157919 R
(1792558.921000) vcan0 00000002#167A1A R
(1792559.157000) vcan0 00000001#177B1B R
(1792559.398000) vcan0 00000002#187C1C R
(1792559.642000) vcan0 00000001#197D1D R
(1792559.878000) vcan0 00000002#1A7E1E R
(1792560.114000) vcan0 00000001#1B7F1F R
(1792560.352000) vcan0 00000002#1C8020 R
(1792560.587000) vcan0 00000001#1D8121 R
(1792560.831000) vcan0 00000002#1E8222 R
(1792561.067000) vcan0 00000001#1F8323 R
(1792561.308000) vcan0 00000002#208424 R
(1792561.544000) vcan0 00000001#218525 R
(1792561.788000) vcan0 00000002#228626 R
(1792562.023000) vcan0 00000001#238727 R
(1792562.265000) vcan0 00000002#248828 R
(1792562.501000) vcan0 00000001#258929 R
(1792562.745000) vcan0 00000002#268A2A R
(1792562.981000) vcan0 00000001#278B2B R
(1792563.219000) vcan0 00000002#288C2C R
(1792563.455000) vcan0 00000001#298D2D R
(1792563.699000) vcan0 00000002#2A8E2E R
(1792563.935000) vcan0 00000001#2B8F2F R
(1792564.170000) vcan0 00000002#2C9030 R
(1792564.412000) vcan0 00000001#2D9131 R
(1792564.656000) vcan0 00000002#2E9232 R
(1792564.892000) vcan0 00000001#2F9333 R
(1792565.128000) vcan0 00000002#309434 R
(1792565.365000) vcan0 00000001#319535 R
(1792565.601000) vcan0 00000002#329636 R
(1792565.845000) vcan0 00000001#339737 R
(1792566.081000) vcan0 00000002#349838 R
(1792566.319000) vcan0 00000001#359939 R
(1792566.555000) vcan0 00000002#369A3A R
(1792566.798000) vcan0 00000001#379B3B R
(1792567.034000) vcan0 00000002#389C3C R
(1792567.276000) vcan0 00000001#399D3D R
(1792567.511000) vcan0 00000002#3A9E3E R
(1792567.755000) vcan0 00000001#3B9F3F R
(1792567.991000) vcan0 00000002#3CA040 R
(1792568.233000) vcan0 00000001#3DA141 R
(1792568.468000) vcan0 00000002#3EA242 R
(1792568.712000) vcan0 00000001#3FA343 R
(1792568.948000) vcan0 00000002#40A444 R
(1792569.184000) vcan0 00000001#41A545 R
(1792569.425000) vcan0 00000002#42A646 R
(1792569.669000) vcan0 00000001#43A747 R
(1792569.905000) vcan0 00000002#44A848 R
(1792570.140000) vcan0 00000001#45A949 R
(1792570.382000) vcan0 00000002#46AA4A R
(1792570.618000) vcan0 00000001#47554B R
(1792570.861000) vcan0 00000002#48564C R
(1792571.097000) vcan0 00000001#49574D R
(1792571.335000) vcan0 00000002#4A584E R
(1792571.571000) vcan0 00000001#4B594F R
(1792571.815000) vcan0 00000002#4C5A50 R
(1792572.050000) vcan0 00000001#4D5B51 R
(1792572.292000) vcan0 00000002#4E5C52 R
(1792572.528000) vcan0 00000001#4F5D53 R
(1792572.771000) vcan0 00000002#505E54 R
(1792573.007000) vcan0 00000001#515F55 R
(1792573.249000) vcan0 00000002#526056 R
(1792573.485000) vcan0 00000001#536157 R
(1792573.729000) vcan0 00000002#546258 R
(1792573.965000) vcan0 00000001#006359 R
(1792574.201000) vcan0 00000002#01645A R
(1792574.441000) vcan0 00000001#02655B R
(1792574.685000) vcan0 00000002#03665C R
(1792574.921000) vcan0 00000001#04675D R
(1792575.157000) vcan0 00000002#05685E R
(1792575.398000) vcan0 00000001#06695F R
(1792575.642000) vcan0 00000002#076A60 R
(1792575.878000) vcan0 00000001#086B61 R
(1792576.113000) vcan0 00000002#096C62 R
(1792576.352000) vcan0 00000001#0A6D63 R
(1792576.587000) vcan0 00000002#0B6E64 R
(1792576.831000) vcan0 00000001#0C6F65 R
(1792577.067000) vcan0 00000002#0D7066 R
(1792577.309000) vcan0 00000001#0E7167 R
(1792577.545000) vcan0 00000002#0F7268 R
(1792577.788000) vcan0 00000001#107369 R
(1792578.024000) vcan0 00000002#11746A R
(1792578.265000) vcan0 00000001#12756B R
(1792578.501000) vcan0 00000002#13766C R
(1792578.745000) vcan0 00000001#14776D R
(1792578.981000) vcan0 00000002#15786E R
(1792579.219000) vcan0 00000001#16796F R
(1792579.455000) vcan0 00000002#177A70 R
(1792579.698000) vcan0 00000001#187B71 R
(1792579.934000) vcan0 00000002#197C72 R
(1792580.170000) vcan0 00000001#1A7D73 R
(1792580.412000) vcan0 00000002#1B7E74 R
(1792580.656000) vcan0 00000001#1C7F75 R
(1792580.891000) vcan0 00000002#1D8076 R
(1792581.127000) vcan0 00000001#1E8177 R
(1792581.366000) vcan0 00000002#1F8278 R
(1792581.601000) vcan0 00000001#208379 R
(1792581.845000) vcan0 00000002#21847A R
(1792582.081000) vcan0 00000001#22857B R
(1792582.318000) vcan0 00000002#23867C R
(1792582.554000) vcan0 00000001#24877D R
(1792582.798000) vcan0 00000002#25887E R
(1792583.034000) vcan0 00000001#26897F R
(1792583.276000) vcan0 00000002#278A80 R
(1792583.511000) vcan0 00000001#288B81 R
(1792583.755000) vcan0 00000002#298C82 R
(1792583.991000) vcan0 00000001#2A8D83 R
(1792584.233000) vcan0 00000002#2B8E84 R
(1792584.468000) vcan0 00000001#2C8F85 R
(1792584.712000) vcan0 00000002#2D9086 R
(1792584.948000) vcan0 00000001#2E9187 R
(1792585.184000) vcan0 00000002#2F9288 R
(1792585.425000) vcan0 00000001#309389 R
(1792585.669000) vcan0 00000002#31948A R
(1792585.905000) vcan0 00000001#32958B R
(1792586.140000) vcan0 00000002#33968C R
(1792586.382000) vcan0 00000001#34978D R
(1792586.618000) vcan0 00000002#35988E R
(1792586.862000) vcan0 00000001#36998F R
(1792587.097000) vcan0 00000002#379A90 R
(1792587.335000) vcan0 00000001#389B91 R
(1792587.571000) vcan0 00000002#399C92 R
(1792587.815000) vcan0 00000001#3A9D93 R
(1792588.051000) vcan0 00000002#3B9E94 R
(1792588.293000) vcan0 00000001#3C9F95 R
(1792588.529000) vcan0 00000002#3DA096 R
(1792588.772000) vcan0 00000001#3EA197 R
(1792589.008000) vcan0 00000002#3FA298 R
(1792589.249000) vcan0 00000001#40A399 R
(1792589.485000) vcan0 00000002#41A49A R
(1792589.729000) vcan0 00000001#42A59B R
(1792589.964000) vcan0 00000002#43A69C R
(1792590.201000) vcan0 00000001#44A79D R
(1792590.441000) vcan0 00000002#45A89E R
(1792590.685000) vcan0 00000001#46A99F R
(1792590.921000) vcan0 00000002#47AAA0 R
(1792591.157000) vcan0 00000001#4855A1 R
(1792591.398000) vcan0 00000002#4956A2 R
(1792591.642000) vcan0 00000001#4A57A3 R
(1792591.878000) vcan0 00000002#4B58A4 R
(1792592.113000) vcan0 00000001#4C59A5 R
(1792592.352000) vcan0 00000002#4D5AA6 R
(1792592.587000) vcan0 00000001#4E5BA7 R
(1792592.831000) vcan0 00000002#4F5CA8 R
(1792593.067000) vcan0 00000001#505DA9 R
(1792593.308000) vcan0 00000002#515EAA R
(1792593.544000) vcan0 00000001#525FAB R
(1792593.788000) vcan0 00000002#5360AC R
(1792594.023000) vcan0 00000001#5461AD R
(1792594.265000) vcan0 00000002#0062AE R
(1792594.501000) vcan0 00000001#0163AF R
(1792594.745000) vcan0 00000002#0264B0 R
(1792594.981000) vcan0 00000001#0365B1 R
(1792595.219000) vcan0 00000002#0466B2 R
(1792595.455000) vcan0 00000001#0567B3 R
(1792595.698000) vcan0 00000002#0668B4 R
(1792595.934000) vcan0 00000001#0769B5 R
(1792596.170000) vcan0 00000002#086AB6 R
(1792596.412000) vcan0 00000001#096BB7 R
(1792596.656000) vcan0 00000002#0A6CB8 R
(1792596.892000) vcan0 00000001#0B6DB9 R
(1792597.127000) vcan0 00000002#0C6EBA R
(1792597.365000) vcan0 00000001#0D6FBB R
(1792597.601000) vcan0 00000002#0E70BC R
(1792597.845000) vcan0 00000001#0F71BD R
(1792598.081000) vcan0 00000002#1072BE R
(1792598.319000) vcan0 00000001#1173BF R
(1792598.555000) vcan0 00000002#1274C0 R
(1792598.798000) vcan0 00000001#1375C1 R
(1792599.034000) vcan0 00000002#1476C2 R
(1792599.276000) vcan0 00000001#1577C3 R
(1792599.511000) vcan0 00000002#1678C4 R
(1792599.755000) vcan0 00000001#1779C5 R
(1792599.991000) vcan0 00000002#187AC6 R
(1792600.233000) vcan0 00000001#197BC7 R
(1792600.468000) vcan0 00000002#1A7CC8 R
(1792600.712000) vcan0 00000001#1B7DC9 R
(1792600.948000) vcan0 00000002#1C7ECA R
(1792601.184000) vcan0 00000001#1D7FCB R
(1792601.425000) vcan0 00000002#1E80CC R
(1792601.669000) vcan0 00000001#1F81CD R
(1792601.905000) vcan0 00000002#2082CE R
(1792602.140000) vcan0 00000001#2183CF R
(1792602.382000) vcan0 00000002#2284D0 R
(1792602.618000) vcan0 00000001#2385D1 R
(1792602.861000) vcan0 00000002#2486D2 R
(1792603.097000) vcan0 00000001#2587D3 R
(1792603.335000) vcan0 00000002#2688D4 R
(1792603.571000) vcan0 00000001#2789D5 R
(1792603.815000) vcan0 00000002#288AD6 R
(1792604.050000) vcan0 00000001#298BD7 R
(1792604.292000) vcan0 00000002#2A8CD8 R
(1792604.528000) vcan0 00000001#2B8DD9 R
(1792604.771000) vcan0 00000002#2C8EDA R
(1792605.007000) vcan0 00000001#2D8FDB R
(1792605.249000) vcan0 00000002#2E90DC R
(1792605.485000) vcan0 00000001#2F91DD R
(1792605.729000) vcan0 00000002#3092DE R
(1792605.964000) vcan0 00000001#3193DF R
(1792606.201000) vcan0 00000002#3294E0 R
(1792606.441000) vcan0 00000001#3395E1 R
(1792606.685000) vcan0 00000002#3496E2 R
(1792606.921000) vcan0 00000001#3597E3 R
(1792607.157000) vcan0 00000002#3698E4 R
(1792607.398000) vcan0 00000001#3799E5 R
(1792607.642000) vcan0 00000002#389AE6 R
(1792607.878000) vcan0 00000001#399BE7 R
(1792608.113000) vcan0 00000002#3A9CE8 R
(1792608.352000) vcan0 00000001#3B9DE9 R
(1792608.587000) vcan0 00000002#3C9EEA R
(1792608.831000) vcan0 00000001#3D9FEB R
(1792609.067000) vcan0 00000002#3EA0EC R
(1792609.309000) vcan0 00000001#3FA1ED R
(1792609.544000) vcan0 00000002#40A2EE R
(1792609.788000) vcan0 00000001#41A3EF R
(1792610.024000) vcan0 00000002#42A4F0 R
(1792610.266000) vcan0 00000001#43A5F1 R
(1792610.501000) vcan0 00000002#44A6F2 R
(1792610.745000) vcan0 00000001#45A7F3 R
(1792610.981000) vcan0 00000002#46A8F4 R
(1792611.219000) vcan0 00000001#47A9F5 R
(1792611.455000) vcan0 00000002#48AAF6 R
(1792611.699000) vcan0 00000001#4955F7 R
(1792611.934000) vcan0 00000002#4A56F8 R
(1792612.170000) vcan0 00000001#4B57F9 R
(1792612.412000) vcan0 00000002#4C58FA R
(1792612.656000) vcan0 00000001#4D59FB R
(1792612.892000) vcan0 00000002#4E5AFC R
(1792613.128000) vcan0 00000001#4F5BFD R
(1792613.365000) vcan0 00000002#505CFE R
(1792613.601000) vcan0 00000001#515DFF R
(1792613.845000) vcan0 00000002#525E00 R
(1792614.081000) vcan0 00000001#535F01 R
(1792614.319000) vcan0 00000002#546002 R
(1792614.555000) vcan0 00000001#006103 R
(1792614.798000) vcan0 00000002#016204 R
(1792615.034000) vcan0 00000001#026305 R
(1792615.276000) vcan0 00000002#036406 R
(1792615.511000) vcan0 00000001#046507 R
(1792615.755000) vcan0 00000002#056608 R
(1792615.991000) vcan0 00000001#066709 R
(1792616.233000) vcan0 00000002#07680A R
(1792616.468000) vcan0 00000001#08690B R
(1792616.712000) vcan0 00000002#096A0C R
(1792616.948000) vcan0 00000001#0A6B0D R
(1792617.184000) vcan0 00000002#0B6C0E R
(1792617.425000) vcan0 00000001#0C6D0F R
(1792617.669000) vcan0 00000002#0D6E10 R
(1792617.905000) vcan0 00000001#0E6F11 R
(1792618.140000) vcan0 00000002#0F7012 R
(1792618.382000) vcan0 00000001#107113 R
(1792618.618000) vcan0 00000002#117214 R
(1792618.861000) vcan0 00000001#127315 R
(1792619.097000) vcan0 00000002#137416 R
(1792619.335000) vcan0 00000001#147517 R
(1792619.571000) vcan0 00000002#157618 R
(1792619.815000) vcan0 00000001#167719 R
(1792620.050000) vcan0 00000002#17781A R
(1792620.292000) vcan0 00000001#18791B R
(1792620.528000) vcan0 00000002#197A1C R
(1792620.771000) vcan0 00000001#1A7B1D R
(1792621.007000) vcan0 00000002#1B7C1E R
(1792621.249000) vcan0 00000001#1C7D1F R
(1792621.485000) vcan0 00000002#1D7E20 R
(1792621.729000) vcan0 00000001#1E7F21 R
(1792621.964000) vcan0 00000002#1F8022 R
(1792622.201000) vcan0 00000001#208123 R
(1792622.441000) vcan0 00000002#218224 R
(1792622.685000) vcan0 00000001#228325 R
(1792622.921000) vcan0 00000002#238426 R
(1792623.157000) vcan0 00000001#248527 R
(1792623.398000) vcan0 00000002#258628 R
(1792623.642000) vcan0 00000001#268729 R
(1792623.878000) vcan0 00000002#27882A R
(1792624.114000) vcan0 00000001#28892B R
(1792624.352000) vcan0 00000002#298A2C R
(1792624.587000) vcan0 00000001#2A8B2D R
(1792624.831000) vcan0 00000002#2B8C2E R
(1792625.067000) vcan0 00000001#2C8D2F R
(1792625.308000) vcan0 00000002#2D8E30 R
(1792625.544000) vcan0 00000001#2E8F31 R
(1792625.788000) vcan0 00000002#2F9032 R
(1792626.023000) vcan0 00000001#309133 R
(1792626.265000) vcan0 00000002#319234 R
(1792626.501000) vcan0 00000001#329335 R
(1792626.745000) vcan0 00000002#339436 R
(1792626.981000) vcan0 00000001#349537 R
(1792627.219000) vcan0 00000002#359638 R
(1792627.455000) vcan0 00000001#369739 R
(1792627.699000) vcan0 00000002#37983A R
(1792627.935000) vcan0 00000001#38993B R
(1792628.170000) vcan0 00000002#399A3C R
(1792628.412000) vcan0 00000001#3A9B3D R
(1792628.656000) vcan0 00000002#3B9C3E R
(1792628.892000) vcan0 00000001#3C9D3F R
(1792629.128000) vcan0 00000002#3D9E40 R
(1792629.365000) vcan0 00000001#3E9F41 R
(1792629.601000) vcan0 00000002#3FA042 R
(1792629.845000) vcan0 00000001#40A143 R
(1792630.081000) vcan0 00000002#41A244 R
(1792630.319000) vcan0 00000001#42A345 R
(1792630.555000) vcan0 00000002#43A446 R
(1792630.798000) vcan0 00000001#44A547 R
(1792631.034000) vcan0 00000002#45A648 R
(1792631.276000) vcan0 00000001#46A749 R
(1792631.511000) vcan0 00000002#47A84A R
(1792631.755000) vcan0 00000001#48A94B R
(1792631.991000) vcan0 00000002#49AA4C R
(1792632.233000) vcan0 00000001#4A554D R
(1792632.468000) vcan0 00000002#4B564E R
(1792632.712000) vcan0 00000001#4C574F R
(1792632.948000) vcan0 00000002#4D5850 R
(1792633.184000) vcan0 00000001#4E5951 R
(1792633.425000) vcan0 00000002#4F5A52 R
(1792633.669000) vcan0 00000001#505B53 R
(1792633.905000) vcan0 00000002#515C54 R
(1792634.140000) vcan0 00000001#525D55 R
(1792634.382000) vcan0 00000002#535E56 R
(1792634.618000) vcan0 00000001#545F57 R
(1792634.861000) vcan0 00000002#006058 R
(1792635.097000) vcan0 00000001#016159 R
(1792635.335000) vcan0 00000002#02625A R
(1792635.571000) vcan0 00000001#03635B R
(1792635.815000) vcan0 00000002#04645C R
(1792636.050000) vcan0 00000001#05655D R
(1792636.292000) vcan0 00000002#06665E R
(1792636.528000) vcan0 00000001#07675F R
(1792636.771000) vcan0 00000002#086860 R
(1792637.007000) vcan0 00000001#096961 R
(1792637.249000) vcan0 00000002#0A6A62 R
(1792637.485000) vcan0 00000001#0B6B63 R
(1792637.729000) vcan0 00000002#0C6C64 R
(1792637.964000) vcan0 00000001#0D6D65 R
(1792638.201000) vcan0 00000002#0E6E66 R
(1792638.441000) vcan0 00000001#0F6F67 R
(1792638.685000) vcan0 00000002#107068 R
(1792638.921000) vcan0 00000001#117169 R
(1792639.157000) vcan0 00000002#12726A R
(1792639.398000) vcan0 00000001#13736B R
(1792639.642000) vcan0 00000002#14746C R
(1792639.878000) vcan0 00000001#15756D R
(1792640.113000) vcan0 00000002#16766E R
(1792640.352000) vcan0 00000001#17776F R
(1792640.587000) vcan0 00000002#187870 R
(1792640.831000) vcan0 00000001#197971 R
(1792641.067000) vcan0 00000002#1A7A72 R
(1792641.309000) vcan0 00000001#1B7B73 R
(1792641.544000) vcan0 00000002#1C7C74 R
(1792641.788000) vcan0 00000001#1D7D75 R
(1792642.024000) vcan0 00000002#1E7E76 R
(1792642.266000) vcan0 00000001#1F7F77 R
(1792642.501000) vcan0 00000002#208078 R
(1792642.745000) vcan0 00000001#218179 R
(1792642.981000) vcan0 00000002#22827A R
(1792643.219000) vcan0 00000001#23837B R
(1792643.455000) vcan0 00000002#24847C R
(1792643.699000) vcan0 00000001#25857D R
(1792643.934000) vcan0 00000002#26867E R
(1792644.170000) vcan0 00000001#27877F R
(1792644.412000) vcan0 00000002#288880 R
(1792644.656000) vcan0 00000001#298981 R
(1792644.892000) vcan0 00000002#2A8A82 R
(1792645.128000) vcan0 00000001#2B8B83 R
(1792645.365000) vcan0 00000002#2C8C84 R
(1792645.601000) vcan0 00000001#2D8D85 R
(1792645.845000) vcan0 00000002#2E8E86 R
(1792646.081000) vcan0 00000001#2F8F87 R
(1792646.319000) vcan0 00000002#309088 R
(1792646.555000) vcan0 00000001#319189 R
(1792646.798000) vcan0 00000002#32928A R
(1792647.034000) vcan0 00000001#33938B R
(1792647.276000) vcan0 00000002#34948C R
(1792647.511000) vcan0 00000001#35958D R
(1792647.755000) vcan0 00000002#36968E R
(1792647.991000) vcan0 00000001#37978F R
(1792648.233000) vcan0 00000002#389890 R
(1792648.468000) vcan0 00000001#399991 R
(1792648.712000) vcan0 00000002#3A9A92 R
(1792648.948000) vcan0 00000001#3B9B93 R
(1792649.184000) vcan0 00000002#3C9C94 R
(1792649.425000) vcan0 00000001#3D9D95 R
(1792649.669000) vcan0 00000002#3E9E96 R
(1792649.905000) vcan0 00000001#3F9F97 R
(1792650.140000) vcan0 00000002#40A098 R
(1792650.382000) vcan0 00000001#41A199 R
(1792650.618000) vcan0 00000002#42A29A R
(1792650.861000) vcan0 00000001#43A39B R
(1792651.097000) vcan0 00000002#44A49C R
(1792651.335000) vcan0 00000001#45A59D R
(1792651.571000) vcan0 00000002#46A69E R
(1792651.815000) vcan0 00000001#47A79F R
(1792652.050000) vcan0 00000002#48A8A0 R
(1792652.292000) vcan0 00000001#49A9A1 R
(1792652.528000) vcan0 00000002#4AAAA2 R
(1792652.771000) vcan0 00000001#4B55A3 R
(1792653.007000) vcan0 00000002#4C56A4 R
(1792653.249000) vcan0 00000001#4D57A5 R
(1792653.485000) vcan0 00000002#4E58A6 R
(1792653.729000) vcan0 00000001#4F59A7 R
(1792653.964000) vcan0 00000002#505AA8 R
(1792654.201000) vcan0 00000001#515BA9 R
(1792654.441000) vcan0 00000002#525CAA R
(1792654.685000) vcan0 00000001#535DAB R
(1792654.921000) vcan0 00000002#545EAC R
(1792655.157000) vcan0 00000001#005FAD R
(1792655.398000) vcan0 00000002#0160AE R
(1792655.642000) vcan0 00000001#0261AF R
(1792655.878000) vcan0 00000002#0362B0 R
(1792656.113000) vcan0 00000001#0463B1 R
(1792656.352000) vcan0 00000002#0564B2 R
(1792656.587000) vcan0 00000001#0665B3 R
(1792656.831000) vcan0 00000002#0766B4 R
(1792657.067000) vcan0 00000001#0867B5 R
(1792657.309000) vcan0 00000002#0968B6 R
(1792657.545000) vcan0 00000001#0A69B7 R
(1792657.788000) vcan0 00000002#0B6AB8 R
(1792658.024000) vcan0 00000001#0C6BB9 R
(1792658.265000) vcan0 00000002#0D6CBA R
(1792658.501000) vcan0 00000001#0E6DBB R
(1792658.745000) vcan0 00000002#0F6EBC R
(1792658.981000) vcan0 00000001#106FBD R
(1792659.219000) vcan0 00000002#1170BE R
(1792659.455000) vcan0 00000001#1271BF R
(1792659.698000) vcan0 00000002#1372C0 R
(1792659.934000) vcan0 00000001#1473C1 R
(1792660.170000) vcan0 00000002#1574C2 R
(1792660.412000) vcan0 00000001#1675C3 R
(1792660.656000) vcan0 00000002#1776C4 R
(1792660.892000) vcan0 00000001#1877C5 R
(1792661.127000) vcan0 00000002#1978C6 R
(1792661.365000) vcan0 00000001#1A79C7 R
(1792661.601000) vcan0 00000002#1B7AC8 R
(1792661.845000) vcan0 00000001#1C7BC9 R
(1792662.081000) vcan0 00000002#1D7CCA R
(1792662.319000) vcan0 00000001#1E7DCB R
(1792662.555000) vcan0 00000002#1F7ECC R
(1792662.798000) vcan0 00000001#207FCD R
(1792663.034000) vcan0 00000002#2180CE R
(1792663.276000) vcan0 00000001#2281CF R
(1792663.511000) vcan0 00000002#2382D0 R
(1792663.755000) vcan0 00000001#2483D1 R
(1792663.991000) vcan0 00000002#2584D2 R
(1792664.233000) vcan0 00000001#2685D3 R
(1792664.468000) vcan0 00000002#2786D4 R
(1792664.712000) vcan0 00000001#2887D5 R
(1792664.948000) vcan0 00000002#2988D6 R
(1792665.184000) vcan0 00000001#2A89D7 R
(1792665.425000) vcan0 00000002#2B8AD8 R
(1792665.669000) vcan0 00000001#2C8BD9 R
(1792665.905000) vcan0 00000002#2D8CDA R
(1792666.140000) vcan0 00000001#2E8DDB R
(1792666.382000) vcan0 00000002#2F8EDC R
(1792666.618000) vcan0 00000001#308FDD R
(1792666.861000) vcan0 00000002#3190DE R
(1792667.097000) vcan0 00000001#3291DF R
(1792667.335000) vcan0 00000002#3392E0 R
(1792667.571000) vcan0 00000001#3493E1 R
(1792667.815000) vcan0 00000002#3594E2 R
(1792668.050000) vcan0 00000001#3695E3 R
(1792668.292000) vcan0 00000002#3796E4 R
(1792668.528000) vcan0 00000001#3897E5 R
(1792668.771000) vcan0 00000002#3998E6 R
(1792669.007000) vcan0 00000001#3A99E7 R
(1792669.249000) vcan0 00000002#3B9AE8 R
(1792669.485000) vcan0 00000001#3C9BE9 R
(1792669.729000) vcan0 00000002#3D9CEA R
(1792669.964000) vcan0 00000001#3E9DEB R
(1792670.201000) vcan0 00000002#3F9EEC R
(1792670.441000) vcan0 00000001#409FED R
(1792670.685000) vcan0 00000002#41A0EE R
(1792670.921000) vcan0 00000001#42A1EF R
(1792671.157000) vcan0 00000002#43A2F0 R
(1792671.398000) vcan0 00000001#44A3F1 R
(1792671.642000) vcan0 00000002#45A4F2 R
(1792671.878000) vcan0 00000001#46A5F3 R
(1792672.113000) vcan0 00000002#47A6F4 R
(1792672.352000) vcan0 00000001#48A7F5 R
(1792672.587000) vcan0 00000002#49A8F6 R
(1792672.831000) vcan0 00000001#4AA9F7 R
(1792673.067000) vcan0 00000002#4BAAF8 R
(1792673.309000) vcan0 00000001#4C55F9 R
(1792673.544000) vcan0 00000002#4D56FA R
(1792673.788000) vcan0 00000001#4E57FB R
(1792674.024000) vcan0 00000002#4F58FC R
(1792674.266000) vcan0 00000001#5059FD R
(1792674.501000) vcan0 00000002#515AFE R
(1792674.745000) vcan0 00000001#525BFF R
(1792674.981000) vcan0 00000002#535C00 R
(1792675.219000) vcan0 00000001#545D01 R
(1792675.455000) vcan0 00000002#005E02 R
(1792675.699000) vcan0 00000001#015F03 R
(1792675.934000) vcan0 00000002#026004 R
(1792676.170000) vcan0 00000001#036105 R
(1792676.412000) vcan0 00000002#046206 R
(1792676.656000) vcan0 00000001#056307 R
(1792676.892000) vcan0 00000002#066408 R
(1792677.128000) vcan0 00000001#076509 R
(1792677.365000) vcan0 00000002#08660A R
(1792677.601000) vcan0 00000001#09670B R
(1792677.845000) vcan0 00000002#0A680C R
(1792678.081000) vcan0 00000001#0B690D R
(1792678.319000) vcan0 00000002#0C6A0E R
(1792678.555000) vcan0 00000001#0D6B0F R
(1792678.798000) vcan0 00000002#0E6C10 R
(1792679.034000) vcan0 00000001#0F6D11 R
(1792679.276000) vcan0 00000002#106E12 R
(1792679.511000) vcan0 00000001#116F13 R
(1792679.755000) vcan0 00000002#127014 R
(1792679.991000) vcan0 00000001#137115 R
(1792680.233000) vcan0 00000002#147216 R
(1792680.468000) vcan0 00000001#157317 R
(1792680.712000) vcan0 00000002#167418 R
(1792680.948000) vcan0 00000001#177519 R
(1792681.184000) vcan0 00000002#18761A R
(1792681.425000) vcan0 00000001#19771B R
(1792681.669000) vcan0 00000002#1A781C R
(1792681.905000) vcan0 00000001#1B791D R
(1792682.140000) vcan0 00000002#1C7A1E R
(1792682.382000) vcan0 00000001#1D7B1F R
(1792682.618000) vcan0 00000002#1E7C20 R
(1792682.861000) vcan0 00000001#1F7D21 R
(1792683.097000) vcan0 00000002#207E22 R
(1792683.335000) vcan0 00000001#217F23 R
(1792683.571000) vcan0 00000002#228024 R
(1792683.815000) vcan0 00000001#238125 R
(1792684.050000) vcan0 00000002#248226 R
(1792684.292000) vcan0 00000001#258327 R
(1792684.528000) vcan0 00000002#268428 R
(1792684.771000) vcan0 00000001#278529 R
(1792685.007000) vcan0 00000002#28862A R
(1792685.249000) vcan0 00000001#29872B R
(1792685.485000) vcan0 00000002#2A882C R
(1792685.729000) vcan0 00000001#2B892D R
(1792685.964000) vcan0 00000002#2C8A2E R
(1792686.201000) vcan0 00000001#2D8B2F R
(1792686.441000) vcan0 00000002#2E8C30 R
(1792686.685000) vcan0 00000001#2F8D31 R
(1792686.921000) vcan0 00000002#308E32 R
(1792687.157000) vcan0 00000001#318F33 R
(1792687.398000) vcan0 00000002#329034 R
(1792687.642000) vcan0 00000001#339135 R
(1792687.878000) vcan0 00000002#349236 R
(1792688.114000) vcan0 00000001#359337 R
(1792688.352000) vcan0 00000002#369438 R
(1792688.587000) vcan0 00000001#379539 R
(1792688.831000) vcan0 00000002#38963A R
(1792689.067000) vcan0 00000001#39973B R
(1792689.308000) vcan0 00000002#3A983C R
(1792689.544000) vcan0 00000001#3B993D R
(1792689.788000) vcan0 00000002#3C9A3E R
(1792690.023000) vcan0 00000001#3D9B3F R
(1792690.265000) vcan0 00000002#3E9C40 R
(1792690.501000) vcan0 00000001#3F9D41 R
(1792690.745000) vcan0 00000002#409E42 R
(1792690.981000) vcan0 00000001#419F43 R
(1792691.219000) vcan0 00000002#42A044 R
(1792691.455000) vcan0 00000001#43A145 R
(1792691.699000) vcan0 00000002#44A246 R
(1792691.935000) vcan0 00000001#45A347 R
(1792692.170000) vcan0 00000002#46A448 R
(1792692.412000) vcan0 00000001#47A549 R
(1792692.656000) vcan0 00000002#48A64A R
(1792692.892000) vcan0 00000001#49A74B R
(1792693.128000) vcan0 00000002#4AA84C R
(1792693.365000) vcan0 00000001#4BA94D R
(1792693.601000) vcan0 00000002#4CAA4E R
(1792693.845000) vcan0 00000001#4D554F R
(1792694.081000) vcan0 00000002#4E5650 R
(1792694.319000) vcan0 00000001#4F5751 R
(1792694.555000) vcan0 00000002#505852 R
(1792694.798000) vcan0 00000001#515953 R
(1792695.034000) vcan0 00000002#525A54 R
(1792695.276000) vcan0 00000001#535B55 R
(1792695.511000) vcan0 00000002#545C56 R
(1792695.755000) vcan0 00000001#005D57 R
(1792695.991000) vcan0 00000002#015E58 R
(1792696.233000) vcan0 00000001#025F59 R
(1792696.468000) vcan0 00000002#03605A R
(1792696.712000) vcan0 00000001#04615B R
(1792696.948000) vcan0 00000002#05625C R
(1792697.184000) vcan0 00000001#06635D R
(1792697.425000) vcan0 00000002#07645E R
(1792697.669000) vcan0 00000001#08655F R
(1792697.905000) vcan0 00000002#096660 R
(1792698.140000) vcan0 00000001#0A6761 R
(1792698.382000) vcan0 00000002#0B6862 R
(1792698.618000) vcan0 00000001#0C6963 R
(1792698.861000) vcan0 00000002#0D6A64 R
(1792699.097000) vcan0 00000001#0E6B65 R
(1792699.335000) vcan0 00000002#0F6C66 R
(1792699.571000) vcan0 00000001#106D67 R
(1792699.815000) vcan0 00000002#116E68 R
(1792700.050000) vcan0 00000001#126F69 R
(1792700.292000) vcan0 00000002#13706A R
(1792700.528000) vcan0 00000001#14716B R
(1792700.771000) vcan0 00000002#15726C R
(1792701.007000) vcan0 00000001#16736D R
(1792701.249000) vcan0 00000002#17746E R
(1792701.485000) vcan0 00000001#18756F R
(1792701.729000) vcan0 00000002#197670 R
(1792701.964000) vcan0 00000001#1A7771 R
(1792702.201000) vcan0 00000002#1B7872 R
(1792702.441000) vcan0 00000001#1C7973 R
(1792702.685000) vcan0 00000002#1D7A74 R
(1792702.921000) vcan0 00000001#1E7B75 R
(1792703.157000) vcan0 00000002#1F7C76 R
(1792703.398000) vcan0 00000001#207D77 R
(1792703.642000) vcan0 00000002#217E78 R
(1792703.878000) vcan0 00000001#227F79 R
(1792704.113000) vcan0 00000002#23807A R
(1792704.352000) vcan0 00000001#24817B R
(1792704.587000) vcan0 00000002#25827C R
(1792704.831000) vcan0 00000001#26837D R
(1792705.067000) vcan0 00000002#27847E R
(1792705.309000) vcan0 00000001#28857F R
(1792705.544000) vcan0 00000002#298680 R
(1792705.788000) vcan0 00000001#2A8781 R
(1792706.024000) vcan0 00000002#2B8882 R
(1792706.266000) vcan0 00000001#2C8983 R
(1792706.501000) vcan0 00000002#2D8A84 R
(1792706.745000) vcan0 00000001#2E8B85 R
(1792706.981000) vcan0 00000002#2F8C86 R
(1792707.219000) vcan0 00000001#308D87 R
(1792707.455000) vcan0 00000002#318E88 R
(1792707.699000) vcan0 00000001#328F89 R
(1792707.934000) vcan0 00000002#33908A R
(1792708.170000) vcan0 00000001#34918B R
(1792708.412000) vcan0 00000002#35928C R
(1792708.656000) vcan0 00000001#36938D R
(1792708.892000) vcan0 00000002#37948E R
(1792709.128000) vcan0 00000001#38958F R
(1792709.365000) vcan0 00000002#399690 R
(1792709.601000) vcan0 00000001#3A9791 R
(1792709.845000) vcan0 00000002#3B9892 R
(1792710.081000) vcan0 00000001#3C9993 R
(1792710.319000) vcan0 00000002#3D9A94 R
(1792710.555000) vcan0 00000001#3E9B95 R
(1792710.798000) vcan0 00000002#3F9C96 R
(1792711.034000) vcan0 00000001#409D97 R
(1792711.276000) vcan0 00000002#419E98 R
(1792711.511000) vcan0 00000001#429F99 R
(1792711.755000) vcan0 00000002#43A09A R
(1792711.991000) vcan0 00000001#44A19B R
(1792712.233000) vcan0 00000002#45A29C R
(1792712.468000) vcan0 00000001#46A39D R
(1792712.712000) vcan0 00000002#47A49E R
(1792712.948000) vcan0 00000001#48A59F R
(1792713.184000) vcan0 00000002#49A6A0 R
(1792713.425000) vcan0 00000001#4AA7A1 R
(1792713.669000) vcan0 00000002#4BA8A2 R
(1792713.905000) vcan0 00000001#4CA9A3 R
(1792714.140000) vcan0 00000002#4DAAA4 R
(1792714.382000) vcan0 00000001#4E55A5 R
(1792714.618000) vcan0 00000002#4F56A6 R
(1792714.861000) vcan0 00000001#5057A7 R
(1792715.097000) vcan0 00000002#5158A8 R
(1792715.335000) vcan0 00000001#5259A9 R
(1792715.571000) vcan0 00000002#535AAA R
(1792715.815000) vcan0 00000001#545BAB R
(1792716.050000) vcan0 00000002#005CAC R
(1792716.292000) vcan0 00000001#015DAD R
(1792716.528000) vcan0 00000002#025EAE R
(1792716.772000) vcan0 00000001#035FAF R
(1792717.007000) vcan0 00000002#0460B0 R
(1792717.249000) vcan0 00000001#0561B1 R
(1792717.485000) vcan0 00000002#0662B2 R
(1792717.729000) vcan0 00000001#0763B3 R
(1792717.965000) vcan0 00000002#0864B4 R
(1792718.201000) vcan0 00000001#0965B5 R
(1792718.441000) vcan0 00000002#0A66B6 R
(1792718.685000) vcan0 00000001#0B67B7 R
(1792718.921000) vcan0 00000002#0C68B8 R
(1792719.157000) vcan0 00000001#0D69B9 R
(1792719.398000) vcan0 00000002#0E6ABA R
(1792719.642000) vcan0 00000001#0F6BBB R
(1792719.878000) vcan0 00000002#106CBC R
(1792720.114000) vcan0 00000001#116DBD R
(1792720.352000) vcan0 00000002#126EBE R
(1792720.587000) vcan0 00000001#136FBF R
(1792720.831000) vcan0 00000002#1470C0 R
(1792721.067000) vcan0 00000001#1571C1 R
(1792721.309000) vcan0 00000002#1672C2 R
(1792721.544000) vcan0 00000001#1773C3 R
(1792721.788000) vcan0 00000002#1874C4 R
(1792722.024000) vcan0 00000001#1975C5 R
(1792722.266000) vcan0 00000002#1A76C6 R
(1792722.501000) vcan0 00000001#1B77C7 R
(1792722.745000) vcan0 00000002#1C78C8 R
(1792722.981000) vcan0 00000001#1D79C9 R
(1792723.219000) vcan0 00000002#1E7ACA R
(1792723.455000) vcan0 00000001#1F7BCB R
(1792723.699000) vcan0 00000002#207CCC R
(1792723.934000) vcan0 00000001#217DCD R
(1792724.170000) vcan0 00000002#227ECE R
(1792724.412000) vcan0 00000001#237FCF R
(1792724.656000) vcan0 00000002#2480D0 R
(1792724.892000) vcan0 00000001#2581D1 R
(1792725.128000) vcan0 00000002#2682D2 R
(1792725.365000) vcan0 00000001#2783D3 R
(1792725.601000) vcan0 00000002#2884D4 R
(1792725.845000) vcan0 00000001#2985D5 R
(1792726.081000) vcan0 00000002#2A86D6 R
(1792726.319000) vcan0 00000001#2B87D7 R
(1792726.555000) vcan0 00000002#2C88D8 R
(1792726.798000) vcan0 00000001#2D89D9 R
(1792727.034000) vcan0 00000002#2E8ADA R
(1792727.276000) vcan0 00000001#2F8BDB R
(1792727.511000) vcan0 00000002#308CDC R
(1792727.755000) vcan0 00000001#318DDD R
(1792727.991000) vcan0 00000002#328EDE R
(1792728.233000) vcan0 00000001#338FDF R
(1792728.468000) vcan0 00000002#3490E0 R
(1792728.712000) vcan0 00000001#3591E1 R
(1792728.948000) vcan0 00000002#3692E2 R
(1792729.184000) vcan0 00000001#3793E3 R
(1792729.425000) vcan0 00000002#3894E4 R
(1792729.669000) vcan0 00000001#3995E5 R
(1792729.905000) vcan0 00000002#3A96E6 R
(1792730.140000) vcan0 00000001#3B97E7 R
(1792730.382000) vcan0 00000002#3C98E8 R
(1792730.618000) vcan0 00000001#3D99E9 R
(1792730.861000) vcan0 00000002#3E9AEA R
(1792731.097000) vcan0 00000001#3F9BEB R
(1792731.335000) vcan0 00000002#409CEC R
(1792731.571000) vcan0 00000001#419DED R
(1792731.815000) vcan0 00000002#429EEE R
(1792732.050000) vcan0 00000001#439FEF R
(1792732.292000) vcan0 00000002#44A0F0 R
(1792732.528000) vcan0 00000001#45A1F1 R
(1792732.771000) vcan0 00000002#46A2F2 R
(1792733.007000) vcan0 00000001#47A3F3 R
(1792733.249000) vcan0 00000002#48A4F4 R
(1792733.485000) vcan0 00000001#49A5F5 R
(1792733.729000) vcan0 00000002#4AA6F6 R
(1792733.964000) vcan0 00000001#4BA7F7 R
(1792734.201000) vcan0 00000002#4CA8F8 R
(1792734.441000) vcan0 00000001#4DA9F9 R
(1792734.685000) vcan0 00000002#4EAAFA R
(1792734.921000) vcan0 00000001#4F55FB R
(1792735.157000) vcan0 00000002#5056FC R
(1792735.398000) vcan0 00000001#5157FD R
(1792735.642000) vcan0 00000002#5258FE R
(1792735.878000) vcan0 00000001#5359FF R
(1792736.113000) vcan0 00000002#545A00 R
(1792736.352000) vcan0 00000001#005B01 R
(1792736.587000) vcan0 00000002#015C02 R
(1792736.831000) vcan0 00000001#025D03 R
(1792737.067000) vcan0 00000002#035E04 R
(1792737.309000) vcan0 00000001#045F05 R
(1792737.545000) vcan0 00000002#056006 R
(1792737.788000) vcan0 00000001#066107 R
(1792738.024000) vcan0 00000002#076208 R
(1792738.265000) vcan0 00000001#086309 R
(1792738.501000) vcan0 00000002#09640A R
(1792738.745000) vcan0 00000001#0A650B R
(1792738.981000) vcan0 00000002#0B660C R
(1792739.219000) vcan0 00000001#0C670D R
(1792739.455000) vcan0 00000002#0D680E R
(1792739.698000) vcan0 00000001#0E690F R
(1792739.934000) vcan0 00000002#0F6A10 R
(1792740.170000) vcan0 00000001#106B11 R
(1792740.412000) vcan0 00000002#116C12 R
(1792740.656000) vcan0 00000001#126D13 R
(1792740.891000) vcan0 00000002#136E14 R
(1792741.127000) vcan0 00000001#146F15 R
(1792741.366000) vcan0 00000002#157016 R
(1792741.601000) vcan0 00000001#167117 R
(1792741.845000) vcan0 00000002#177218 R
(1792742.081000) vcan0 00000001#187319 R
(1792742.318000) vcan0 00000002#19741A R
(1792742.554000) vcan0 00000001#1A751B R
(1792742.798000) vcan0 00000002#1B761C R
(1792743.034000) vcan0 00000001#1C771D R
(1792743.276000) vcan0 00000002#1D781E R
(1792743.511000) vcan0 00000001#1E791F R
(1792743.755000) vcan0 00000002#1F7A20 R
(1792743.991000) vcan0 00000001#207B21 R
(1792744.233000) vcan0 00000002#217C22 R
(1792744.468000) vcan0 00000001#227D23 R
(1792744.712000) vcan0 00000002#237E24 R
(1792744.948000) vcan0 00000001#247F25 R
(1792745.184000) vcan0 00000002#258026 R
(1792745.425000) vcan0 00000001#268127 R
(1792745.669000) vcan0 00000002#278228 R
(1792745.905000) vcan0 00000001#288329 R
(1792746.140000) vcan0 00000002#29842A R
(1792746.382000) vcan0 00000001#2A852B R
(1792746.618000) vcan0 00000002#2B862C R
(1792746.862000) vcan0 00000001#2C872D R
(1792747.097000) vcan0 00000002#2D882E R
(1792747.335000) vcan0 00000001#2E892F R
(1792747.571000) vcan0 00000002#2F8A30 R
(1792747.815000) vcan0 00000001#308B31 R
(1792748.051000) vcan0 00000002#318C32 R
(1792748.293000) vcan0 00000001#328D33 R
(1792748.529000) vcan0 00000002#338E34 R
(1792748.772000) vcan0 00000001#348F35 R
(1792749.008000) vcan0 00000002#359036 R
(1792749.249000) vcan0 00000001#369137 R
(1792749.485000) vcan0 00000002#379238 R
(1792749.729000) vcan0 00000001#389339 R
(1792749.964000) vcan0 00000002#39943A R
(1792750.201000) vcan0 00000001#3A953B R
(1792750.441000) vcan0 00000002#3B963C R
(1792750.685000) vcan0 00000001#3C973D R
(1792750.921000) vcan0 00000002#3D983E R
(1792751.157000) vcan0 00000001#3E993F R
(1792751.398000) vcan0 00000002#3F9A40 R
(1792751.642000) vcan0 00000001#409B41 R
(1792751.878000) vcan0 00000002#419C42 R
(1792752.114000) vcan0 00000001#429D43 R
(1792752.352000) vcan0 00000002#439E44 R
(1792752.587000) vcan0 00000001#449F45 R
(1792752.831000) vcan0 00000002#45A046 R
(1792753.067000) vcan0 00000001#46A147 R
(1792753.309000) vcan0 00000002#47A248 R
(1792753.544000) vcan0 00000001#48A349 R
(1792753.788000) vcan0 00000002#49A44A R
(1792754.024000) vcan0 00000001#4AA54B R
(1792754.266000) vcan0 00000002#4BA64C R
(1792754.501000) vcan0 00000001#4CA74D R
(1792754.745000) vcan0 00000002#4DA84E R
(1792754.981000) vcan0 00000001#4EA94F R
(1792755.219000) vcan0 00000002#4FAA50 R
(1792755.455000) vcan0 00000001#505551 R
(1792755.699000) vcan0 00000002#515652 R
(1792755.934000) vcan0 00000001#525753 R
(1792756.170000) vcan0 00000002#535854 R
(1792756.412000) vcan0 00000001#545955 R
(1792756.656000) vcan0 00000002#005A56 R
(1792756.892000) vcan0 00000001#015B57 R
(1792757.128000) vcan0 00000002#025C58 R
(1792757.365000) vcan0 00000001#035D59 R
(1792757.601000) vcan0 00000002#045E5A R
(1792757.845000) vcan0 00000001#055F5B R
(1792758.081000) vcan0 00000002#06605C R
(1792758.319000) vcan0 00000001#07615D R
(1792758.555000) vcan0 00000002#08625E R
(1792758.798000) vcan0 00000001#09635F R
(1792759.034000) vcan0 00000002#0A6460 R
(1792759.276000) vcan0 00000001#0B6561 R
(1792759.512000) vcan0 00000002#0C6662 R
(1792759.755000) vcan0 00000001#0D6763 R
(1792759.991000) vcan0 00000002#0E6864 R
(1792760.233000) vcan0 00000001#0F6965 R
(1792760.469000) vcan0 00000002#106A66 R
(1792760.713000) vcan0 00000001#116B67 R
(1792760.949000) vcan0 00000002#126C68 R
(1792761.184000) vcan0 00000001#136D69 R
(1792761.425000) vcan0 00000002#146E6A R
(1792761.669000) vcan0 00000001#156F6B R
(1792761.905000) vcan0 00000002#16706C R
(1792762.140000) vcan0 00000001#17716D R
(1792762.382000) vcan0 00000002#18726E R
(1792762.618000) vcan0 00000001#19736F R
(1792762.861000) vcan0 00000002#1A7470 R
(1792763.097000) vcan0 00000001#1B7571 R
(1792763.335000) vcan0 00000002#1C7672 R
(1792763.571000) vcan0 00000001#1D7773 R
(1792763.815000) vcan0 00000002#1E7874 R
(1792764.050000) vcan0 00000001#1F7975 R
(1792764.292000) vcan0 00000002#207A76 R
(1792764.528000) vcan0 00000001#217B77 R
(1792764.771000) vcan0 00000002#227C78 R
(1792765.007000) vcan0 00000001#237D79 R
(1792765.249000) vcan0 00000002#247E7A R
(1792765.485000) vcan0 00000001#257F7B R
(1792765.729000) vcan0 00000002#26807C R
(1792765.965000) vcan0 00000001#27817D R
(1792766.201000) vcan0 00000002#28827E R
(1792766.441000) vcan0 00000001#29837F R
(1792766.685000) vcan0 00000002#2A8480 R
(1792766.921000) vcan0 00000001#2B8581 R
(1792767.157000) vcan0 00000002#2C8682 R
(1792767.398000) vcan0 00000001#2D8783 R
(1792767.642000) vcan0 00000002#2E8884 R
(1792767.878000) vcan0 00000001#2F8985 R
(1792768.113000) vcan0 00000002#308A86 R
(1792768.352000) vcan0 00000001#318B87 R
(1792768.587000) vcan0 00000002#328C88 R
(1792768.831000) vcan0 00000001#338D89 R
(1792769.067000) vcan0 00000002#348E8A R
(1792769.309000) vcan0 00000001#358F8B R
(1792769.545000) vcan0 00000002#36908C R
(1792769.788000) vcan0 00000001#37918D R
(1792770.024000) vcan0 00000002#38928E R
(1792770.265000) vcan0 00000001#39938F R
(1792770.501000) vcan0 00000002#3A9490 R
(1792770.745000) vcan0 00000001#3B9591 R
(1792770.981000) vcan0 00000002#3C9692 R
(1792771.219000) vcan0 00000001#3D9793 R
(1792771.455000) vcan0 00000002#3E9894 R
(1792771.698000) vcan0 00000001#3F9995 R
(1792771.934000) vcan0 00000002#409A96 R
(1792772.170000) vcan0 00000001#419B97 R
(1792772.412000) vcan0 00000002#429C98 R
(1792772.656000) vcan0 00000001#439D99 R
(1792772.891000) vcan0 00000002#449E9A R
(1792773.127000) vcan0 00000001#459F9B R
(1792773.366000) vcan0 00000002#46A09C R
(1792773.601000) vcan0 00000001#47A19D R
(1792773.845000) vcan0 00000002#48A29E R
(1792774.081000) vcan0 00000001#49A39F R
(1792774.318000) vcan0 00000002#4AA4A0 R
(1792774.554000) vcan0 00000001#4BA5A1 R
(1792774.798000) vcan0 00000002#4CA6A2 R
(1792775.034000) vcan0 00000001#4DA7A3 R
(1792775.276000) vcan0 00000002#4EA8A4 R
(1792775.511000) vcan0 00000001#4FA9A5 R
(1792775.755000) vcan0 00000002#50AAA6 R
(1792775.991000) vcan0 00000001#5155A7 R
(1792776.233000) vcan0 00000002#5256A8 R
(1792776.468000) vcan0 00000001#5357A9 R
(1792776.712000) vcan0 00000002#5458AA R
(1792776.948000) vcan0 00000001#0059AB R
(1792777.184000) vcan0 00000002#015AAC R
(1792777.426000) vcan0 00000001#025BAD R
(1792777.670000) vcan0 00000002#035CAE R
(1792777.905000) vcan0 00000001#045DAF R
(1792778.141000) vcan0 00000002#055EB0 R
(1792778.382000) vcan0 00000001#065FB1 R
(1792778.617000) vcan0 00000002#0760B2 R
(1792778.861000) vcan0 00000001#0861B3 R
(1792779.097000) vcan0 00000002#0962B4 R
(1792779.335000) vcan0 00000001#0A63B5 R
(1792779.571000) vcan0 00000002#0B64B6 R
(1792779.815000) vcan0 00000001#0C65B7 R
(1792780.050000) vcan0 00000002#0D66B8 R
(1792780.292000) vcan0 00000001#0E67B9 R
(1792780.528000) vcan0 00000002#0F68BA R
(1792780.771000) vcan0 00000001#1069BB R
(1792781.007000) vcan0 00000002#116ABC R
(1792781.249000) vcan0 00000001#126BBD R
(1792781.485000) vcan0 00000002#136CBE R
(1792781.729000) vcan0 00000001#146DBF R
(1792781.964000) vcan0 00000002#156EC0 R
(1792782.201000) vcan0 00000001#166FC1 R
(1792782.441000) vcan0 00000002#1770C2 R
(1792782.685000) vcan0 00000001#1871C3 R
(1792782.921000) vcan0 00000002#1972C4 R
(1792783.157000) vcan0 00000001#1A73C5 R
(1792783.398000) vcan0 00000002#1B74C6 R
(1792783.642000) vcan0 00000001#1C75C7 R
(1792783.878000) vcan0 00000002#1D76C8 R
(1792784.113000) vcan0 00000001#1E77C9 R
(1792784.352000) vcan0 00000002#1F78CA R
(1792784.587000) vcan0 00000001#2079CB R
(1792784.831000) vcan0 00000002#217ACC R
(1792785.067000) vcan0 00000001#227BCD R
(1792785.309000) vcan0 00000002#237CCE R
(1792785.544000) vcan0 00000001#247DCF R
(1792785.788000) vcan0 00000002#257ED0 R
(1792786.024000) vcan0 00000001#267FD1 R
(1792786.266000) vcan0 00000002#2780D2 R
(1792786.501000) vcan0 00000001#2881D3 R
(1792786.745000) vcan0 00000002#2982D4 R
(1792786.981000) vcan0 00000001#2A83D5 R
(1792787.219000) vcan0 00000002#2B84D6 R
(1792787.455000) vcan0 00000001#2C85D7 R
(1792787.699000) vcan0 00000002#2D86D8 R
(1792787.934000) vcan0 00000001#2E87D9 R
(1792788.170000) vcan0 00000002#2F88DA R
(1792788.412000) vcan0 00000001#3089DB R
(1792788.656000) vcan0 00000002#318ADC R
(1792788.892000) vcan0 00000001#328BDD R
(1792789.128000) vcan0 00000002#338CDE R
(1792789.365000) vcan0 00000001#348DDF R
(1792789.601000) vcan0 00000002#358EE0 R
(1792789.845000) vcan0 00000001#368FE1 R
(1792790.081000) vcan0 00000002#3790E2 R
(1792790.319000) vcan0 00000001#3891E3 R
(1792790.555000) vcan0 00000002#3992E4 R
(1792790.798000) vcan0 00000001#3A93E5 R
(1792791.034000) vcan0 00000002#3B94E6 R
(1792791.276000) vcan0 00000001#3C95E7 R
(1792791.511000) vcan0 00000002#3D96E8 R
(1792791.755000) vcan0 00000001#3E97E9 R
(1792791.991000) vcan0 00000002#3F98EA R
(1792792.233000) vcan0 00000001#4099EB R
(1792792.468000) vcan0 00000002#419AEC R
(1792792.712000) vcan0 00000001#429BED R
(1792792.948000) vcan0 00000002#439CEE R
(1792793.184000) vcan0 00000001#449DEF R
(1792793.425000) vcan0 00000002#459EF0 R
(1792793.669000) vcan0 00000001#469FF1 R
(1792793.905000) vcan0 00000002#47A0F2 R
(1792794.140000) vcan0 00000001#48A1F3 R
(1792794.382000) vcan0 00000002#49A2F4 R
(1792794.618000) vcan0 00000001#4AA3F5 R
(1792794.861000) vcan0 00000002#4BA4F6 R
(1792795.097000) vcan0 00000001#4CA5F7 R
(1792795.335000) vcan0 00000002#4DA6F8 R
(1792795.571000) vcan0 00000001#4EA7F9 R
(1792795.815000) vcan0 00000002#4FA8FA R
(1792796.050000) vcan0 00000001#50A9FB R
(1792796.292000) vcan0 00000002#51AAFC R
(1792796.528000) vcan0 00000001#5255FD R
(1792796.771000) vcan0 00000002#5356FE R
(1792797.007000) vcan0 00000001#5457FF R
(1792797.249000) vcan0 00000002#005800 R
(1792797.485000) vcan0 00000001#015901 R
(1792797.729000) vcan0 00000002#025A02 R
(1792797.964000) vcan0 00000001#035B03 R
(1792798.201000) vcan0 00000002#045C04 R
(1792798.441000) vcan0 00000001#055D05 R
(1792798.685000) vcan0 00000002#065E06 R
(1792798.921000) vcan0 00000001#075F07 R
(1792799.157000) vcan0 00000002#086008 R
(1792799.398000) vcan0 00000001#096109 R
(1792799.642000) vcan0 00000002#0A620A R
(1792799.878000) vcan0 00000001#0B630B R
(1792800.114000) vcan0 00000002#0C640C R
(1792800.352000) vcan0 00000001#0D650D R
(1792800.587000) vcan0 00000002#0E660E R
(1792800.831000) vcan0 00000001#0F670F R
(1792801.067000) vcan0 00000002#106810 R
(1792801.309000) vcan0 00000001#116911 R
(1792801.544000) vcan0 00000002#126A12 R
(1792801.788000) vcan0 00000001#136B13 R
(1792802.024000) vcan0 00000002#146C14 R
(1792802.266000) vcan0 00000001#156D15 R
(1792802.501000) vcan0 00000002#166E16 R
(1792802.745000) vcan0 00000001#176F17 R
(1792802.981000) vcan0 00000002#187018 R
(1792803.219000) vcan0 00000001#197119 R
(1792803.455000) vcan0 00000002#1A721A R
(1792803.699000) vcan0 00000001#1B731B R
(1792803.934000) vcan0 00000002#1C741C R
(1792804.170000) vcan0 00000001#1D751D R
(1792804.412000) vcan0 00000002#1E761E R
(1792804.656000) vcan0 00000001#1F771F R
(1792804.892000) vcan0 00000002#207820 R
(1792805.128000) vcan0 00000001#217921 R
(1792805.365000) vcan0 00000002#227A22 R
(1792805.601000) vcan0 00000001#237B23 R
(1792805.845000) vcan0 00000002#247C24 R
(1792806.081000) vcan0 00000001#257D25 R
(1792806.319000) vcan0 00000002#267E26 R
(1792806.555000) vcan0 00000001#277F27 R
(1792806.798000) vcan0 00000002#288028 R
(1792807.034000) vcan0 00000001#298129 R
(1792807.276000) vcan0 00000002#2A822A R
(1792807.511000) vcan0 00000001#2B832B R
(1792807.755000) vcan0 00000002#2C842C R
(1792807.991000) vcan0 00000001#2D852D R
(1792808.233000) vcan0 00000002#2E862E R
(1792808.468000) vcan0 00000001#2F872F R
(1792808.712000) vcan0 00000002#308830 R
(1792808.948000) vcan0 00000001#318931 R
(1792809.184000) vcan0 00000002#328A32 R
(1792809.425000) vcan0 00000001#338B33 R
(1792809.669000) vcan0 00000002#348C34 R
(1792809.905000) vcan0 00000001#358D35 R
(1792810.140000) vcan0 00000002#368E36 R
(1792810.382000) vcan0 00000001#378F37 R
(1792810.618000) vcan0 00000002#389038 R
(1792810.861000) vcan0 00000001#399139 R
(1792811.097000) vcan0 00000002#3A923A R
(1792811.335000) vcan0 00000001#3B933B R
(1792811.571000) vcan0 00000002#3C943C R
(1792811.815000) vcan0 00000001#3D953D R
(1792812.050000) vcan0 00000002#3E963E R
(1792812.292000) vcan0 00000001#3F973F R
(1792812.528000) vcan0 00000002#409840 R
(1792812.771000) vcan0 00000001#419941 R
(1792813.007000) vcan0 00000002#429A42 R
(1792813.249000) vcan0 00000001#439B43 R
(1792813.485000) vcan0 00000002#449C44 R
(1792813.729000) vcan0 00000001#459D45 R
(1792813.964000) vcan0 00000002#469E46 R
(1792814.201000) vcan0 00000001#479F47 R
(1792814.441000) vcan0 00000002#48A048 R
(1792814.685000) vcan0 00000001#49A149 R
(1792814.921000) vcan0 00000002#4AA24A R
(1792815.157000) vcan0 00000001#4BA34B R
(1792815.398000) vcan0 00000002#4CA44C R
(1792815.642000) vcan0 00000001#4DA54D R
(1792815.878000) vcan0 00000002#4EA64E R
(1792816.114000) vcan0 00000001#4FA74F R
(1792816.352000) vcan0 00000002#50A850 R
(1792816.587000) vcan0 00000001#51A951 R
(1792816.831000) vcan0 00000002#52AA52 R
(1792817.067000) vcan0 00000001#535553 R
(1792817.308000) vcan0 00000002#545654 R
(1792817.544000) vcan0 00000001#005755 R
(1792817.788000) vcan0 00000002#015856 R
(1792818.023000) vcan0 00000001#025957 R
(1792818.265000) vcan0 00000002#035A58 R
(1792818.501000) vcan0 00000001#045B59 R
(1792818.745000) vcan0 00000002#055C5A R
(1792818.981000) vcan0 00000001#065D5B R
(1792819.219000) vcan0 00000002#075E5C R
(1792819.455000) vcan0 00000001#085F5D R
(1792819.698000) vcan0 00000002#09605E R
(1792819.934000) vcan0 00000001#0A615F R
(1792820.170000) vcan0 00000002#0B6260 R
(1792820.412000) vcan0 00000001#0C6361 R
(1792820.656000) vcan0 00000002#0D6462 R
(1792820.892000) vcan0 00000001#0E6563 R
(1792821.127000) vcan0 00000002#0F6664 R
(1792821.365000) vcan0 00000001#106765 R
(1792821.601000) vcan0 00000002#116866 R
(1792821.845000) vcan0 00000001#126967 R
(1792822.081000) vcan0 00000002#136A68 R
(1792822.319000) vcan0 00000001#146B69 R
(1792822.555000) vcan0 00000002#156C6A R
(1792822.798000) vcan0 00000001#166D6B R
(1792823.034000) vcan0 00000002#176E6C R
(1792823.276000) vcan0 00000001#186F6D R
(1792823.511000) vcan0 00000002#19706E R
(1792823.755000) vcan0 00000001#1A716F R
(1792823.991000) vcan0 00000002#1B7270 R
(1792824.233000) vcan0 00000001#1C7371 R
(1792824.468000) vcan0 00000002#1D7472 R
(1792824.712000) vcan0 00000001#1E7573 R
(1792824.948000) vcan0 00000002#1F7674 R
(1792825.184000) vcan0 00000001#207775 R
(1792825.425000) vcan0 00000002#217876 R
(1792825.669000) vcan0 00000001#227977 R
(1792825.905000) vcan0 00000002#237A78 R
(1792826.140000) vcan0 00000001#247B79 R
(1792826.382000) vcan0 00000002#257C7A R
(1792826.618000) vcan0 00000001#267D7B R
(1792826.861000) vcan0 00000002#277E7C R
(1792827.097000) vcan0 00000001#287F7D R
(1792827.335000) vcan0 00000002#29807E R
(1792827.571000) vcan0 00000001#2A817F R
(1792827.815000) vcan0 00000002#2B8280 R
(1792828.050000) vcan0 00000001#2C8381 R
(1792828.292000) vcan0 00000002#2D8482 R
(1792828.528000) vcan0 00000001#2E8583 R
(1792828.771000) vcan0 00000002#2F8684 R
(1792829.007000) vcan0 00000001#308785 R
(1792829.249000) vcan0 00000002#318886 R
(1792829.485000) vcan0 00000001#328987 R
(1792829.729000) vcan0 00000002#338A88 R
(1792829.964000) vcan0 00000001#348B89 R
(1792830.201000) vcan0 00000002#358C8A R
(1792830.441000) vcan0 00000001#368D8B R
(1792830.685000) vcan0 00000002#378E8C R
(1792830.921000) vcan0 00000001#388F8D R
(1792831.157000) vcan0 00000002#39908E R
(1792831.398000) vcan0 00000001#3A918F R
(1792831.642000) vcan0 00000002#3B9290 R
(1792831.878000) vcan0 00000001#3C9391 R
(1792832.113000) vcan0 00000002#3D9492 R
(1792832.352000) vcan0 00000001#3E9593 R
(1792832.587000) vcan0 00000002#3F9694 R
(1792832.831000) vcan0 00000001#409795 R
(1792833.067000) vcan0 00000002#419896 R
(1792833.309000) vcan0 00000001#429997 R
(1792833.544000) vcan0 00000002#439A98 R
(1792833.788000) vcan0 00000001#449B99 R
(1792834.024000) vcan0 00000002#459C9A R
(1792834.266000) vcan0 00000001#469D9B R
(1792834.501000) vcan0 00000002#479E9C R
(1792834.745000) vcan0 00000001#489F9D R
(1792834.981000) vcan0 00000002#49A09E R
(1792835.219000) vcan0 00000001#4AA19F R
(1792835.455000) vcan0 00000002#4BA2A0 R
(1792835.699000) vcan0 00000001#4CA3A1 R
(1792835.934000) vcan0 00000002#4DA4A2 R
(1792836.170000) vcan0 00000001#4EA5A3 R
(1792836.412000) vcan0 00000002#4FA6A4 R
(1792836.656000) vcan0 00000001#50A7A5 R
(1792836.892000) vcan0 00000002#51A8A6 R
(1792837.128000) vcan0 00000001#52A9A7 R
(1792837.365000) vcan0 00000002#53AAA8 R
(1792837.601000) vcan0 00000001#5455A9 R
(1792837.845000) vcan0 00000002#0056AA R
(1792838.081000) vcan0 00000001#0157AB R
(1792838.319000) vcan0 00000002#0258AC R
(1792838.555000) vcan0 00000001#0359AD R
(1792838.798000) vcan0 00000002#045AAE R
(1792839.034000) vcan0 00000001#055BAF R
(1792839.276000) vcan0 00000002#065CB0 R
(1792839.512000) vcan0 00000001#075DB1 R
(1792839.755000) vcan0 00000002#085EB2 R
(1792839.991000) vcan0 00000001#095FB3 R
(1792840.233000) vcan0 00000002#0A60B4 R
(1792840.469000) vcan0 00000001#0B61B5 R
(1792840.713000) vcan0 00000002#0C62B6 R
(1792840.949000) vcan0 00000001#0D63B7 R
(1792841.184000) vcan0 00000002#0E64B8 R
(1792841.425000) vcan0 00000001#0F65B9 R
(1792841.669000) vcan0 00000002#1066BA R
(1792841.905000) vcan0 00000001#1167BB R
(1792842.140000) vcan0 00000002#1268BC R
(1792842.382000) vcan0 00000001#1369BD R
(1792842.618000) vcan0 00000002#146ABE R
(1792842.861000) vcan0 00000001#156BBF R
(1792843.097000) vcan0 00000002#166CC0 R
(1792843.335000) vcan0 00000001#176DC1 R
(1792843.571000) vcan0 00000002#186EC2 R
(1792843.815000) vcan0 00000001#196FC3 R
(1792844.050000) vcan0 00000002#1A70C4 R
(1792844.292000) vcan0 00000001#1B71C5 R
(1792844.528000) vcan0 00000002#1C72C6 R
(1792844.771000) vcan0 00000001#1D73C7 R
(1792845.007000) vcan0 00000002#1E74C8 R
(1792845.249000) vcan0 00000001#1F75C9 R
(1792845.485000) vcan0 00000002#2076CA R
(1792845.729000) vcan0 00000001#2177CB R
(1792845.964000) vcan0 00000002#2278CC R
(1792846.201000) vcan0 00000001#2379CD R
(1792846.441000) vcan0 00000002#247ACE R
(1792846.685000) vcan0 00000001#257BCF R
(1792846.921000) vcan0 00000002#267CD0 R
(1792847.157000) vcan0 00000001#277DD1 R
(1792847.398000) vcan0 00000002#287ED2 R
(1792847.642000) vcan0 00000001#297FD3 R
(1792847.878000) vcan0 00000002#2A80D4 R
(1792848.114000) vcan0 00000001#2B81D5 R
(1792848.352000) vcan0 00000002#2C82D6 R
(1792848.587000) vcan0 00000001#2D83D7 R
(1792848.831000) vcan0 00000002#2E84D8 R
(1792849.067000) vcan0 00000001#2F85D9 R
(1792849.308000) vcan0 00000002#3086DA R
(1792849.544000) vcan0 00000001#3187DB R
(1792849.788000) vcan0 00000002#3288DC R
(1792850.023000) vcan0 00000001#3389DD R
(1792850.265000) vcan0 00000002#348ADE R
(1792850.501000) vcan0 00000001#358BDF R
(1792850.745000) vcan0 00000002#368CE0 R
(1792850.981000) vcan0 00000001#378DE1 R
(1792851.219000) vcan0 00000002#388EE2 R
(1792851.455000) vcan0 00000001#398FE3 R
(1792851.699000) vcan0 00000002#3A90E4 R
(1792851.935000) vcan0 00000001#3B91E5 R
(1792852.170000) vcan0 00000002#3C92E6 R
(1792852.412000) vcan0 00000001#3D93E7 R
(1792852.656000) vcan0 00000002#3E94E8 R
(1792852.892000) vcan0 00000001#3F95E9 R
(1792853.128000) vcan0 00000002#4096EA R
(1792853.365000) vcan0 00000001#4197EB R
(1792853.601000) vcan0 00000002#4298EC R
(1792853.845000) vcan0 00000001#4399ED R
(1792854.081000) vcan0 00000002#449AEE R
(1792854.319000) vcan0 00000001#459BEF R
(1792854.555000) vcan0 00000002#469CF0 R
(1792854.798000) vcan0 00000001#479DF1 R
(1792855.034000) vcan0 00000002#489EF2 R
(1792855.276000) vcan0 00000001#499FF3 R
(1792855.511000) vcan0 00000002#4AA0F4 R
(1792855.755000) vcan0 00000001#4BA1F5 R
(1792855.991000) vcan0 00000002#4CA2F6 R
(1792856.233000) vcan0 00000001#4DA3F7 R
(1792856.468000) vcan0 00000002#4EA4F8 R
(1792856.712000) vcan0 00000001#4FA5F9 R
(1792856.948000) vcan0 00000002#50A6FA R
(1792857.184000) vcan0 00000001#51A7FB R
(1792857.425000) vcan0 00000002#52A8FC R
(1792857.669000) vcan0 00000001#53A9FD R
(1792857.905000) vcan0 00000002#54AAFE R
(1792858.140000) vcan0 00000001#0055FF R
(1792858.382000) vcan0 00000002#015600 R
(1792858.618000) vcan0 00000001#025701 R
(1792858.861000) vcan0 00000002#035802 R
(1792859.097000) vcan0 00000001#045903 R
(1792859.335000) vcan0 00000002#055A04 R
(1792859.571000) vcan0 00000001#065B05 R
(1792859.815000) vcan0 00000002#075C06 R
(1792860.050000) vcan0 00000001#085D07 R
(1792860.292000) vcan0 00000002#095E08 R
(1792860.528000) vcan0 00000001#0A5F09 R
(1792860.772000) vcan0 00000002#0B600A R
(1792861.007000) vcan0 00000001#0C610B R
(1792861.249000) vcan0 00000002#0D620C R
(1792861.485000) vcan0 00000001#0E630D R
(1792861.729000) vcan0 00000002#0F640E R
(1792861.965000) vcan0 00000001#10650F R
(1792862.201000) vcan0 00000002#116610 R
(1792862.441000) vcan0 00000001#126711 R
(1792862.685000) vcan0 00000002#136812 R
(1792862.921000) vcan0 00000001#146913 R
(1792863.157000) vcan0 00000002#156A14 R
(1792863.398000) vcan0 00000001#166B15 R
(1792863.642000) vcan0 00000002#176C16 R
(1792863.878000) vcan0 00000001#186D17 R
(1792864.113000) vcan0 00000002#196E18 R
(1792864.352000) vcan0 00000001#1A6F19 R
(1792864.587000) vcan0 00000002#1B701A R
(1792864.831000) vcan0 00000001#1C711B R
(1792865.067000) vcan0 00000002#1D721C R
(1792865.309000) vcan0 00000001#1E731D R
(1792865.544000) vcan0 00000002#1F741E R
(1792865.788000) vcan0 00000001#20751F R
(1792866.024000) vcan0 00000002#217620 R
(1792866.266000) vcan0 00000001#227721 R
(1792866.501000) vcan0 00000002#237822 R
(1792866.745000) vcan0 00000001#247923 R
(1792866.981000) vcan0 00000002#257A24 R
(1792867.219000) vcan0 00000001#267B25 R
(1792867.455000) vcan0 00000002#277C26 R
(1792867.699000) vcan0 00000001#287D27 R
(1792867.934000) vcan0 00000002#297E28 R
(1792868.170000) vcan0 00000001#2A7F29 R
(1792868.412000) vcan0 00000002#2B802A R
(1792868.656000) vcan0 00000001#2C812B R
(1792868.892000) vcan0 00000002#2D822C R
(1792869.128000) vcan0 00000001#2E832D R
(1792869.365000) vcan0 00000002#2F842E R
(1792869.601000) vcan0 00000001#30852F R
(1792869.845000) vcan0 00000002#318630 R
(1792870.081000) vcan0 00000001#328731 R
(1792870.319000) vcan0 00000002#338832 R
(1792870.555000) vcan0 00000001#348933 R
(1792870.798000) vcan0 00000002#358A34 R
(1792871.034000) vcan0 00000001#368B35 R
(1792871.276000) vcan0 00000002#378C36 R
(1792871.511000) vcan0 00000001#388D37 R
(1792871.755000) vcan0 00000002#398E38 R
(1792871.991000) vcan0 00000001#3A8F39 R
(1792872.233000) vcan0 00000002#3B903A R
(1792872.468000) vcan0 00000001#3C913B R
(1792872.712000) vcan0 00000002#3D923C R
(1792872.948000) vcan0 00000001#3E933D R
(1792873.184000) vcan0 00000002#3F943E R
(1792873.425000) vcan0 00000001#40953F R
(1792873.669000) vcan0 00000002#419640 R
(1792873.905000) vcan0 00000001#429741 R
(1792874.140000) vcan0 00000002#439842 R
(1792874.382000) vcan0 00000001#449943 R
(1792874.618000) vcan0 00000002#459A44 R
(1792874.861000) vcan0 00000001#469B45 R
(1792875.097000) vcan0 00000002#479C46 R
(1792875.335000) vcan0 00000001#489D47 R
(1792875.571000) vcan0 00000002#499E48 R
(1792875.815000) vcan0 00000001#4A9F49 R
(1792876.050000) vcan0 00000002#4BA04A R
(1792876.292000) vcan0 00000001#4CA14B R
(1792876.528000) vcan0 00000002#4DA24C R
(1792876.771000) vcan0 00000001#4EA34D R
(1792877.007000) vcan0 00000002#4FA44E R
(1792877.249000) vcan0 00000001#50A54F R
(1792877.485000) vcan0 00000002#51A650 R
(1792877.729000) vcan0 00000001#52A751 R
(1792877.964000) vcan0 00000002#53A852 R
(1792878.201000) vcan0 00000001#54A953 R
(1792878.441000) vcan0 00000002#00AA54 R
(1792878.685000) vcan0 00000001#015555 R
(1792878.921000) vcan0 00000002#025656 R
(1792879.157000) vcan0 00000001#035757 R
(1792879.398000) vcan0 00000002#045858 R
(1792879.642000) vcan0 00000001#055959 R
(1792879.878000) vcan0 00000002#065A5A R
(1792880.113000) vcan0 00000001#075B5B R
(1792880.352000) vcan0 00000002#085C5C R
(1792880.587000) vcan0 00000001#095D5D R
(1792880.831000) vcan0 00000002#0A5E5E R
(1792881.067000) vcan0 00000001#0B5F5F R
(1792881.309000) vcan0 00000002#0C6060 R
(1792881.544000) vcan0 00000001#0D6161 R
(1792881.788000) vcan0 00000002#0E6262 R
(1792882.024000) vcan0 00000001#0F6363 R
(1792882.266000) vcan0 00000002#106464 R
(1792882.501000) vcan0 00000001#116565 R
(1792882.745000) vcan0 00000002#126666 R
(1792882.981000) vcan0 00000001#136767 R
(1792883.219000) vcan0 00000002#146868 R
(1792883.455000) vcan0 00000001#156969 R
(1792883.699000) vcan0 00000002#166A6A R
(1792883.934000) vcan0 00000001#176B6B R
(1792884.170000) vcan0 00000002#186C6C R
(1792884.412000) vcan0 00000001#196D6D R
(1792884.656000) vcan0 00000002#1A6E6E R
(1792884.892000) vcan0 00000001#1B6F6F R
(1792885.128000) vcan0 00000002#1C7070 R
(1792885.365000) vcan0 00000001#1D7171 R
(1792885.601000) vcan0 00000002#1E7272 R
(1792885.845000) vcan0 00000001#1F7373 R
(1792886.081000) vcan0 00000002#207474 R
(1792886.319000) vcan0 00000001#217575 R
(1792886.555000) vcan0 00000002#227676 R
(1792886.798000) vcan0 00000001#237777 R
(1792887.034000) vcan0 00000002#247878 R
(1792887.276000) vcan0 00000001#257979 R
(1792887.511000) vcan0 00000002#267A7A R
(1792887.755000) vcan0 00000001#277B7B R
(1792887.991000) vcan0 00000002#287C7C R
(1792888.233000) vcan0 00000001#297D7D R
(1792888.468000) vcan0 00000002#2A7E7E R
(1792888.712000) vcan0 00000001#2B7F7F R
(1792888.948000) vcan0 00000002#2C8080 R
(1792889.184000) vcan0 00000001#2D8181 R
(1792889.425000) vcan0 00000002#2E8282 R
(1792889.669000) vcan0 00000001#2F8383 R
(1792889.905000) vcan0 00000002#308484 R
(1792890.140000) vcan0 00000001#318585 R
(1792890.382000) vcan0 00000002#328686 R
(1792890.618000) vcan0 00000001#338787 R
(1792890.861000) vcan0 00000002#348888 R
(1792891.097000) vcan0 00000001#358989 R
(1792891.335000) vcan0 00000002#368A8A R
(1792891.571000) vcan0 00000001#378B8B R
(1792891.815000) vcan0 00000002#388C8C R
(1792892.050000) vcan0 00000001#398D8D R
(1792892.292000) vcan0 00000002#3A8E8E R
(1792892.528000) vcan0 00000001#3B8F8F R
(1792892.771000) vcan0 00000002#3C9090 R
(1792893.007000) vcan0 00000001#3D9191 R
(1792893.249000) vcan0 00000002#3E9292 R
(1792893.485000) vcan0 00000001#3F9393 R
(1792893.729000) vcan0 00000002#409494 R
(1792893.964000) vcan0 00000001#419595 R
(1792894.201000) vcan0 00000002#429696 R
(1792894.441000) vcan0 00000001#439797 R
(1792894.685000) vcan0 00000002#449898 R
(1792894.921000) vcan0 00000001#459999 R
(1792895.157000) vcan0 00000002#469A9A R
(1792895.398000) vcan0 00000001#479B9B R
(1792895.642000) vcan0 00000002#489C9C R
(1792895.878000) vcan0 00000001#499D9D R
(1792896.113000) vcan0 00000002#4A9E9E R
(1792896.352000) vcan0 00000001#4B9F9F R
(1792896.587000) vcan0 00000002#4CA0A0 R
(1792896.831000) vcan0 00000001#4DA1A1 R
(1792897.067000) vcan0 00000002#4EA2A2 R
(1792897.309000) vcan0 00000001#4FA3A3 R
(1792897.544000) vcan0 00000002#50A4A4 R
(1792897.788000) vcan0 00000001#51A5A5 R
(1792898.024000) vcan0 00000002#52A6A6 R
(1792898.266000) vcan0 00000001#53A7A7 R
(1792898.501000) vcan0 00000002#54A8A8 R
(1792898.745000) vcan0 00000001#00A9A9 R
(1792898.981000) vcan0 00000002#01AAAA R
(1792899.219000) vcan0 00000001#0255AB R
(1792899.455000) vcan0 00000002#0356AC R
(1792899.699000) vcan0 00000001#0457AD R
(1792899.934000) vcan0 00000002#0558AE R
(1792900.170000) vcan0 00000001#0659AF R
(1792900.412000) vcan0 00000002#075AB0 R
(1792900.656000) vcan0 00000001#085BB1 R
(1792900.892000) vcan0 00000002#095CB2 R
(1792901.128000) vcan0 00000001#0A5DB3 R
(1792901.365000) vcan0 00000002#0B5EB4 R
(1792901.601000) vcan0 00000001#0C5FB5 R
(1792901.845000) vcan0 00000002#0D60B6 R
(1792902.081000) vcan0 00000001#0E61B7 R
(1792902.319000) vcan0 00000002#0F62B8 R
(1792902.555000) vcan0 00000001#1063B9 R
(1792902.798000) vcan0 00000002#1164BA R
(1792903.034000) vcan0 00000001#1265BB R
(1792903.276000) vcan0 00000002#1366BC R
(1792903.511000) vcan0 00000001#1467BD R
(1792903.755000) vcan0 00000002#1568BE R
(1792903.991000) vcan0 00000001#1669BF R
(1792904.233000) vcan0 00000002#176AC0 R
(1792904.468000) vcan0 00000001#186BC1 R
(1792904.712000) vcan0 00000002#196CC2 R
(1792904.948000) vcan0 00000001#1A6DC3 R
(1792905.184000) vcan0 00000002#1B6EC4 R
(1792905.425000) vcan0 00000001#1C6FC5 R
(1792905.669000) vcan0 00000002#1D70C6 R
(1792905.905000) vcan0 00000001#1E71C7 R
(1792906.140000) vcan0 00000002#1F72C8 R
(1792906.382000) vcan0 00000001#2073C9 R
(1792906.618000) vcan0 00000002#2174CA R
(1792906.861000) vcan0 00000001#2275CB R
(1792907.097000) vcan0 00000002#2376CC R
(1792907.335000) vcan0 00000001#2477CD R
(1792907.571000) vcan0 00000002#2578CE R
(1792907.815000) vcan0 00000001#2679CF R
(1792908.050000) vcan0 00000002#277AD0 R
(1792908.292000) vcan0 00000001#287BD1 R
(1792908.528000) vcan0 00000002#297CD2 R
(1792908.771000) vcan0 00000001#2A7DD3 R
(1792909.007000) vcan0 00000002#2B7ED4 R
(1792909.249000) vcan0 00000001#2C7FD5 R
(1792909.485000) vcan0 00000002#2D80D6 R
(1792909.729000) vcan0 00000001#2E81D7 R
(1792909.964000) vcan0 00000002#2F82D8 R
(1792910.201000) vcan0 00000001#3083D9 R
(1792910.441000) vcan0 00000002#3184DA R
(1792910.685000) vcan0 00000001#3285DB R
(1792910.921000) vcan0 00000002#3386DC R
(1792911.157000) vcan0 00000001#3487DD R
(1792911.398000) vcan0 00000002#3588DE R
(1792911.642000) vcan0 00000001#3689DF R
(1792911.878000) vcan0 00000002#378AE0 R
(1792912.114000) vcan0 00000001#388BE1 R
(1792912.352000) vcan0 00000002#398CE2 R
(1792912.587000) vcan0 00000001#3A8DE3 R
(1792912.831000) vcan0 00000002#3B8EE4 R
(1792913.067000) vcan0 00000001#3C8FE5 R
(1792913.308000) vcan0 00000002#3D90E6 R
(1792913.544000) vcan0 00000001#3E91E7 R
(1792913.788000) vcan0 00000002#3F92E8 R
(1792914.023000) vcan0 00000001#4093E9 R
(1792914.265000) vcan0 00000002#4194EA R
(1792914.501000) vcan0 00000001#4295EB R
(1792914.745000) vcan0 00000002#4396EC R
(1792914.981000) vcan0 00000001#4497ED R
(1792915.219000) vcan0 00000002#4598EE R
(1792915.455000) vcan0 00000001#4699EF R
(1792915.699000) vcan0 00000002#479AF0 R
(1792915.935000) vcan0 00000001#489BF1 R
(1792916.170000) vcan0 00000002#499CF2 R
(1792916.412000) vcan0 00000001#4A9DF3 R
(1792916.656000) vcan0 00000002#4B9EF4 R
(1792916.892000) vcan0 00000001#4C9FF5 R
(1792917.128000) vcan0 00000002#4DA0F6 R
(1792917.365000) vcan0 00000001#4EA1F7 R
(1792917.601000) vcan0 00000002#4FA2F8 R
(1792917.845000) vcan0 00000001#50A3F9 R
(1792918.081000) vcan0 00000002#51A4FA R
(1792918.319000) vcan0 00000001#52A5FB R
(1792918.555000) vcan0 00000002#53A6FC R
(1792918.798000) vcan0 00000001#54A7FD R
(1792919.034000) vcan0 00000002#00A8FE R
(1792919.276000) vcan0 00000001#01A9FF R
(1792919.511000) vcan0 00000002#02AA00 R
(1792919.755000) vcan0 00000001#035501 R
(1792919.991000) vcan0 00000002#045602 R
(1792920.233000) vcan0 00000001#055703 R
(1792920.468000) vcan0 00000002#065804 R
(1792920.712000) vcan0 00000001#075905 R
(1792920.948000) vcan0 00000002#085A06 R
(1792921.184000) vcan0 00000001#095B07 R
(1792921.425000) vcan0 00000002#0A5C08 R
(1792921.669000) vcan0 00000001#0B5D09 R
(1792921.905000) vcan0 00000002#0C5E0A R
(1792922.140000) vcan0 00000001#0D5F0B R
(1792922.382000) vcan0 00000002#0E600C R
(1792922.618000) vcan0 00000001#0F610D R
(1792922.861000) vcan0 00000002#10620E R
(1792923.097000) vcan0 00000001#11630F R
(1792923.335000) vcan0 00000002#126410 R
(1792923.571000) vcan0 00000001#136511 R
(1792923.815000) vcan0 00000002#146612 R
(1792924.050000) vcan0 00000001#156713 R
(1792924.292000) vcan0 00000002#166814 R
(1792924.528000) vcan0 00000001#176915 R
(1792924.771000) vcan0 00000002#186A16 R
(1792925.007000) vcan0 00000001#196B17 R
(1792925.249000) vcan0 00000002#1A6C18 R
(1792925.485000) vcan0 00000001#1B6D19 R
(1792925.729000) vcan0 00000002#1C6E1A R
(1792925.964000) vcan0 00000001#1D6F1B R
(1792926.201000) vcan0 00000002#1E701C R
(1792926.441000) vcan0 00000001#1F711D R
(1792926.685000) vcan0 00000002#20721E R
(1792926.921000) vcan0 00000001#21731F R
(1792927.157000) vcan0 00000002#227420 R
(1792927.398000) vcan0 00000001#237521 R
(1792927.642000) vcan0 00000002#247622 R
(1792927.878000) vcan0 00000001#257723 R
(1792928.113000) vcan0 00000002#267824 R
(1792928.352000) vcan0 00000001#277925 R
(1792928.587000) vcan0 00000002#287A26 R
(1792928.831000) vcan0 00000001#297B27 R
(1792929.067000) vcan0 00000002#2A7C28 R
(1792929.309000) vcan0 00000001#2B7D29 R
(1792929.544000) vcan0 00000002#2C7E2A R
(1792929.788000) vcan0 00000001#2D7F2B R
(1792930.024000) vcan0 00000002#2E802C R
(1792930.266000) vcan0 00000001#2F812D R
(1792930.501000) vcan0 00000002#30822E R
(1792930.745000) vcan0 00000001#31832F R
(1792930.981000) vcan0 00000002#328430 R
(1792931.219000) vcan0 00000001#338531 R
(1792931.455000) vcan0 00000002#348632 R
(1792931.699000) vcan0 00000001#358733 R
(1792931.934000) vcan0 00000002#368834 R
(1792932.170000) vcan0 00000001#378935 R
(1792932.412000) vcan0 00000002#388A36 R
(1792932.656000) vcan0 00000001#398B37 R
(1792932.892000) vcan0 00000002#3A8C38 R
(1792933.128000) vcan0 00000001#3B8D39 R
(1792933.365000) vcan0 00000002#3C8E3A R
(1792933.601000) vcan0 00000001#3D8F3B R
(1792933.845000) vcan0 00000002#3E903C R
(1792934.081000) vcan0 00000001#3F913D R
(1792934.319000) vcan0 00000002#40923E R
(1792934.555000) vcan0 00000001#41933F R
(1792934.798000) vcan0 00000002#429440 R
(1792935.034000) vcan0 00000001#439541 R
(1792935.276000) vcan0 00000002#449642 R
(1792935.511000) vcan0 00000001#459743 R
(1792935.755000) vcan0 00000002#469844 R
(1792935.991000) vcan0 00000001#479945 R
(1792936.233000) vcan0 00000002#489A46 R
(1792936.468000) vcan0 00000001#499B47 R
(1792936.712000) vcan0 00000002#4A9C48 R
(1792936.948000) vcan0 00000001#4B9D49 R
(1792937.184000) vcan0 00000002#4C9E4A R
(1792937.425000) vcan0 00000001#4D9F4B R
(1792937.669000) vcan0 00000002#4EA04C R
(1792937.905000) vcan0 00000001#4FA14D R
(1792938.140000) vcan0 00000002#50A24E R
(1792938.382000) vcan0 00000001#51A34F R
(1792938.618000) vcan0 00000002#52A450 R
(1792938.861000) vcan0 00000001#53A551 R
(1792939.097000) vcan0 00000002#54A652 R
(1792939.335000) vcan0 00000001#00A753 R
(1792939.571000) vcan0 00000002#01A854 R
(1792939.815000) vcan0 00000001#02A955 R
(1792940.050000) vcan0 00000002#03AA56 R
(1792940.292000) vcan0 00000001#045557 R
(1792940.528000) vcan0 00000002#055658 R
(1792940.771000) vcan0 00000001#065759 R
(1792941.007000) vcan0 00000002#07585A R
(1792941.249000) vcan0 00000001#08595B R
(1792941.485000) vcan0 00000002#095A5C R
(1792941.729000) vcan0 00000001#0A5B5D R
(1792941.964000) vcan0 00000002#0B5C5E R
(1792942.201000) vcan0 00000001#0C5D5F R
(1792942.441000) vcan0 00000002#0D5E60 R
(1792942.685000) vcan0 00000001#0E5F61 R
(1792942.921000) vcan0 00000002#0F6062 R
(1792943.157000) vcan0 00000001#106163 R
(1792943.398000) vcan0 00000002#116264 R
(1792943.642000) vcan0 00000001#126365 R
(1792943.878000) vcan0 00000002#136466 R
(1792944.114000) vcan0 00000001#146567 R
(1792944.352000) vcan0 00000002#156668 R
(1792944.587000) vcan0 00000001#166769 R
(1792944.831000) vcan0 00000002#17686A R
(1792945.067000) vcan0 00000001#18696B R
(1792945.309000) vcan0 00000002#196A6C R
(1792945.544000) vcan0 00000001#1A6B6D R
(1792945.788000) vcan0 00000002#1B6C6E R
(1792946.024000) vcan0 00000001#1C6D6F R
(1792946.266000) vcan0 00000002#1D6E70 R
(1792946.501000) vcan0 00000001#1E6F71 R
(1792946.745000) vcan0 00000002#1F7072 R
(1792946.981000) vcan0 00000001#207173 R
(1792947.219000) vcan0 00000002#217274 R
(1792947.455000) vcan0 00000001#227375 R
(1792947.699000) vcan0 00000002#237476 R
(1792947.934000) vcan0 00000001#247577 R
(1792948.170000) vcan0 00000002#257678 R
(1792948.412000) vcan0 00000001#267779 R
(1792948.656000) vcan0 00000002#27787A R
(1792948.892000) vcan0 00000001#28797B R
(1792949.128000) vcan0 00000002#297A7C R
(1792949.365000) vcan0 00000001#2A7B7D R
(1792949.601000) vcan0 00000002#2B7C7E R
(1792949.845000) vcan0 00000001#2C7D7F R
(1792950.081000) vcan0 00000002#2D7E80 R
(1792950.319000) vcan0 00000001#2E7F81 R
(1792950.555000) vcan0 00000002#2F8082 R
(1792950.798000) vcan0 00000001#308183 R
(1792951.034000) vcan0 00000002#318284 R
(1792951.276000) vcan0 00000001#328385 R
(1792951.511000) vcan0 00000002#338486 R
(1792951.755000) vcan0 00000001#348587 R
(1792951.991000) vcan0 00000002#358688 R
(1792952.233000) vcan0 00000001#368789 R
(1792952.468000) vcan0 00000002#37888A R
(1792952.712000) vcan0 00000001#38898B R
(1792952.948000) vcan0 00000002#398A8C R
(1792953.184000) vcan0 00000001#3A8B8D R
(1792953.425000) vcan0 00000002#3B8C8E R
(1792953.669000) vcan0 00000001#3C8D8F R
(1792953.905000) vcan0 00000002#3D8E90 R
(1792954.140000) vcan0 00000001#3E8F91 R
(1792954.382000) vcan0 00000002#3F9092 R
(1792954.618000) vcan0 00000001#409193 R
(1792954.861000) vcan0 00000002#419294 R
(1792955.097000) vcan0 00000001#429395 R
(1792955.335000) vcan0 00000002#439496 R
(1792955.571000) vcan0 00000001#449597 R
(1792955.815000) vcan0 00000002#459698 R
(1792956.050000) vcan0 00000001#469799 R
(1792956.292000) vcan0 00000002#47989A R
(1792956.528000) vcan0 00000001#48999B R
(1792956.771000) vcan0 00000002#499A9C R
(1792957.007000) vcan0 00000001#4A9B9D R
(1792957.249000) vcan0 00000002#4B9C9E R
(1792957.485000) vcan0 00000001#4C9D9F R
(1792957.729000) vcan0 00000002#4D9EA0 R
(1792957.964000) vcan0 00000001#4E9FA1 R
(1792958.201000) vcan0 00000002#4FA0A2 R
(1792958.441000) vcan0 00000001#50A1A3 R
(1792958.685000) vcan0 00000002#51A2A4 R
(1792958.921000) vcan0 00000001#52A3A5 R
(1792959.157000) vcan0 00000002#53A4A6 R
(1792959.398000) vcan0 00000001#54A5A7 R
(1792959.642000) vcan0 00000002#00A6A8 R
(1792959.878000) vcan0 00000001#01A7A9 R
(1792960.113000) vcan0 00000002#02A8AA R
(1792960.352000) vcan0 00000001#03A9AB R
(1792960.587000) vcan0 00000002#04AAAC R
(1792960.831000) vcan0 00000001#0555AD R
(1792961.067000) vcan0 00000002#0656AE R
(1792961.309000) vcan0 00000001#0757AF R
(1792961.545000) vcan0 00000002#0858B0 R
(1792961.788000) vcan0 00000001#0959B1 R
(1792962.024000) vcan0 00000002#0A5AB2 R
(1792962.265000) vcan0 00000001#0B5BB3 R
(1792962.501000) vcan0 00000002#0C5CB4 R
(1792962.745000) vcan0 00000001#0D5DB5 R
(1792962.981000) vcan0 00000002#0E5EB6 R
(1792963.219000) vcan0 00000001#0F5FB7 R
(1792963.455000) vcan0 00000002#1060B8 R
(1792963.698000) vcan0 00000001#1161B9 R
(1792963.934000) vcan0 00000002#1262BA R
(1792964.170000) vcan0 00000001#1363BB R
(1792964.412000) vcan0 00000002#1464BC R
(1792964.656000) vcan0 00000001#1565BD R
(1792964.891000) vcan0 00000002#1666BE R
(1792965.127000) vcan0 00000001#1767BF R
(1792965.366000) vcan0 00000002#1868C0 R
(1792965.601000) vcan0 00000001#1969C1 R
(1792965.845000) vcan0 00000002#1A6AC2 R
(1792966.081000) vcan0 00000001#1B6BC3 R
(1792966.318000) vcan0 00000002#1C6CC4 R
(1792966.554000) vcan0 00000001#1D6DC5 R
(1792966.798000) vcan0 00000002#1E6EC6 R
(1792967.034000) vcan0 00000001#1F6FC7 R
(1792967.276000) vcan0 00000002#2070C8 R
(1792967.511000) vcan0 00000001#2171C9 R
(1792967.755000) vcan0 00000002#2272CA R
(1792967.991000) vcan0 00000001#2373CB R
(1792968.233000) vcan0 00000002#2474CC R
(1792968.468000) vcan0 00000001#2575CD R
(1792968.712000) vcan0 00000002#2676CE R
(1792968.948000) vcan0 00000001#2777CF R
(1792969.184000) vcan0 00000002#2878D0 R
(1792969.425000) vcan0 00000001#2979D1 R
(1792969.669000) vcan0 00000002#2A7AD2 R
(1792969.905000) vcan0 00000001#2B7BD3 R
(1792970.140000) vcan0 00000002#2C7CD4 R
(1792970.382000) vcan0 00000001#2D7DD5 R
(1792970.618000) vcan0 00000002#2E7ED6 R
(1792970.862000) vcan0 00000001#2F7FD7 R
(1792971.097000) vcan0 00000002#3080D8 R
(1792971.335000) vcan0 00000001#3181D9 R
(1792971.571000) vcan0 00000002#3282DA R
(1792971.815000) vcan0 00000001#3383DB R
(1792972.051000) vcan0 00000002#3484DC R
(1792972.293000) vcan0 00000001#3585DD R
(1792972.529000) vcan0 00000002#3686DE R
(1792972.772000) vcan0 00000001#3787DF R
(1792973.008000) vcan0 00000002#3888E0 R
(1792973.249000) vcan0 00000001#3989E1 R
(1792973.485000) vcan0 00000002#3A8AE2 R
(1792973.729000) vcan0 00000001#3B8BE3 R
(1792973.964000) vcan0 00000002#3C8CE4 R
(1792974.201000) vcan0 00000001#3D8DE5 R
(1792974.441000) vcan0 00000002#3E8EE6 R
(1792974.685000) vcan0 00000001#3F8FE7 R
(1792974.921000) vcan0 00000002#4090E8 R
(1792975.157000) vcan0 00000001#4191E9 R
(1792975.398000) vcan0 00000002#4292EA R
(1792975.642000) vcan0 00000001#4393EB R
(1792975.878000) vcan0 00000002#4494EC R
(1792976.114000) vcan0 00000001#4595ED R
(1792976.352000) vcan0 00000002#4696EE R
(1792976.587000) vcan0 00000001#4797EF R
(1792976.831000) vcan0 00000002#4898F0 R
(1792977.067000) vcan0 00000001#4999F1 R
(1792977.309000) vcan0 00000002#4A9AF2 R
(1792977.544000) vcan0 00000001#4B9BF3 R
(1792977.788000) vcan0 00000002#4C9CF4 R
(1792978.024000) vcan0 00000001#4D9DF5 R
(1792978.266000) vcan0 00000002#4E9EF6 R
(1792978.501000) vcan0 00000001#4F9FF7 R
(1792978.745000) vcan0 00000002#50A0F8 R
(1792978.981000) vcan0 00000001#51A1F9 R
(1792979.219000) vcan0 00000002#52A2FA R
(1792979.455000) vcan0 00000001#53A3FB R
(1792979.699000) vcan0 00000002#54A4FC R
(1792979.934000) vcan0 00000001#00A5FD R
(1792980.170000) vcan0 00000002#01A6FE R
(1792980.412000) vcan0 00000001#02A7FF R
(1792980.656000) vcan0 00000002#03A800 R
(1792980.892000) vcan0 00000001#04A901 R
(1792981.128000) vcan0 00000002#05AA02 R
(1792981.365000) vcan0 00000001#065503 R
(1792981.601000) vcan0 00000002#075604 R
(1792981.845000) vcan0 00000001#085705 R
(1792982.081000) vcan0 00000002#095806 R
(1792982.319000) vcan0 00000001#0A5907 R
(1792982.555000) vcan0 00000002#0B5A08 R
(1792982.798000) vcan0 00000001#0C5B09 R
(1792983.034000) vcan0 00000002#0D5C0A R
(1792983.276000) vcan0 00000001#0E5D0B R
(1792983.511000) vcan0 00000002#0F5E0C R
(1792983.755000) vcan0 00000001#105F0D R
(1792983.991000) vcan0 00000002#11600E R
(1792984.233000) vcan0 00000001#12610F R
(1792984.468000) vcan0 00000002#136210 R
(1792984.712000) vcan0 00000001#146311 R
(1792984.948000) vcan0 00000002#156412 R
(1792985.184000) vcan0 00000001#166513 R
(1792985.425000) vcan0 00000002#176614 R
(1792985.669000) vcan0 00000001#186715 R
(1792985.905000) vcan0 00000002#196816 R
(1792986.140000) vcan0 00000001#1A6917 R
(1792986.382000) vcan0 00000002#1B6A18 R
(1792986.618000) vcan0 00000001#1C6B19 R
(1792986.861000) vcan0 00000002#1D6C1A R
(1792987.097000) vcan0 00000001#1E6D1B R
(1792987.335000) vcan0 00000002#1F6E1C R
(1792987.571000) vcan0 00000001#206F1D R
(1792987.815000) vcan0 00000002#21701E R
(1792988.050000) vcan0 00000001#22711F R
(1792988.292000) vcan0 00000002#237220 R
(1792988.528000) vcan0 00000001#247321 R
(1792988.771000) vcan0 00000002#257422 R
(1792989.007000) vcan0 00000001#267523 R
(1792989.249000) vcan0 00000002#277624 R
(1792989.485000) vcan0 00000001#287725 R
(1792989.729000) vcan0 00000002#297826 R
(1792989.964000) vcan0 00000001#2A7927 R
(1792990.201000) vcan0 00000002#2B7A28 R
(1792990.441000) vcan0 00000001#2C7B29 R
(1792990.685000) vcan0 00000002#2D7C2A R
(1792990.921000) vcan0 00000001#2E7D2B R
(1792991.157000) vcan0 00000002#2F7E2C R
(1792991.398000) vcan0 00000001#307F2D R
(1792991.642000) vcan0 00000002#31802E R
(1792991.878000) vcan0 00000001#32812F R
(1792992.113000) vcan0 00000002#338230 R
(1792992.352000) vcan0 00000001#348331 R
(1792992.587000) vcan0 00000002#358432 R
(1792992.831000) vcan0 00000001#368533 R
(1792993.067000) vcan0 00000002#378634 R
(1792993.309000) vcan0 00000001#388735 R
(1792993.544000) vcan0 00000002#398836 R
(1792993.788000) vcan0 00000001#3A8937 R
(1792994.024000) vcan0 00000002#3B8A38 R
(1792994.266000) vcan0 00000001#3C8B39 R
(1792994.501000) vcan0 00000002#3D8C3A R
(1792994.745000) vcan0 00000001#3E8D3B R
(1792994.981000) vcan0 00000002#3F8E3C R
(1792995.219000) vcan0 00000001#408F3D R
(1792995.455000) vcan0 00000002#41903E R
(1792995.699000) vcan0 00000001#42913F R
(1792995.934000) vcan0 00000002#439240 R
(1792996.170000) vcan0 00000001#449341 R
(1792996.412000) vcan0 00000002#459442 R
(1792996.656000) vcan0 00000001#469543 R
(1792996.892000) vcan0 00000002#479644 R
(1792997.128000) vcan0 00000001#489745 R
(1792997.365000) vcan0 00000002#499846 R
(1792997.601000) vcan0 00000001#4A9947 R
(1792997.845000) vcan0 00000002#4B9A48 R
(1792998.081000) vcan0 00000001#4C9B49 R
(1792998.319000) vcan0 00000002#4D9C4A R
(1792998.555000) vcan0 00000001#4E9D4B R
(1792998.798000) vcan0 00000002#4F9E4C R
(1792999.034000) vcan0 00000001#509F4D R
(1792999.276000) vcan0 00000002#51A04E R
(1792999.511000) vcan0 00000001#52A14F R
(1792999.755000) vcan0 00000002#53A250 R
(1792999.991000) vcan0 00000001#54A351 R
(1793000.233000) vcan0 00000002#00A452 R
(1793000.468000) vcan0 00000001#01A553 R
(1793000.712000) vcan0 00000002#02A654 R
(1793000.948000) vcan0 00000001#03A755 R
(1793001.184000) vcan0 00000002#04A856 R
(1793001.425000) vcan0 00000001#05A957 R
(1793001.669000) vcan0 00000002#06AA58 R
(1793001.905000) vcan0 00000001#075559 R
(1793002.140000) vcan0 00000002#08565A R
(1793002.382000) vcan0 00000001#09575B R
(1793002.618000) vcan0 00000002#0A585C R
(1793002.861000) vcan0 00000001#0B595D R
(1793003.097000) vcan0 00000002#0C5A5E R
(1793003.335000) vcan0 00000001#0D5B5F R
(1793003.571000) vcan0 00000002#0E5C60 R
(1793003.815000) vcan0 00000001#0F5D61 R
(1793004.050000) vcan0 00000002#105E62 R
(1793004.292000) vcan0 00000001#115F63 R
(1793004.528000) vcan0 00000002#126064 R
(1793004.772000) vcan0 00000001#136165 R
(1793005.007000) vcan0 00000002#146266 R
(1793005.249000) vcan0 00000001#156367 R
(1793005.485000) vcan0 00000002#166468 R
(1793005.729000) vcan0 00000001#176569 R
(1793005.965000) vcan0 00000002#18666A R
(1793006.201000) vcan0 00000001#19676B R
(1793006.441000) vcan0 00000002#1A686C R
(1793006.685000) vcan0 00000001#1B696D R
(1793006.921000) vcan0 00000002#1C6A6E R
(1793007.157000) vcan0 00000001#1D6B6F R
(1793007.398000) vcan0 00000002#1E6C70 R
(1793007.642000) vcan0 00000001#1F6D71 R
(1793007.878000) vcan0 00000002#206E72 R
(1793008.114000) vcan0 00000001#216F73 R
(1793008.352000) vcan0 00000002#227074 R
(1793008.587000) vcan0 00000001#237175 R
(1793008.831000) vcan0 00000002#247276 R
(1793009.067000) vcan0 00000001#257377 R
(1793009.309000) vcan0 00000002#267478 R
(1793009.544000) vcan0 00000001#277579 R
(1793009.788000) vcan0 00000002#28767A R
(1793010.024000) vcan0 00000001#29777B R
(1793010.266000) vcan0 00000002#2A787C R
(1793010.501000) vcan0 00000001#2B797D R
(1793010.745000) vcan0 00000002#2C7A7E R
(1793010.981000) vcan0 00000001#2D7B7F R
(1793011.219000) vcan0 00000002#2E7C80 R
(1793011.455000) vcan0 00000001#2F7D81 R
(1793011.699000) vcan0 00000002#307E82 R
(1793011.934000) vcan0 00000001#317F83 R
(1793012.170000) vcan0 00000002#328084 R
(1793012.412000) vcan0 00000001#338185 R
(1793012.656000) vcan0 00000002#348286 R
(1793012.892000) vcan0 00000001#358387 R
(1793013.128000) vcan0 00000002#368488 R
(1793013.365000) vcan0 00000001#378589 R
(1793013.601000) vcan0 00000002#38868A R
(1793013.845000) vcan0 00000001#39878B R
(1793014.081000) vcan0 00000002#3A888C R
(1793014.319000) vcan0 00000001#3B898D R
(1793014.555000) vcan0 00000002#3C8A8E R
(1793014.798000) vcan0 00000001#3D8B8F R
(1793015.034000) vcan0 00000002#3E8C90 R
(1793015.276000) vcan0 00000001#3F8D91 R
(1793015.511000) vcan0 00000002#408E92 R
(1793015.755000) vcan0 00000001#418F93 R
(1793015.991000) vcan0 00000002#429094 R
(1793016.233000) vcan0 00000001#439195 R
(1793016.468000) vcan0 00000002#449296 R
(1793016.712000) vcan0 00000001#459397 R
(1793016.948000) vcan0 00000002#469498 R
(1793017.184000) vcan0 00000001#479599 R
(1793017.425000) vcan0 00000002#48969A R
(1793017.669000) vcan0 00000001#49979B R
(1793017.905000) vcan0 00000002#4A989C R
(1793018.140000) vcan0 00000001#4B999D R
(1793018.382000) vcan0 00000002#4C9A9E R
(1793018.618000) vcan0 00000001#4D9B9F R
(1793018.861000) vcan0 00000002#4E9CA0 R
(1793019.097000) vcan0 00000001#4F9DA1 R
(1793019.335000) vcan0 00000002#509EA2 R
(1793019.571000) vcan0 00000001#519FA3 R
(1793019.815000) vcan0 00000002#52A0A4 R
(1793020.050000) vcan0 00000001#53A1A5 R
(1793020.292000) vcan0 00000002#54A2A6 R
(1793020.528000) vcan0 00000001#00A3A7 R
(1793020.771000) vcan0 00000002#01A4A8 R
(1793021.007000) vcan0 00000001#02A5A9 R
(1793021.249000) vcan0 00000002#03A6AA R
(1793021.485000) vcan0 00000001#04A7AB R
(1793021.729000) vcan0 00000002#05A8AC R
(1793021.964000) vcan0 00000001#06A9AD R
(1793022.201000) vcan0 00000002#07AAAE R
(1793022.441000) vcan0 00000001#0855AF R
(1793022.685000) vcan0 00000002#0956B0 R
(1793022.921000) vcan0 00000001#0A57B1 R
(1793023.157000) vcan0 00000002#0B58B2 R
(1793023.398000) vcan0 00000001#0C59B3 R
(1793023.642000) vcan0 00000002#0D5AB4 R
(1793023.878000) vcan0 00000001#0E5BB5 R
(1793024.114000) vcan0 00000002#0F5CB6 R
(1793024.352000) vcan0 00000001#105DB7 R
(1793024.587000) vcan0 00000002#115EB8 R
(1793024.831000) vcan0 00000001#125FB9 R
(1793025.067000) vcan0 00000002#1360BA R
(1793025.309000) vcan0 00000001#1461BB R
