(140976.052000) vcan0 00000001#2E9BD8 R
(140976.290000) vcan0 00000002#2F9CD9 R
(140976.526000) vcan0 00000001#309DDA R
(140976.770000) vcan0 00000002#319EDB R
(140984.174000) vcan0 00000001#5067FA R
(140984.410000) vcan0 00000002#5168FB R
(140984.654000) vcan0 00000001#5269FC R
(140984.889000) vcan0 00000002#536AFD R
(140985.125000) vcan0 00000001#546BFE R
(140985.366000) vcan0 00000002#006CAA R
(140985.610000) vcan0 00000001#016DAB R
(140985.846000) vcan0 00000002#026EAC R
(140986.081000) vcan0 00000001#036FAD R
(140986.320000) vcan0 00000002#0470AE R
(140986.556000) vcan0 00000001#0571AF R
(140986.800000) vcan0 00000002#0672B0 R
(140987.036000) vcan0 00000001#0773B1 R
(140987.274000) vcan0 00000002#0874B2 R
(140987.510000) vcan0 00000001#0975B3 R
(140987.754000) vcan0 00000002#0A76B4 R
(140987.989000) vcan0 00000001#0B77B5 R
(140988.231000) vcan0 00000002#0C78B6 R
(140988.467000) vcan0 00000001#0D79B7 R
(140988.711000) vcan0 00000002#0E7AB8 R
(140988.947000) vcan0 00000001#0F7BB9 R
(140989.187000) vcan0 00000002#107CBA R
(140989.423000) vcan0 00000001#117DBB R
(140989.667000) vcan0 00000002#127EBC R
(140989.902000) vcan0 00000001#137FBD R
(140990.138000) vcan0 00000002#1480BE R
(140990.380000) vcan0 00000001#1581BF R
(140990.624000) vcan0 00000002#1682C0 R
(140990.860000) vcan0 00000001#1783C1 R
(140991.095000) vcan0 00000002#1884C2 R
(140991.337000) vcan0 00000001#1985C3 R
(140991.580000) vcan0 00000002#1A86C4 R
(140991.816000) vcan0 00000001#1B87C5 R
(140992.052000) vcan0 00000002#1C88C6 R
(140992.289000) vcan0 00000001#1D89C7 R
(140992.525000) vcan0 00000002#1E8AC8 R
(140992.769000) vcan0 00000001#1F8BC9 R
(140993.005000) vcan0 00000002#208CCA R
(140993.247000) vcan0 00000001#218DCB R
(140993.483000) vcan0 00000002#228ECC R
(140993.726000) vcan0 00000001#238FCD R
(140993.962000) vcan0 00000002#2490CE R
(140994.204000) vcan0 00000001#2591CF R
(140994.440000) vcan0 00000002#2692D0 R
(140994.684000) vcan0 00000001#2793D1 R
(140994.919000) vcan0 00000002#2894D2 R
(140995.156000) vcan0 00000001#2995D3 R
(140995.396000) vcan0 00000002#2A96D4 R
(140995.640000) vcan0 00000001#2B97D5 R
(140995.876000) vcan0 00000002#2C98D6 R
(140996.111000) vcan0 00000001#2D99D7 R
(140996.353000) vcan0 00000002#2E9AD8 R
(140996.596000) vcan0 00000001#2F9BD9 R
(140996.832000) vcan0 00000002#309CDA R
(140997.068000) vcan0 00000001#319DDB R
(140997.306000) vcan0 00000002#329EDC R
(140997.542000) vcan0 00000001#339FDD R
(140997.786000) vcan0 00000002#34A0DE R
(140998.022000) vcan0 00000001#35A1DF R
(140998.264000) vcan0 00000002#36A2E0 R
(140998.500000) vcan0 00000001#37A3E1 R
(140998.743000) vcan0 00000002#38A4E2 R
(140998.979000) vcan0 00000001#39A5E3 R
(140999.220000) vcan0 00000002#3AA6E4 R
(140999.456000) vcan0 00000001#3BA7E5 R
(140999.699000) vcan0 00000002#3CA8E6 R
(140999.935000) vcan0 00000001#3DA9E7 R
(141000.174000) vcan0 00000002#3EAAE8 R
(141000.410000) vcan0 00000001#3F55E9 R
(141000.654000) vcan0 00000002#4056EA R
(141000.889000) vcan0 00000001#4157EB R
(141001.125000) vcan0 00000002#4258EC R
(141001.367000) vcan0 00000001#4359ED R
(141001.611000) vcan0 00000002#445AEE R
(141001.847000) vcan0 00000001#455BEF R
(141002.082000) vcan0 00000002#465CF0 R
(141002.320000) vcan0 00000001#475DF1 R
(141002.556000) vcan0 00000002#485EF2 R
(141002.800000) vcan0 00000001#495FF3 R
(141003.036000) vcan0 00000002#4A60F4 R
(141003.274000) vcan0 00000001#4B61F5 R
(141003.510000) vcan0 00000002#4C62F6 R
(141003.754000) vcan0 00000001#4D63F7 R
(141003.989000) vcan0 00000002#4E64F8 R
(141004.231000) vcan0 00000001#4F65F9 R
(141004.467000) vcan0 00000002#5066FA R
(141004.711000) vcan0 00000001#5167FB R
(141004.947000) vcan0 00000002#5268FC R
(141005.187000) vcan0 00000001#5369FD R
(141005.423000) vcan0 00000002#546AFE R
(141005.667000) vcan0 00000001#006BAA R
(141005.902000) vcan0 00000002#016CAB R
(141006.138000) vcan0 00000001#026DAC R
(141006.380000) vcan0 00000002#036EAD R
(141006.624000) vcan0 00000001#046FAE R
(141006.860000) vcan0 00000002#0570AF R
(141007.095000) vcan0 00000001#0671B0 R
(141007.337000) vcan0 00000002#0772B1 R
(141007.580000) vcan0 00000001#0873B2 R
(141007.816000) vcan0 00000002#0974B3 R
(141008.052000) vcan0 00000001#0A75B4 R
(141008.289000) vcan0 00000002#0B76B5 R
(141008.525000) vcan0 00000001#0C77B6 R
(141008.769000) vcan0 00000002#0D78B7 R
(141009.005000) vcan0 00000001#0E79B8 R
(141009.247000) vcan0 00000002#0F7AB9 R
(141009.483000) vcan0 00000001#107BBA R
(141009.726000) vcan0 00000002#117CBB R
(141009.962000) vcan0 00000001#127DBC R
(141010.204000) vcan0 00000002#137EBD R
(141010.440000) vcan0 00000001#147FBE R
(141010.684000) vcan0 00000002#1580BF R
(141010.919000) vcan0 00000001#1681C0 R
(141011.156000) vcan0 00000002#1782C1 R
(141011.396000) vcan0 00000001#1883C2 R
(141011.640000) vcan0 00000002#1984C3 R
(141011.876000) vcan0 00000001#1A85C4 R
(141012.111000) vcan0 00000002#1B86C5 R
(141012.353000) vcan0 00000001#1C87C6 R
(141012.596000) vcan0 00000002#1D88C7 R
(141012.832000) vcan0 00000001#1E89C8 R
(141013.068000) vcan0 00000002#1F8AC9 R
(141013.306000) vcan0 00000001#208BCA R
(141013.541000) vcan0 00000002#218CCB R
(141013.785000) vcan0 00000001#228DCC R
(141014.021000) vcan0 00000002#238ECD R
(141014.263000) vcan0 00000001#248FCE R
(141014.499000) vcan0 00000002#2590CF R
(141014.743000) vcan0 00000001#2691D0 R
(141014.978000) vcan0 00000002#2792D1 R
(141015.220000) vcan0 00000001#2893D2 R
(141015.456000) vcan0 00000002#2994D3 R
(141015.700000) vcan0 00000001#2A95D4 R
(141015.936000) vcan0 00000002#2B96D5 R
(141016.174000) vcan0 00000001#2C97D6 R
(141016.410000) vcan0 00000002#2D98D7 R
(141016.654000) vcan0 00000001#2E99D8 R
(141016.889000) vcan0 00000002#2F9AD9 R
(141017.125000) vcan0 00000001#309BDA R
(141017.366000) vcan0 00000002#319CDB R
(141017.610000) vcan0 00000001#329DDC R
(141017.846000) vcan0 00000002#339EDD R
(141018.081000) vcan0 00000001#349FDE R
(141018.320000) vcan0 00000002#35A0DF R
(141018.556000) vcan0 00000001#36A1E0 R
(141018.800000) vcan0 00000002#37A2E1 R
(141019.036000) vcan0 00000001#38A3E2 R
(141019.274000) vcan0 00000002#39A4E3 R
(141019.510000) vcan0 00000001#3AA5E4 R
(141019.754000) vcan0 00000002#3BA6E5 R
(141019.989000) vcan0 00000001#3CA7E6 R
(141020.231000) vcan0 00000002#3DA8E7 R
(141020.467000) vcan0 00000001#3EA9E8 R
(141020.711000) vcan0 00000002#3FAAE9 R
(141020.947000) vcan0 00000001#4055EA R
(141021.187000) vcan0 00000002#4156EB R
(141021.423000) vcan0 00000001#4257EC R
(141021.667000) vcan0 00000002#4358ED R
(141021.902000) vcan0 00000001#4459EE R
(141022.138000) vcan0 00000002#455AEF R
(141022.380000) vcan0 00000001#465BF0 R
(141022.624000) vcan0 00000002#475CF1 R
(141022.860000) vcan0 00000001#485DF2 R
(141023.095000) vcan0 00000002#495EF3 R
(141023.337000) vcan0 00000001#4A5FF4 R
(141023.580000) vcan0 00000002#4B60F5 R
(141023.816000) vcan0 00000001#4C61F6 R
(141024.052000) vcan0 00000002#4D62F7 R
(141024.289000) vcan0 00000001#4E63F8 R
(141024.525000) vcan0 00000002#4F64F9 R
(141024.769000) vcan0 00000001#5065FA R
(141025.005000) vcan0 00000002#5166FB R
(141025.247000) vcan0 00000001#5267FC R
(141025.483000) vcan0 00000002#5368FD R
(141025.726000) vcan0 00000001#5469FE R
(141025.962000) vcan0 00000002#006AAA R
(141026.204000) vcan0 00000001#016BAB R
(141026.440000) vcan0 00000002#026CAC R
(141026.684000) vcan0 00000001#036DAD R
(141026.919000) vcan0 00000002#046EAE R
(141027.156000) vcan0 00000001#056FAF R
(141027.396000) vcan0 00000002#0670B0 R
(141027.640000) vcan0 00000001#0771B1 R
(141027.876000) vcan0 00000002#0872B2 R
(141028.111000) vcan0 00000001#0973B3 R
(141028.353000) vcan0 00000002#0A74B4 R
(141028.596000) vcan0 00000001#0B75B5 R
(141028.832000) vcan0 00000002#0C76B6 R
(141029.068000) vcan0 00000001#0D77B7 R
(141029.306000) vcan0 00000002#0E78B8 R
(141029.542000) vcan0 00000001#0F79B9 R
(141029.786000) vcan0 00000002#107ABA R
(141030.022000) vcan0 00000001#117BBB R
(141030.264000) vcan0 00000002#127CBC R
(141030.500000) vcan0 00000001#137DBD R
(141030.743000) vcan0 00000002#147EBE R
(141030.979000) vcan0 00000001#157FBF R
(141031.220000) vcan0 00000002#1680C0 R
(141031.456000) vcan0 00000001#1781C1 R
(141031.699000) vcan0 00000002#1882C2 R
(141031.935000) vcan0 00000001#1983C3 R
(141032.174000) vcan0 00000002#1A84C4 R
(141032.410000) vcan0 00000001#1B85C5 R
(141032.654000) vcan0 00000002#1C86C6 R
(141032.889000) vcan0 00000001#1D87C7 R
(141033.125000) vcan0 00000002#1E88C8 R
(141033.367000) vcan0 00000001#1F89C9 R
(141033.611000) vcan0 00000002#208ACA R
(141033.846000) vcan0 00000001#218BCB R
(141034.082000) vcan0 00000002#228CCC R
(141034.320000) vcan0 00000001#238DCD R
(141034.556000) vcan0 00000002#248ECE R
(141034.800000) vcan0 00000001#258FCF R
(141035.036000) vcan0 00000002#2690D0 R
(141035.274000) vcan0 00000001#2791D1 R
(141035.510000) vcan0 00000002#2892D2 R
(141035.754000) vcan0 00000001#2993D3 R
(141035.989000) vcan0 00000002#2A94D4 R
(141036.231000) vcan0 00000001#2B95D5 R
(141036.467000) vcan0 00000002#2C96D6 R
(141036.711000) vcan0 00000001#2D97D7 R
(141036.947000) vcan0 00000002#2E98D8 R
(141037.187000) vcan0 00000001#2F99D9 R
(141037.423000) vcan0 00000002#309ADA R
(141037.667000) vcan0 00000001#319BDB R
(141037.903000) vcan0 00000002#329CDC R
(141038.138000) vcan0 00000001#339DDD R
(141038.380000) vcan0 00000002#349EDE R
(141038.624000) vcan0 00000001#359FDF R
(141038.860000) vcan0 00000002#36A0E0 R
(141039.095000) vcan0 00000001#37A1E1 R
(141039.337000) vcan0 00000002#38A2E2 R
(141039.580000) vcan0 00000001#39A3E3 R
(141039.816000) vcan0 00000002#3AA4E4 R
(141040.052000) vcan0 00000001#3BA5E5 R
(141040.290000) vcan0 00000002#3CA6E6 R
(141040.526000) vcan0 00000001#3DA7E7 R
(141040.770000) vcan0 00000002#3EA8E8 R
(141041.006000) vcan0 00000001#3FA9E9 R
(141041.248000) vcan0 00000002#40AAEA R
(141041.483000) vcan0 00000001#4155EB R
(141041.727000) vcan0 00000002#4256EC R
(141041.963000) vcan0 00000001#4357ED R
(141042.204000) vcan0 00000002#4458EE R
(141042.439000) vcan0 00000001#4559EF R
(141042.683000) vcan0 00000002#465AF0 R
(141042.919000) vcan0 00000001#475BF1 R
(141043.155000) vcan0 00000002#485CF2 R
(141043.396000) vcan0 00000001#495DF3 R
(141043.640000) vcan0 00000002#4A5EF4 R
(141043.876000) vcan0 00000001#4B5FF5 R
(141044.111000) vcan0 00000002#4C60F6 R
(141044.353000) vcan0 00000001#4D61F7 R
(141044.596000) vcan0 00000002#4E62F8 R
(141044.832000) vcan0 00000001#4F63F9 R
(141045.068000) vcan0 00000002#5064FA R
(141045.306000) vcan0 00000001#5165FB R
(141045.542000) vcan0 00000002#5266FC R
(141045.786000) vcan0 00000001#5367FD R
(141046.021000) vcan0 00000002#5468FE R
(141046.263000) vcan0 00000001#0069AA R
(141046.499000) vcan0 00000002#016AAB R
(141046.742000) vcan0 00000001#026BAC R
(141046.978000) vcan0 00000002#036CAD R
(141047.220000) vcan0 00000001#046DAE R
(141047.456000) vcan0 00000002#056EAF R
(141047.700000) vcan0 00000001#066FB0 R
(141047.936000) vcan0 00000002#0770B1 R
(141048.174000) vcan0 00000001#0871B2 R
(141048.410000) vcan0 00000002#0972B3 R
(141048.654000) vcan0 00000001#0A73B4 R
(141048.889000) vcan0 00000002#0B74B5 R
(141049.125000) vcan0 00000001#0C75B6 R
(141049.366000) vcan0 00000002#0D76B7 R
(141049.610000) vcan0 00000001#0E77B8 R
(141049.846000) vcan0 00000002#0F78B9 R
(141050.081000) vcan0 00000001#1079BA R
(141050.320000) vcan0 00000002#117ABB R
(141050.556000) vcan0 00000001#127BBC R
(141050.800000) vcan0 00000002#137CBD R
(141051.036000) vcan0 00000001#147DBE R
(141051.274000) vcan0 00000002#157EBF R
(141051.510000) vcan0 00000001#167FC0 R
(141051.754000) vcan0 00000002#1780C1 R
(141051.989000) vcan0 00000001#1881C2 R
(141052.230000) vcan0 00000002#1982C3 R
(141052.466000) vcan0 00000001#1A83C4 R
(141052.710000) vcan0 00000002#1B84C5 R
(141052.946000) vcan0 00000001#1C85C6 R
(141053.188000) vcan0 00000002#1D86C7 R
(141053.423000) vcan0 00000001#1E87C8 R
(141053.667000) vcan0 00000002#1F88C9 R
(141053.903000) vcan0 00000001#2089CA R
(141054.139000) vcan0 00000002#218ACB R
(141054.380000) vcan0 00000001#228BCC R
(141054.624000) vcan0 00000002#238CCD R
(141054.859000) vcan0 00000001#248DCE R
(141055.095000) vcan0 00000002#258ECF R
(141055.337000) vcan0 00000001#268FD0 R
(141055.580000) vcan0 00000002#2790D1 R
(141055.816000) vcan0 00000001#2891D2 R
(141056.052000) vcan0 00000002#2992D3 R
(141056.289000) vcan0 00000001#2A93D4 R
(141056.525000) vcan0 00000002#2B94D5 R
(141056.769000) vcan0 00000001#2C95D6 R
(141057.005000) vcan0 00000002#2D96D7 R
(141057.247000) vcan0 00000001#2E97D8 R
(141057.483000) vcan0 00000002#2F98D9 R
(141057.726000) vcan0 00000001#3099DA R
(141057.962000) vcan0 00000002#319ADB R
(141058.204000) vcan0 00000001#329BDC R
(141058.440000) vcan0 00000002#339CDD R
(141058.684000) vcan0 00000001#349DDE R
(141058.919000) vcan0 00000002#359EDF R
(141059.156000) vcan0 00000001#369FE0 R
(141059.396000) vcan0 00000002#37A0E1 R
(141059.640000) vcan0 00000001#38A1E2 R
(141059.876000) vcan0 00000002#39A2E3 R
(141060.111000) vcan0 00000001#3AA3E4 R
(141060.353000) vcan0 00000002#3BA4E5 R
(141060.596000) vcan0 00000001#3CA5E6 R
(141060.832000) vcan0 00000002#3DA6E7 R
(141061.068000) vcan0 00000001#3EA7E8 R
(141061.306000) vcan0 00000002#3FA8E9 R
(141061.542000) vcan0 00000001#40A9EA R
(141061.786000) vcan0 00000002#41AAEB R
(141062.022000) vcan0 00000001#4255EC R
(141062.264000) vcan0 00000002#4356ED R
(141062.500000) vcan0 00000001#4457EE R
(141062.743000) vcan0 00000002#4558EF R
(141062.979000) vcan0 00000001#4659F0 R
(141063.220000) vcan0 00000002#475AF1 R
(141063.456000) vcan0 00000001#485BF2 R
(141063.699000) vcan0 00000002#495CF3 R
(141063.935000) vcan0 00000001#4A5DF4 R
(141064.174000) vcan0 00000002#4B5EF5 R
(141064.410000) vcan0 00000001#4C5FF6 R
(141064.654000) vcan0 00000002#4D60F7 R
(141064.889000) vcan0 00000001#4E61F8 R
(141065.125000) vcan0 00000002#4F62F9 R
(141065.367000) vcan0 00000001#5063FA R
(141065.611000) vcan0 00000002#5164FB R
(141065.846000) vcan0 00000001#5265FC R
(141066.082000) vcan0 00000002#5366FD R
(141066.320000) vcan0 00000001#5467FE R
(141066.556000) vcan0 00000002#0068AA R
(141066.800000) vcan0 00000001#0169AB R
(141067.036000) vcan0 00000002#026AAC R
(141067.274000) vcan0 00000001#036BAD R
(141067.510000) vcan0 00000002#046CAE R
(141067.754000) vcan0 00000001#056DAF R
(141067.989000) vcan0 00000002#066EB0 R
(141068.231000) vcan0 00000001#076FB1 R
(141068.467000) vcan0 00000002#0870B2 R
(141068.711000) vcan0 00000001#0971B3 R
(141068.947000) vcan0 00000002#0A72B4 R
(141069.187000) vcan0 00000001#0B73B5 R
(141069.423000) vcan0 00000002#0C74B6 R
(141069.667000) vcan0 00000001#0D75B7 R
(141069.902000) vcan0 00000002#0E76B8 R
(141070.138000) vcan0 00000001#0F77B9 R
(141070.380000) vcan0 00000002#1078BA R
(141070.624000) vcan0 00000001#1179BB R
(141070.859000) vcan0 00000002#127ABC R
(141071.095000) vcan0 00000001#137BBD R
(141071.337000) vcan0 00000002#147CBE R
(141071.580000) vcan0 00000001#157DBF R
(141071.816000) vcan0 00000002#167EC0 R
(141072.052000) vcan0 00000001#177FC1 R
(141072.290000) vcan0 00000002#1880C2 R
(141072.526000) vcan0 00000001#1981C3 R
(141072.770000) vcan0 00000002#1A82C4 R
(141073.006000) vcan0 00000001#1B83C5 R
(141073.247000) vcan0 00000002#1C84C6 R
(141073.483000) vcan0 00000001#1D85C7 R
(141073.726000) vcan0 00000002#1E86C8 R
(141073.962000) vcan0 00000001#1F87C9 R
(141074.204000) vcan0 00000002#2088CA R
(141074.440000) vcan0 00000001#2189CB R
(141074.684000) vcan0 00000002#228ACC R
(141074.919000) vcan0 00000001#238BCD R
(141075.156000) vcan0 00000002#248CCE R
(141075.396000) vcan0 00000001#258DCF R
(141075.640000) vcan0 00000002#268ED0 R
(141075.876000) vcan0 00000001#278FD1 R
(141076.111000) vcan0 00000002#2890D2 R
(141076.353000) vcan0 00000001#2991D3 R
(141076.596000) vcan0 00000002#2A92D4 R
(141076.832000) vcan0 00000001#2B93D5 R
(141077.068000) vcan0 00000002#2C94D6 R
(141077.306000) vcan0 00000001#2D95D7 R
(141077.541000) vcan0 00000002#2E96D8 R
(141077.785000) vcan0 00000001#2F97D9 R
(141078.021000) vcan0 00000002#3098DA R
(141078.263000) vcan0 00000001#3199DB R
(141078.499000) vcan0 00000002#329ADC R
(141078.743000) vcan0 00000001#339BDD R
(141078.978000) vcan0 00000002#349CDE R
(141079.220000) vcan0 00000001#359DDF R
(141079.456000) vcan0 00000002#369EE0 R
(141079.700000) vcan0 00000001#379FE1 R
(141079.936000) vcan0 00000002#38A0E2 R
(141080.174000) vcan0 00000001#39A1E3 R
(141080.410000) vcan0 00000002#3AA2E4 R
(141080.654000) vcan0 00000001#3BA3E5 R
(141080.889000) vcan0 00000002#3CA4E6 R
(141081.125000) vcan0 00000001#3DA5E7 R
(141081.366000) vcan0 00000002#3EA6E8 R
(141081.610000) vcan0 00000001#3FA7E9 R
(141081.846000) vcan0 00000002#40A8EA R
(141082.081000) vcan0 00000001#41A9EB R
(141082.320000) vcan0 00000002#42AAEC R
(141082.556000) vcan0 00000001#4355ED R
(141082.800000) vcan0 00000002#4456EE R
(141083.036000) vcan0 00000001#4557EF R
(141083.274000) vcan0 00000002#4658F0 R
(141083.510000) vcan0 00000001#4759F1 R
(141083.754000) vcan0 00000002#485AF2 R
(141083.989000) vcan0 00000001#495BF3 R
(141084.231000) vcan0 00000002#4A5CF4 R
(141084.467000) vcan0 00000001#4B5DF5 R
(141084.711000) vcan0 00000002#4C5EF6 R
(141084.947000) vcan0 00000001#4D5FF7 R
(141085.187000) vcan0 00000002#4E60F8 R
(141085.423000) vcan0 00000001#4F61F9 R
(141085.667000) vcan0 00000002#5062FA R
(141085.902000) vcan0 00000001#5163FB R
(141086.138000) vcan0 00000002#5264FC R
(141086.380000) vcan0 00000001#5365FD R
(141086.624000) vcan0 00000002#5466FE R
(141086.860000) vcan0 00000001#0067AA R
(141087.095000) vcan0 00000002#0168AB R
(141087.337000) vcan0 00000001#0269AC R
(141087.580000) vcan0 00000002#036AAD R
(141087.816000) vcan0 00000001#046BAE R
(141088.052000) vcan0 00000002#056CAF R
(141088.289000) vcan0 00000001#066DB0 R
(141088.525000) vcan0 00000002#076EB1 R
(141088.769000) vcan0 00000001#086FB2 R
(141089.005000) vcan0 00000002#0970B3 R
(141089.247000) vcan0 00000001#0A71B4 R
(141089.482000) vcan0 00000002#0B72B5 R
(141089.726000) vcan0 00000001#0C73B6 R
(141089.962000) vcan0 00000002#0D74B7 R
(141090.204000) vcan0 00000001#0E75B8 R
(141090.440000) vcan0 00000002#0F76B9 R
(141090.684000) vcan0 00000001#1077BA R
(141090.919000) vcan0 00000002#1178BB R
(141091.156000) vcan0 00000001#1279BC R
(141091.396000) vcan0 00000002#137ABD R
(141091.640000) vcan0 00000001#147BBE R
(141091.876000) vcan0 00000002#157CBF R
(141092.111000) vcan0 00000001#167DC0 R
(141092.353000) vcan0 00000002#177EC1 R
(141092.596000) vcan0 00000001#187FC2 R
(141092.832000) vcan0 00000002#1980C3 R
(141093.068000) vcan0 00000001#1A81C4 R
(141093.306000) vcan0 00000002#1B82C5 R
(141093.542000) vcan0 00000001#1C83C6 R
(141093.786000) vcan0 00000002#1D84C7 R
(141094.022000) vcan0 00000001#1E85C8 R
(141094.264000) vcan0 00000002#1F86C9 R
(141094.500000) vcan0 00000001#2087CA R
(141094.743000) vcan0 00000002#2188CB R
(141094.979000) vcan0 00000001#2289CC R
(141095.220000) vcan0 00000002#238ACD R
(141095.456000) vcan0 00000001#248BCE R
(141095.699000) vcan0 00000002#258CCF R
(141095.935000) vcan0 00000001#268DD0 R
(141096.174000) vcan0 00000002#278ED1 R
(141096.410000) vcan0 00000001#288FD2 R
(141096.654000) vcan0 00000002#2990D3 R
(141096.889000) vcan0 00000001#2A91D4 R
(141097.125000) vcan0 00000002#2B92D5 R
(141097.367000) vcan0 00000001#2C93D6 R
(141097.611000) vcan0 00000002#2D94D7 R
(141097.846000) vcan0 00000001#2E95D8 R
(141098.082000) vcan0 00000002#2F96D9 R
(141098.320000) vcan0 00000001#3097DA R
(141098.556000) vcan0 00000002#3198DB R
(141098.800000) vcan0 00000001#3299DC R
(141099.036000) vcan0 00000002#339ADD R
(141099.274000) vcan0 00000001#349BDE R
(141099.510000) vcan0 00000002#359CDF R
(141099.754000) vcan0 00000001#369DE0 R
(141099.989000) vcan0 00000002#379EE1 R
(141100.231000) vcan0 00000001#389FE2 R
(141100.467000) vcan0 00000002#39A0E3 R
(141100.711000) vcan0 00000001#3AA1E4 R
(141100.947000) vcan0 00000002#3BA2E5 R
(141101.187000) vcan0 00000001#3CA3E6 R
(141101.423000) vcan0 00000002#3DA4E7 R
(141101.667000) vcan0 00000001#3EA5E8 R
(141101.903000) vcan0 00000002#3FA6E9 R
(141102.138000) vcan0 00000001#40A7EA R
(141102.380000) vcan0 00000002#41A8EB R
(141102.624000) vcan0 00000001#42A9EC R
(141102.860000) vcan0 00000002#43AAED R
(141103.095000) vcan0 00000001#4455EE R
(141103.337000) vcan0 00000002#4556EF R
(141103.580000) vcan0 00000001#4657F0 R
(141103.816000) vcan0 00000002#4758F1 R
(141104.052000) vcan0 00000001#4859F2 R
(141104.290000) vcan0 00000002#495AF3 R
(141104.526000) vcan0 00000001#4A5BF4 R
(141104.770000) vcan0 00000002#4B5CF5 R
(141105.006000) vcan0 00000001#4C5DF6 R
(141105.248000) vcan0 00000002#4D5EF7 R
(141105.483000) vcan0 00000001#4E5FF8 R
(141105.727000) vcan0 00000002#4F60F9 R
(141105.963000) vcan0 00000001#5061FA R
(141106.204000) vcan0 00000002#5162FB R
(141106.439000) vcan0 00000001#5263FC R
(141106.683000) vcan0 00000002#5364FD R
(141106.919000) vcan0 00000001#5465FE R
(141107.155000) vcan0 00000002#0066AA R
(141107.396000) vcan0 00000001#0167AB R
(141107.640000) vcan0 00000002#0268AC R
(141107.876000) vcan0 00000001#0369AD R
(141108.111000) vcan0 00000002#046AAE R
(141108.353000) vcan0 00000001#056BAF R
(141108.596000) vcan0 00000002#066CB0 R
(141108.832000) vcan0 00000001#076DB1 R
(141109.068000) vcan0 00000002#086EB2 R
(141109.306000) vcan0 00000001#096FB3 R
(141109.542000) vcan0 00000002#0A70B4 R
(141109.786000) vcan0 00000001#0B71B5 R
(141110.021000) vcan0 00000002#0C72B6 R
(141110.263000) vcan0 00000001#0D73B7 R
(141110.499000) vcan0 00000002#0E74B8 R
(141110.742000) vcan0 00000001#0F75B9 R
(141110.978000) vcan0 00000002#1076BA R
(141111.220000) vcan0 00000001#1177BB R
(141111.456000) vcan0 00000002#1278BC R
(141111.700000) vcan0 00000001#1379BD R
(141111.936000) vcan0 00000002#147ABE R
(141112.174000) vcan0 00000001#157BBF R
(141112.410000) vcan0 00000002#167CC0 R
(141112.654000) vcan0 00000001#177DC1 R
(141112.889000) vcan0 00000002#187EC2 R
(141113.125000) vcan0 00000001#197FC3 R
(141113.366000) vcan0 00000002#1A80C4 R
(141113.610000) vcan0 00000001#1B81C5 R
(141113.846000) vcan0 00000002#1C82C6 R
(141114.081000) vcan0 00000001#1D83C7 R
(141114.320000) vcan0 00000002#1E84C8 R
(141114.556000) vcan0 00000001#1F85C9 R
(141114.800000) vcan0 00000002#2086CA R
(141115.036000) vcan0 00000001#2187CB R
(141115.274000) vcan0 00000002#2288CC R
(141115.510000) vcan0 00000001#2389CD R
(141115.754000) vcan0 00000002#248ACE R
(141115.989000) vcan0 00000001#258BCF R
(141116.230000) vcan0 00000002#268CD0 R
(141116.466000) vcan0 00000001#278DD1 R
(141116.710000) vcan0 00000002#288ED2 R
(141116.946000) vcan0 00000001#298FD3 R
(141117.188000) vcan0 00000002#2A90D4 R
(141117.423000) vcan0 00000001#2B91D5 R
(141117.667000) vcan0 00000002#2C92D6 R
(141117.903000) vcan0 00000001#2D93D7 R
(141118.139000) vcan0 00000002#2E94D8 R
(141118.380000) vcan0 00000001#2F95D9 R
(141118.624000) vcan0 00000002#3096DA R
(141118.859000) vcan0 00000001#3197DB R
(141119.095000) vcan0 00000002#3298DC R
(141119.337000) vcan0 00000001#3399DD R
(141119.580000) vcan0 00000002#349ADE R
(141119.816000) vcan0 00000001#359BDF R
(141120.052000) vcan0 00000002#369CE0 R
(141120.289000) vcan0 00000001#379DE1 R
(141120.525000) vcan0 00000002#389EE2 R
(141120.769000) vcan0 00000001#399FE3 R
(141121.005000) vcan0 00000002#3AA0E4 R
(141121.247000) vcan0 00000001#3BA1E5 R
(141121.483000) vcan0 00000002#3CA2E6 R
(141121.726000) vcan0 00000001#3DA3E7 R
(141121.962000) vcan0 00000002#3EA4E8 R
(141122.204000) vcan0 00000001#3FA5E9 R
(141122.440000) vcan0 00000002#40A6EA R
(141122.684000) vcan0 00000001#41A7EB R
(141122.919000) vcan0 00000002#42A8EC R
(141123.156000) vcan0 00000001#43A9ED R
(141123.396000) vcan0 00000002#44AAEE R
(141123.640000) vcan0 00000001#4555EF R
(141123.876000) vcan0 00000002#4656F0 R
(141124.111000) vcan0 00000001#4757F1 R
(141124.353000) vcan0 00000002#4858F2 R
(141124.597000) vcan0 00000001#4959F3 R
(141124.832000) vcan0 00000002#4A5AF4 R
(141125.068000) vcan0 00000001#4B5BF5 R
(141125.306000) vcan0 00000002#4C5CF6 R
(141125.542000) vcan0 00000001#4D5DF7 R
(141125.786000) vcan0 00000002#4E5EF8 R
(141126.022000) vcan0 00000001#4F5FF9 R
(141126.264000) vcan0 00000002#5060FA R
(141126.500000) vcan0 00000001#5161FB R
(141126.743000) vcan0 00000002#5262FC R
(141126.979000) vcan0 00000001#5363FD R
(141127.220000) vcan0 00000002#5464FE R
(141127.456000) vcan0 00000001#0065AA R
(141127.699000) vcan0 00000002#0166AB R
(141127.935000) vcan0 00000001#0267AC R
(141128.174000) vcan0 00000002#0368AD R
(141128.410000) vcan0 00000001#0469AE R
(141128.654000) vcan0 00000002#056AAF R
(141128.889000) vcan0 00000001#066BB0 R
(141129.125000) vcan0 00000002#076CB1 R
(141129.367000) vcan0 00000001#086DB2 R
(141129.611000) vcan0 00000002#096EB3 R
(141129.846000) vcan0 00000001#0A6FB4 R
(141130.082000) vcan0 00000002#0B70B5 R
(141130.320000) vcan0 00000001#0C71B6 R
(141130.556000) vcan0 00000002#0D72B7 R
(141130.800000) vcan0 00000001#0E73B8 R
(141131.036000) vcan0 00000002#0F74B9 R
(141131.274000) vcan0 00000001#1075BA R
(141131.510000) vcan0 00000002#1176BB R
(141131.754000) vcan0 00000001#1277BC R
(141131.989000) vcan0 00000002#1378BD R
(141132.231000) vcan0 00000001#1479BE R
(141132.467000) vcan0 00000002#157ABF R
(141132.711000) vcan0 00000001#167BC0 R
(141132.947000) vcan0 00000002#177CC1 R
(141133.187000) vcan0 00000001#187DC2 R
(141133.423000) vcan0 00000002#197EC3 R
(141133.667000) vcan0 00000001#1A7FC4 R
(141133.903000) vcan0 00000002#1B80C5 R
(141134.138000) vcan0 00000001#1C81C6 R
(141134.380000) vcan0 00000002#1D82C7 R
(141134.624000) vcan0 00000001#1E83C8 R
(141134.860000) vcan0 00000002#1F84C9 R
(141135.095000) vcan0 00000001#2085CA R
(141135.337000) vcan0 00000002#2186CB R
(141135.580000) vcan0 00000001#2287CC R
(141135.816000) vcan0 00000002#2388CD R
(141136.052000) vcan0 00000001#2489CE R
(141136.290000) vcan0 00000002#258ACF R
(141136.526000) vcan0 00000001#268BD0 R
(141136.770000) vcan0 00000002#278CD1 R
(141137.006000) vcan0 00000001#288DD2 R
(141137.248000) vcan0 00000002#298ED3 R
(141137.483000) vcan0 00000001#2A8FD4 R
(141137.727000) vcan0 00000002#2B90D5 R
(141137.963000) vcan0 00000001#2C91D6 R
(141138.203000) vcan0 00000002#2D92D7 R
(141138.439000) vcan0 00000001#2E93D8 R
(141138.683000) vcan0 00000002#2F94D9 R
(141138.919000) vcan0 00000001#3095DA R
(141139.155000) vcan0 00000002#3196DB R
(141139.396000) vcan0 00000001#3297DC R
(141139.640000) vcan0 00000002#3398DD R
(141139.876000) vcan0 00000001#3499DE R
(141140.111000) vcan0 00000002#359ADF R
(141140.353000) vcan0 00000001#369BE0 R
(141140.596000) vcan0 00000002#379CE1 R
(141140.832000) vcan0 00000001#389DE2 R
(141141.068000) vcan0 00000002#399EE3 R
(141141.306000) vcan0 00000001#3A9FE4 R
(141141.542000) vcan0 00000002#3BA0E5 R
(141141.786000) vcan0 00000001#3CA1E6 R
(141142.022000) vcan0 00000002#3DA2E7 R
(141142.263000) vcan0 00000001#3EA3E8 R
(141142.499000) vcan0 00000002#3FA4E9 R
(141142.743000) vcan0 00000001#40A5EA R
(141142.978000) vcan0 00000002#41A6EB R
(141143.220000) vcan0 00000001#42A7EC R
(141143.456000) vcan0 00000002#43A8ED R
(141143.700000) vcan0 00000001#44A9EE R
(141143.936000) vcan0 00000002#45AAEF R
(141144.174000) vcan0 00000001#4655F0 R
(141144.410000) vcan0 00000002#4756F1 R
(141144.654000) vcan0 00000001#4857F2 R
(141144.889000) vcan0 00000002#4958F3 R
(141145.125000) vcan0 00000001#4A59F4 R
(141145.366000) vcan0 00000002#4B5AF5 R
(141145.610000) vcan0 00000001#4C5BF6 R
(141145.846000) vcan0 00000002#4D5CF7 R
(141146.081000) vcan0 00000001#4E5DF8 R
(141146.320000) vcan0 00000002#4F5EF9 R
(141146.556000) vcan0 00000001#505FFA R
(141146.800000) vcan0 00000002#5160FB R
(141147.036000) vcan0 00000001#5261FC R
(141147.274000) vcan0 00000002#5362FD R
(141147.510000) vcan0 00000001#5463FE R
(141147.754000) vcan0 00000002#0064AA R
(141147.989000) vcan0 00000001#0165AB R
(141148.231000) vcan0 00000002#0266AC R
(141148.467000) vcan0 00000001#0367AD R
(141148.711000) vcan0 00000002#0468AE R
(141148.947000) vcan0 00000001#0569AF R
(141149.187000) vcan0 00000002#066AB0 R
(141149.423000) vcan0 00000001#076BB1 R
(141149.667000) vcan0 00000002#086CB2 R
(141149.902000) vcan0 00000001#096DB3 R
(141150.138000) vcan0 00000002#0A6EB4 R
(141150.380000) vcan0 00000001#0B6FB5 R
(141150.624000) vcan0 00000002#0C70B6 R
(141150.860000) vcan0 00000001#0D71B7 R
(141151.095000) vcan0 00000002#0E72B8 R
(141151.337000) vcan0 00000001#0F73B9 R
(141151.580000) vcan0 00000002#1074BA R
(141151.816000) vcan0 00000001#1175BB R
(141152.052000) vcan0 00000002#1276BC R
(141152.289000) vcan0 00000001#1377BD R
(141152.525000) vcan0 00000002#1478BE R
(141152.769000) vcan0 00000001#1579BF R
(141153.005000) vcan0 00000002#167AC0 R
(141153.247000) vcan0 00000001#177BC1 R
(141153.483000) vcan0 00000002#187CC2 R
(141153.726000) vcan0 00000001#197DC3 R
(141153.962000) vcan0 00000002#1A7EC4 R
(141154.204000) vcan0 00000001#1B7FC5 R
(141154.440000) vcan0 00000002#1C80C6 R
(141154.684000) vcan0 00000001#1D81C7 R
(141154.919000) vcan0 00000002#1E82C8 R
(141155.156000) vcan0 00000001#1F83C9 R
(141155.396000) vcan0 00000002#2084CA R
(141155.640000) vcan0 00000001#2185CB R
(141155.876000) vcan0 00000002#2286CC R
(141156.111000) vcan0 00000001#2387CD R
(141156.353000) vcan0 00000002#2488CE R
(141156.596000) vcan0 00000001#2589CF R
(141156.832000) vcan0 00000002#268AD0 R
(141157.068000) vcan0 00000001#278BD1 R
(141157.306000) vcan0 00000002#288CD2 R
(141157.542000) vcan0 00000001#298DD3 R
(141157.786000) vcan0 00000002#2A8ED4 R
(141158.022000) vcan0 00000001#2B8FD5 R
(141158.264000) vcan0 00000002#2C90D6 R
(141158.500000) vcan0 00000001#2D91D7 R
(141158.743000) vcan0 00000002#2E92D8 R
(141158.979000) vcan0 00000001#2F93D9 R
(141159.220000) vcan0 00000002#3094DA R
(141159.456000) vcan0 00000001#3195DB R
(141159.699000) vcan0 00000002#3296DC R
(141159.935000) vcan0 00000001#3397DD R
(141160.174000) vcan0 00000002#3498DE R
(141160.410000) vcan0 00000001#3599DF R
(141160.654000) vcan0 00000002#369AE0 R
(141160.889000) vcan0 00000001#379BE1 R
(141161.125000) vcan0 00000002#389CE2 R
(141161.367000) vcan0 00000001#399DE3 R
(141161.611000) vcan0 00000002#3A9EE4 R
(141161.846000) vcan0 00000001#3B9FE5 R
(141162.082000) vcan0 00000002#3CA0E6 R
(141162.320000) vcan0 00000001#3DA1E7 R
(141162.556000) vcan0 00000002#3EA2E8 R
(141162.800000) vcan0 00000001#3FA3E9 R
(141163.036000) vcan0 00000002#40A4EA R
(141163.274000) vcan0 00000001#41A5EB R
(141163.510000) vcan0 00000002#42A6EC R
(141163.754000) vcan0 00000001#43A7ED R
(141163.989000) vcan0 00000002#44A8EE R
(141164.231000) vcan0 00000001#45A9EF R
(141164.467000) vcan0 00000002#46AAF0 R
(141164.711000) vcan0 00000001#4755F1 R
(141164.947000) vcan0 00000002#4856F2 R
(141165.187000) vcan0 00000001#4957F3 R
(141165.423000) vcan0 00000002#4A58F4 R
(141165.667000) vcan0 00000001#4B59F5 R
(141165.902000) vcan0 00000002#4C5AF6 R
(141166.138000) vcan0 00000001#4D5BF7 R
(141166.380000) vcan0 00000002#4E5CF8 R
(141166.624000) vcan0 00000001#4F5DF9 R
(141166.859000) vcan0 00000002#505EFA R
(141167.095000) vcan0 00000001#515FFB R
(141167.337000) vcan0 00000002#5260FC R
(141167.580000) vcan0 00000001#5361FD R
(141167.816000) vcan0 00000002#5462FE R
(141168.052000) vcan0 00000001#0063AA R
(141168.290000) vcan0 00000002#0164AB R
(141168.526000) vcan0 00000001#0265AC R
(141168.770000) vcan0 00000002#0366AD R
(141169.006000) vcan0 00000001#0467AE R
(141169.247000) vcan0 00000002#0568AF R
(141169.483000) vcan0 00000001#0669B0 R
(141169.726000) vcan0 00000002#076AB1 R
(141169.962000) vcan0 00000001#086BB2 R
(141170.204000) vcan0 00000002#096CB3 R
(141170.440000) vcan0 00000001#0A6DB4 R
(141170.684000) vcan0 00000002#0B6EB5 R
(141170.919000) vcan0 00000001#0C6FB6 R
(141171.156000) vcan0 00000002#0D70B7 R
(141171.396000) vcan0 00000001#0E71B8 R
(141171.640000) vcan0 00000002#0F72B9 R
(141171.876000) vcan0 00000001#1073BA R
(141172.111000) vcan0 00000002#1174BB R
(141172.353000) vcan0 00000001#1275BC R
(141172.596000) vcan0 00000002#1376BD R
(141172.832000) vcan0 00000001#1477BE R
(141173.068000) vcan0 00000002#1578BF R
(141173.306000) vcan0 00000001#1679C0 R
(141173.541000) vcan0 00000002#177AC1 R
(141173.785000) vcan0 00000001#187BC2 R
(141174.021000) vcan0 00000002#197CC3 R
(141174.263000) vcan0 00000001#1A7DC4 R
(141174.499000) vcan0 00000002#1B7EC5 R
(141174.743000) vcan0 00000001#1C7FC6 R
(141174.978000) vcan0 00000002#1D80C7 R
(141175.220000) vcan0 00000001#1E81C8 R
(141175.456000) vcan0 00000002#1F82C9 R
(141175.700000) vcan0 00000001#2083CA R
(141175.936000) vcan0 00000002#2184CB R
(141176.174000) vcan0 00000001#2285CC R
(141176.410000) vcan0 00000002#2386CD R
(141176.654000) vcan0 00000001#2487CE R
(141176.889000) vcan0 00000002#2588CF R
(141177.125000) vcan0 00000001#2689D0 R
(141177.366000) vcan0 00000002#278AD1 R
(141177.610000) vcan0 00000001#288BD2 R
(141177.846000) vcan0 00000002#298CD3 R
(141178.081000) vcan0 00000001#2A8DD4 R
(141178.320000) vcan0 00000002#2B8ED5 R
(141178.556000) vcan0 00000001#2C8FD6 R
(141178.800000) vcan0 00000002#2D90D7 R
(141179.036000) vcan0 00000001#2E91D8 R
(141179.274000) vcan0 00000002#2F92D9 R
(141179.510000) vcan0 00000001#3093DA R
(141179.754000) vcan0 00000002#3194DB R
(141179.989000) vcan0 00000001#3295DC R
(141180.231000) vcan0 00000002#3396DD R
(141180.467000) vcan0 00000001#3497DE R
(141180.711000) vcan0 00000002#3598DF R
(141180.947000) vcan0 00000001#3699E0 R
(141181.187000) vcan0 00000002#379AE1 R
(141181.423000) vcan0 00000001#389BE2 R
(141181.667000) vcan0 00000002#399CE3 R
(141181.902000) vcan0 00000001#3A9DE4 R
(141182.138000) vcan0 00000002#3B9EE5 R
(141182.380000) vcan0 00000001#3C9FE6 R
(141182.624000) vcan0 00000002#3DA0E7 R
(141182.860000) vcan0 00000001#3EA1E8 R
(141183.095000) vcan0 00000002#3FA2E9 R
(141183.337000) vcan0 00000001#40A3EA R
(141183.580000) vcan0 00000002#41A4EB R
(141183.816000) vcan0 00000001#42A5EC R
(141184.052000) vcan0 00000002#43A6ED R
(141184.289000) vcan0 00000001#44A7EE R
(141184.525000) vcan0 00000002#45A8EF R
(141184.769000) vcan0 00000001#46A9F0 R
(141185.005000) vcan0 00000002#47AAF1 R
(141185.247000) vcan0 00000001#4855F2 R
(141185.483000) vcan0 00000002#4956F3 R
(141185.726000) vcan0 00000001#4A57F4 R
(141185.962000) vcan0 00000002#4B58F5 R
(141186.204000) vcan0 00000001#4C59F6 R
(141186.440000) vcan0 00000002#4D5AF7 R
(141186.684000) vcan0 00000001#4E5BF8 R
(141186.919000) vcan0 00000002#4F5CF9 R
(141187.156000) vcan0 00000001#505DFA R
(141187.396000) vcan0 00000002#515EFB R
(141187.640000) vcan0 00000001#525FFC R
(141187.876000) vcan0 00000002#5360FD R
(141188.111000) vcan0 00000001#5461FE R
(141188.353000) vcan0 00000002#0062AA R
(141188.597000) vcan0 00000001#0163AB R
(141188.832000) vcan0 00000002#0264AC R
(141189.068000) vcan0 00000001#0365AD R
(141189.306000) vcan0 00000002#0466AE R
(141189.542000) vcan0 00000001#0567AF R
(141189.786000) vcan0 00000002#0668B0 R
(141190.022000) vcan0 00000001#0769B1 R
(141190.264000) vcan0 00000002#086AB2 R
(141190.500000) vcan0 00000001#096BB3 R
(141190.743000) vcan0 00000002#0A6CB4 R
(141190.979000) vcan0 00000001#0B6DB5 R
(141191.220000) vcan0 00000002#0C6EB6 R
(141191.456000) vcan0 00000001#0D6FB7 R
(141191.699000) vcan0 00000002#0E70B8 R
(141191.935000) vcan0 00000001#0F71B9 R
(141192.174000) vcan0 00000002#1072BA R
(141192.410000) vcan0 00000001#1173BB R
(141192.654000) vcan0 00000002#1274BC R
(141192.889000) vcan0 00000001#1375BD R
(141193.125000) vcan0 00000002#1476BE R
(141193.367000) vcan0 00000001#1577BF R
(141193.611000) vcan0 00000002#1678C0 R
(141193.846000) vcan0 00000001#1779C1 R
(141194.082000) vcan0 00000002#187AC2 R
(141194.320000) vcan0 00000001#197BC3 R
(141194.556000) vcan0 00000002#1A7CC4 R
(141194.800000) vcan0 00000001#1B7DC5 R
(141195.036000) vcan0 00000002#1C7EC6 R
(141195.274000) vcan0 00000001#1D7FC7 R
(141195.510000) vcan0 00000002#1E80C8 R
(141195.754000) vcan0 00000001#1F81C9 R
(141195.989000) vcan0 00000002#2082CA R
(141196.231000) vcan0 00000001#2183CB R
(141196.467000) vcan0 00000002#2284CC R
(141196.711000) vcan0 00000001#2385CD R
(141196.947000) vcan0 00000002#2486CE R
(141197.187000) vcan0 00000001#2587CF R
(141197.423000) vcan0 00000002#2688D0 R
(141197.667000) vcan0 00000001#2789D1 R
(141197.903000) vcan0 00000002#288AD2 R
(141198.138000) vcan0 00000001#298BD3 R
(141198.380000) vcan0 00000002#2A8CD4 R
(141198.624000) vcan0 00000001#2B8DD5 R
(141198.860000) vcan0 00000002#2C8ED6 R
(141199.095000) vcan0 00000001#2D8FD7 R
(141199.337000) vcan0 00000002#2E90D8 R
(141199.580000) vcan0 00000001#2F91D9 R
(141199.816000) vcan0 00000002#3092DA R
(141200.052000) vcan0 00000001#3193DB R
(141200.290000) vcan0 00000002#3294DC R
(141200.526000) vcan0 00000001#3395DD R
(141200.770000) vcan0 00000002#3496DE R
(141201.006000) vcan0 00000001#3597DF R
(141201.248000) vcan0 00000002#3698E0 R
(141201.483000) vcan0 00000001#3799E1 R
(141201.727000) vcan0 00000002#389AE2 R
(141201.963000) vcan0 00000001#399BE3 R
(141202.203000) vcan0 00000002#3A9CE4 R
(141202.439000) vcan0 00000001#3B9DE5 R
(141202.683000) vcan0 00000002#3C9EE6 R
(141202.919000) vcan0 00000001#3D9FE7 R
(141203.155000) vcan0 00000002#3EA0E8 R
(141203.396000) vcan0 00000001#3FA1E9 R
(141203.640000) vcan0 00000002#40A2EA R
(141203.876000) vcan0 00000001#41A3EB R
(141204.111000) vcan0 00000002#42A4EC R
(141204.353000) vcan0 00000001#43A5ED R
(141204.596000) vcan0 00000002#44A6EE R
(141204.832000) vcan0 00000001#45A7EF R
(141205.068000) vcan0 00000002#46A8F0 R
(141205.306000) vcan0 00000001#47A9F1 R
(141205.542000) vcan0 00000002#48AAF2 R
(141205.786000) vcan0 00000001#4955F3 R
(141206.022000) vcan0 00000002#4A56F4 R
(141206.263000) vcan0 00000001#4B57F5 R
(141206.499000) vcan0 00000002#4C58F6 R
(141206.743000) vcan0 00000001#4D59F7 R
(141206.978000) vcan0 00000002#4E5AF8 R
(141207.220000) vcan0 00000001#4F5BF9 R
(141207.456000) vcan0 00000002#505CFA R
(141207.700000) vcan0 00000001#515DFB R
(141207.936000) vcan0 00000002#525EFC R
(141208.174000) vcan0 00000001#535FFD R
(141208.410000) vcan0 00000002#5460FE R
(141208.654000) vcan0 00000001#0061AA R
(141208.889000) vcan0 00000002#0162AB R
(141209.125000) vcan0 00000001#0263AC R
(141209.366000) vcan0 00000002#0364AD R
(141209.610000) vcan0 00000001#0465AE R
(141209.846000) vcan0 00000002#0566AF R
(141210.081000) vcan0 00000001#0667B0 R
(141210.320000) vcan0 00000002#0768B1 R
(141210.556000) vcan0 00000001#0869B2 R
(141210.800000) vcan0 00000002#096AB3 R
(141211.036000) vcan0 00000001#0A6BB4 R
(141211.274000) vcan0 00000002#0B6CB5 R
(141211.510000) vcan0 00000001#0C6DB6 R
(141211.754000) vcan0 00000002#0D6EB7 R
(141211.989000) vcan0 00000001#0E6FB8 R
(141212.231000) vcan0 00000002#0F70B9 R
(141212.467000) vcan0 00000001#1071BA R
(141212.711000) vcan0 00000002#1172BB R
(141212.947000) vcan0 00000001#1273BC R
(141213.187000) vcan0 00000002#1374BD R
(141213.423000) vcan0 00000001#1475BE R
(141213.667000) vcan0 00000002#1576BF R
(141213.902000) vcan0 00000001#1677C0 R
(141214.138000) vcan0 00000002#1778C1 R
(141214.380000) vcan0 00000001#1879C2 R
(141214.624000) vcan0 00000002#197AC3 R
(141214.860000) vcan0 00000001#1A7BC4 R
(141215.095000) vcan0 00000002#1B7CC5 R
(141215.337000) vcan0 00000001#1C7DC6 R
(141215.580000) vcan0 00000002#1D7EC7 R
(141215.816000) vcan0 00000001#1E7FC8 R
(141216.052000) vcan0 00000002#1F80C9 R
(141216.289000) vcan0 00000001#2081CA R
(141216.525000) vcan0 00000002#2182CB R
(141216.769000) vcan0 00000001#2283CC R
(141217.005000) vcan0 00000002#2384CD R
(141217.247000) vcan0 00000001#2485CE R
(141217.483000) vcan0 00000002#2586CF R
(141217.726000) vcan0 00000001#2687D0 R
(141217.962000) vcan0 00000002#2788D1 R
(141218.204000) vcan0 00000001#2889D2 R
(141218.440000) vcan0 00000002#298AD3 R
(141218.684000) vcan0 00000001#2A8BD4 R
(141218.919000) vcan0 00000002#2B8CD5 R
(141219.156000) vcan0 00000001#2C8DD6 R
(141219.396000) vcan0 00000002#2D8ED7 R
(141219.640000) vcan0 00000001#2E8FD8 R
(141219.876000) vcan0 00000002#2F90D9 R
(141220.111000) vcan0 00000001#3091DA R
(141220.353000) vcan0 00000002#3192DB R
(141220.596000) vcan0 00000001#3293DC R
(141220.832000) vcan0 00000002#3394DD R
(141221.068000) vcan0 00000001#3495DE R
(141221.306000) vcan0 00000002#3596DF R
(141221.542000) vcan0 00000001#3697E0 R
(141221.786000) vcan0 00000002#3798E1 R
(141222.022000) vcan0 00000001#3899E2 R
(141222.264000) vcan0 00000002#399AE3 R
(141222.500000) vcan0 00000001#3A9BE4 R
(141222.743000) vcan0 00000002#3B9CE5 R
(141222.979000) vcan0 00000001#3C9DE6 R
(141223.220000) vcan0 00000002#3D9EE7 R
(141223.456000) vcan0 00000001#3E9FE8 R
(141223.699000) vcan0 00000002#3FA0E9 R
(141223.935000) vcan0 00000001#40A1EA R
(141224.174000) vcan0 00000002#41A2EB R
(141224.410000) vcan0 00000001#42A3EC R
(141224.654000) vcan0 00000002#43A4ED R
(141224.889000) vcan0 00000001#44A5EE R
(141225.125000) vcan0 00000002#45A6EF R
(141225.367000) vcan0 00000001#46A7F0 R
(141225.611000) vcan0 00000002#47A8F1 R
(141225.846000) vcan0 00000001#48A9F2 R
(141226.082000) vcan0 00000002#49AAF3 R
(141226.320000) vcan0 00000001#4A55F4 R
(141226.556000) vcan0 00000002#4B56F5 R
(141226.800000) vcan0 00000001#4C57F6 R
(141227.036000) vcan0 00000002#4D58F7 R
(141227.274000) vcan0 00000001#4E59F8 R
(141227.510000) vcan0 00000002#4F5AF9 R
(141227.754000) vcan0 00000001#505BFA R
(141227.989000) vcan0 00000002#515CFB R
(141228.231000) vcan0 00000001#525DFC R
(141228.467000) vcan0 00000002#535EFD R
(141228.711000) vcan0 00000001#545FFE R
(141228.947000) vcan0 00000002#0060AA R
(141229.187000) vcan0 00000001#0161AB R
(141229.423000) vcan0 00000002#0262AC R
(141229.667000) vcan0 00000001#0363AD R
(141229.903000) vcan0 00000002#0464AE R
(141230.138000) vcan0 00000001#0565AF R
(141230.380000) vcan0 00000002#0666B0 R
(141230.624000) vcan0 00000001#0767B1 R
(141230.859000) vcan0 00000002#0868B2 R
(141231.095000) vcan0 00000001#0969B3 R
(141231.337000) vcan0 00000002#0A6AB4 R
(141231.580000) vcan0 00000001#0B6BB5 R
(141231.816000) vcan0 00000002#0C6CB6 R
(141232.052000) vcan0 00000001#0D6DB7 R
(141232.290000) vcan0 00000002#0E6EB8 R
(141232.526000) vcan0 00000001#0F6FB9 R
(141232.770000) vcan0 00000002#1070BA R
(141233.006000) vcan0 00000001#1171BB R
(141233.247000) vcan0 00000002#1272BC R
(141233.483000) vcan0 00000001#1373BD R
(141233.727000) vcan0 00000002#1474BE R
(141233.963000) vcan0 00000001#1575BF R
(141234.204000) vcan0 00000002#1676C0 R
(141234.439000) vcan0 00000001#1777C1 R
(141234.683000) vcan0 00000002#1878C2 R
(141234.919000) vcan0 00000001#1979C3 R
(141235.155000) vcan0 00000002#1A7AC4 R
(141235.396000) vcan0 00000001#1B7BC5 R
(141235.640000) vcan0 00000002#1C7CC6 R
(141235.876000) vcan0 00000001#1D7DC7 R
(141236.111000) vcan0 00000002#1E7EC8 R
(141236.353000) vcan0 00000001#1F7FC9 R
(141236.596000) vcan0 00000002#2080CA R
(141236.832000) vcan0 00000001#2181CB R
(141237.068000) vcan0 00000002#2282CC R
(141237.306000) vcan0 00000001#2383CD R
(141237.541000) vcan0 00000002#2484CE R
(141237.785000) vcan0 00000001#2585CF R
(141238.021000) vcan0 00000002#2686D0 R
(141238.263000) vcan0 00000001#2787D1 R
(141238.499000) vcan0 00000002#2888D2 R
(141238.742000) vcan0 00000001#2989D3 R
(141238.978000) vcan0 00000002#2A8AD4 R
(141239.220000) vcan0 00000001#2B8BD5 R
(141239.456000) vcan0 00000002#2C8CD6 R
(141239.699000) vcan0 00000001#2D8DD7 R
(141239.935000) vcan0 00000002#2E8ED8 R
(141240.174000) vcan0 00000001#2F8FD9 R
(141240.410000) vcan0 00000002#3090DA R
(141240.654000) vcan0 00000001#3191DB R
(141240.889000) vcan0 00000002#3292DC R
(141241.125000) vcan0 00000001#3393DD R
(141241.367000) vcan0 00000002#3494DE R
(141241.611000) vcan0 00000001#3595DF R
(141241.847000) vcan0 00000002#3696E0 R
(141242.082000) vcan0 00000001#3797E1 R
(141242.320000) vcan0 00000002#3898E2 R
(141242.556000) vcan0 00000001#3999E3 R
(141242.800000) vcan0 00000002#3A9AE4 R
(141243.036000) vcan0 00000001#3B9BE5 R
(141243.274000) vcan0 00000002#3C9CE6 R
(141243.510000) vcan0 00000001#3D9DE7 R
(141243.754000) vcan0 00000002#3E9EE8 R
(141243.989000) vcan0 00000001#3F9FE9 R
(141244.231000) vcan0 00000002#40A0EA R
(141244.467000) vcan0 00000001#41A1EB R
(141244.711000) vcan0 00000002#42A2EC R
(141244.946000) vcan0 00000001#43A3ED R
(141245.187000) vcan0 00000002#44A4EE R
(141245.423000) vcan0 00000001#45A5EF R
(141245.667000) vcan0 00000002#46A6F0 R
(141245.902000) vcan0 00000001#47A7F1 R
(141246.138000) vcan0 00000002#48A8F2 R
(141246.380000) vcan0 00000001#49A9F3 R
(141246.624000) vcan0 00000002#4AAAF4 R
(141246.859000) vcan0 00000001#4B55F5 R
(141247.095000) vcan0 00000002#4C56F6 R
(141247.337000) vcan0 00000001#4D57F7 R
(141247.580000) vcan0 00000002#4E58F8 R
(141247.816000) vcan0 00000001#4F59F9 R
(141248.052000) vcan0 00000002#505AFA R
(141248.290000) vcan0 00000001#515BFB R
(141248.526000) vcan0 00000002#525CFC R
(141248.770000) vcan0 00000001#535DFD R
(141249.006000) vcan0 00000002#545EFE R
(141249.248000) vcan0 00000001#005FAA R
(141249.483000) vcan0 00000002#0160AB R
(141249.727000) vcan0 00000001#0261AC R
(141249.963000) vcan0 00000002#0362AD R
(141250.204000) vcan0 00000001#0463AE R
(141250.439000) vcan0 00000002#0564AF R
(141250.683000) vcan0 00000001#0665B0 R
(141250.919000) vcan0 00000002#0766B1 R
(141251.155000) vcan0 00000001#0867B2 R
(141251.396000) vcan0 00000002#0968B3 R
(141251.640000) vcan0 00000001#0A69B4 R
(141251.876000) vcan0 00000002#0B6AB5 R
(141252.111000) vcan0 00000001#0C6BB6 R
(141252.353000) vcan0 00000002#0D6CB7 R
(141252.597000) vcan0 00000001#0E6DB8 R
(141252.832000) vcan0 00000002#0F6EB9 R
(141253.068000) vcan0 00000001#106FBA R
(141253.306000) vcan0 00000002#1170BB R
(141253.542000) vcan0 00000001#1271BC R
(141253.786000) vcan0 00000002#1372BD R
(141254.022000) vcan0 00000001#1473BE R
(141254.264000) vcan0 00000002#1574BF R
(141254.500000) vcan0 00000001#1675C0 R
(141254.743000) vcan0 00000002#1776C1 R
(141254.979000) vcan0 00000001#1877C2 R
(141255.220000) vcan0 00000002#1978C3 R
(141255.456000) vcan0 00000001#1A79C4 R
(141255.699000) vcan0 00000002#1B7AC5 R
(141255.935000) vcan0 00000001#1C7BC6 R
(141256.174000) vcan0 00000002#1D7CC7 R
(141256.410000) vcan0 00000001#1E7DC8 R
(141256.654000) vcan0 00000002#1F7EC9 R
(141256.889000) vcan0 00000001#207FCA R
(141257.125000) vcan0 00000002#2180CB R
(141257.367000) vcan0 00000001#2281CC R
(141257.611000) vcan0 00000002#2382CD R
(141257.846000) vcan0 00000001#2483CE R
(141258.082000) vcan0 00000002#2584CF R
(141258.320000) vcan0 00000001#2685D0 R
(141258.556000) vcan0 00000002#2786D1 R
(141258.800000) vcan0 00000001#2887D2 R
(141259.036000) vcan0 00000002#2988D3 R
(141259.274000) vcan0 00000001#2A89D4 R
(141259.510000) vcan0 00000002#2B8AD5 R
(141259.754000) vcan0 00000001#2C8BD6 R
(141259.989000) vcan0 00000002#2D8CD7 R
(141260.231000) vcan0 00000001#2E8DD8 R
(141260.467000) vcan0 00000002#2F8ED9 R
(141260.711000) vcan0 00000001#308FDA R
(141260.947000) vcan0 00000002#3190DB R
(141261.187000) vcan0 00000001#3291DC R
(141261.423000) vcan0 00000002#3392DD R
(141261.667000) vcan0 00000001#3493DE R
(141261.903000) vcan0 00000002#3594DF R
(141262.138000) vcan0 00000001#3695E0 R
(141262.380000) vcan0 00000002#3796E1 R
(141262.624000) vcan0 00000001#3897E2 R
(141262.860000) vcan0 00000002#3998E3 R
(141263.095000) vcan0 00000001#3A99E4 R
(141263.337000) vcan0 00000002#3B9AE5 R
(141263.580000) vcan0 00000001#3C9BE6 R
(141263.816000) vcan0 00000002#3D9CE7 R
(141264.052000) vcan0 00000001#3E9DE8 R
(141264.290000) vcan0 00000002#3F9EE9 R
(141264.526000) vcan0 00000001#409FEA R
(141264.770000) vcan0 00000002#41A0EB R
(141265.006000) vcan0 00000001#42A1EC R
(141265.248000) vcan0 00000002#43A2ED R
(141265.483000) vcan0 00000001#44A3EE R
(141265.727000) vcan0 00000002#45A4EF R
(141265.963000) vcan0 00000001#46A5F0 R
(141266.203000) vcan0 00000002#47A6F1 R
(141266.439000) vcan0 00000001#48A7F2 R
(141266.683000) vcan0 00000002#49A8F3 R
(141266.919000) vcan0 00000001#4AA9F4 R
(141267.155000) vcan0 00000002#4BAAF5 R
(141267.396000) vcan0 00000001#4C55F6 R
(141267.640000) vcan0 00000002#4D56F7 R
(141267.876000) vcan0 00000001#4E57F8 R
(141268.111000) vcan0 00000002#4F58F9 R
(141268.353000) vcan0 00000001#5059FA R
(141268.596000) vcan0 00000002#515AFB R
(141268.832000) vcan0 00000001#525BFC R
(141269.068000) vcan0 00000002#535CFD R
(141269.306000) vcan0 00000001#545DFE R
(141269.542000) vcan0 00000002#005EAA R
(141269.786000) vcan0 00000001#015FAB R
(141270.021000) vcan0 00000002#0260AC R
(141270.263000) vcan0 00000001#0361AD R
(141270.499000) vcan0 00000002#0462AE R
(141270.742000) vcan0 00000001#0563AF R
(141270.978000) vcan0 00000002#0664B0 R
(141271.220000) vcan0 00000001#0765B1 R
(141271.456000) vcan0 00000002#0866B2 R
(141271.700000) vcan0 00000001#0967B3 R
(141271.936000) vcan0 00000002#0A68B4 R
(141272.174000) vcan0 00000001#0B69B5 R
(141272.410000) vcan0 00000002#0C6AB6 R
(141272.654000) vcan0 00000001#0D6BB7 R
(141272.889000) vcan0 00000002#0E6CB8 R
(141273.125000) vcan0 00000001#0F6DB9 R
(141273.366000) vcan0 00000002#106EBA R
(141273.610000) vcan0 00000001#116FBB R
(141273.846000) vcan0 00000002#1270BC R
(141274.081000) vcan0 00000001#1371BD R
(141274.320000) vcan0 00000002#1472BE R
(141274.556000) vcan0 00000001#1573BF R
(141274.800000) vcan0 00000002#1674C0 R
(141275.036000) vcan0 00000001#1775C1 R
(141275.274000) vcan0 00000002#1876C2 R
(141275.510000) vcan0 00000001#1977C3 R
(141275.754000) vcan0 00000002#1A78C4 R
(141275.989000) vcan0 00000001#1B79C5 R
(141276.230000) vcan0 00000002#1C7AC6 R
(141276.466000) vcan0 00000001#1D7BC7 R
(141276.710000) vcan0 00000002#1E7CC8 R
(141276.946000) vcan0 00000001#1F7DC9 R
(141277.188000) vcan0 00000002#207ECA R
(141277.423000) vcan0 00000001#217FCB R
(141277.667000) vcan0 00000002#2280CC R
(141277.903000) vcan0 00000001#2381CD R
(141278.139000) vcan0 00000002#2482CE R
(141278.380000) vcan0 00000001#2583CF R
(141278.624000) vcan0 00000002#2684D0 R
(141278.859000) vcan0 00000001#2785D1 R
(141279.095000) vcan0 00000002#2886D2 R
(141279.337000) vcan0 00000001#2987D3 R
(141279.580000) vcan0 00000002#2A88D4 R
(141279.816000) vcan0 00000001#2B89D5 R
(141280.052000) vcan0 00000002#2C8AD6 R
(141280.289000) vcan0 00000001#2D8BD7 R
(141280.525000) vcan0 00000002#2E8CD8 R
(141280.769000) vcan0 00000001#2F8DD9 R
(141281.005000) vcan0 00000002#308EDA R
(141281.247000) vcan0 00000001#318FDB R
(141281.483000) vcan0 00000002#3290DC R
(141281.726000) vcan0 00000001#3391DD R
(141281.962000) vcan0 00000002#3492DE R
(141282.204000) vcan0 00000001#3593DF R
(141282.440000) vcan0 00000002#3694E0 R
(141282.684000) vcan0 00000001#3795E1 R
(141282.919000) vcan0 00000002#3896E2 R
(141283.156000) vcan0 00000001#3997E3 R
(141283.396000) vcan0 00000002#3A98E4 R
(141283.640000) vcan0 00000001#3B99E5 R
(141283.876000) vcan0 00000002#3C9AE6 R
(141284.111000) vcan0 00000001#3D9BE7 R
(141284.353000) vcan0 00000002#3E9CE8 R
(141284.596000) vcan0 00000001#3F9DE9 R
(141284.832000) vcan0 00000002#409EEA R
(141285.068000) vcan0 00000001#419FEB R
(141285.306000) vcan0 00000002#42A0EC R
(141285.542000) vcan0 00000001#43A1ED R
(141285.786000) vcan0 00000002#44A2EE R
(141286.022000) vcan0 00000001#45A3EF R
(141286.264000) vcan0 00000002#46A4F0 R
(141286.500000) vcan0 00000001#47A5F1 R
(141286.743000) vcan0 00000002#48A6F2 R
(141286.979000) vcan0 00000001#49A7F3 R
(141287.220000) vcan0 00000002#4AA8F4 R
(141287.456000) vcan0 00000001#4BA9F5 R
(141287.699000) vcan0 00000002#4CAAF6 R
(141287.935000) vcan0 00000001#4D55F7 R
(141288.174000) vcan0 00000002#4E56F8 R
(141288.410000) vcan0 00000001#4F57F9 R
(141288.654000) vcan0 00000002#5058FA R
(141288.889000) vcan0 00000001#5159FB R
(141289.125000) vcan0 00000002#525AFC R
(141289.367000) vcan0 00000001#535BFD R
(141289.611000) vcan0 00000002#545CFE R
(141289.846000) vcan0 00000001#005DAA R
(141290.082000) vcan0 00000002#015EAB R
(141290.320000) vcan0 00000001#025FAC R
(141290.556000) vcan0 00000002#0360AD R
(141290.800000) vcan0 00000001#0461AE R
(141291.036000) vcan0 00000002#0562AF R
(141291.274000) vcan0 00000001#0663B0 R
(141291.510000) vcan0 00000002#0764B1 R
(141291.754000) vcan0 00000001#0865B2 R
(141291.989000) vcan0 00000002#0966B3 R
(141292.231000) vcan0 00000001#0A67B4 R
(141292.467000) vcan0 00000002#0B68B5 R
(141292.711000) vcan0 00000001#0C69B6 R
(141292.947000) vcan0 00000002#0D6AB7 R
(141293.187000) vcan0 00000001#0E6BB8 R
(141293.423000) vcan0 00000002#0F6CB9 R
(141293.667000) vcan0 00000001#106DBA R
(141293.902000) vcan0 00000002#116EBB R
(141294.138000) vcan0 00000001#126FBC R
(141294.380000) vcan0 00000002#1370BD R
(141294.624000) vcan0 00000001#1471BE R
(141294.859000) vcan0 00000002#1572BF R
(141295.095000) vcan0 00000001#1673C0 R
(141295.337000) vcan0 00000002#1774C1 R
(141295.580000) vcan0 00000001#1875C2 R
(141295.816000) vcan0 00000002#1976C3 R
(141296.052000) vcan0 00000001#1A77C4 R
(141296.290000) vcan0 00000002#1B78C5 R
(141296.526000) vcan0 00000001#1C79C6 R
(141296.770000) vcan0 00000002#1D7AC7 R
(141297.006000) vcan0 00000001#1E7BC8 R
(141297.247000) vcan0 00000002#1F7CC9 R
(141297.483000) vcan0 00000001#207DCA R
(141297.726000) vcan0 00000002#217ECB R
(141297.962000) vcan0 00000001#227FCC R
(141298.204000) vcan0 00000002#2380CD R
(141298.440000) vcan0 00000001#2481CE R
(141298.684000) vcan0 00000002#2582CF R
(141298.919000) vcan0 00000001#2683D0 R
(141299.156000) vcan0 00000002#2784D1 R
(141299.396000) vcan0 00000001#2885D2 R
(141299.640000) vcan0 00000002#2986D3 R
(141299.876000) vcan0 00000001#2A87D4 R
(141300.111000) vcan0 00000002#2B88D5 R
(141300.353000) vcan0 00000001#2C89D6 R
(141300.596000) vcan0 00000002#2D8AD7 R
(141300.832000) vcan0 00000001#2E8BD8 R
(141301.068000) vcan0 00000002#2F8CD9 R
(141301.306000) vcan0 00000001#308DDA R
(141301.541000) vcan0 00000002#318EDB R
(141301.785000) vcan0 00000001#328FDC R
(141302.021000) vcan0 00000002#3390DD R
(141302.263000) vcan0 00000001#3491DE R
(141302.499000) vcan0 00000002#3592DF R
(141302.743000) vcan0 00000001#3693E0 R
(141302.978000) vcan0 00000002#3794E1 R
(141303.220000) vcan0 00000001#3895E2 R
(141303.456000) vcan0 00000002#3996E3 R
(141303.700000) vcan0 00000001#3A97E4 R
(141303.936000) vcan0 00000002#3B98E5 R
(141304.174000) vcan0 00000001#3C99E6 R
(141304.410000) vcan0 00000002#3D9AE7 R
(141304.654000) vcan0 00000001#3E9BE8 R
(141304.889000) vcan0 00000002#3F9CE9 R
(141305.125000) vcan0 00000001#409DEA R
(141305.366000) vcan0 00000002#419EEB R
(141305.610000) vcan0 00000001#429FEC R
(141305.846000) vcan0 00000002#43A0ED R
(141306.081000) vcan0 00000001#44A1EE R
(141306.320000) vcan0 00000002#45A2EF R
(141306.556000) vcan0 00000001#46A3F0 R
(141306.800000) vcan0 00000002#47A4F1 R
(141307.036000) vcan0 00000001#48A5F2 R
(141307.274000) vcan0 00000002#49A6F3 R
(141307.510000) vcan0 00000001#4AA7F4 R
(141307.754000) vcan0 00000002#4BA8F5 R
(141307.989000) vcan0 00000001#4CA9F6 R
(141308.231000) vcan0 00000002#4DAAF7 R
(141308.467000) vcan0 00000001#4E55F8 R
(141308.711000) vcan0 00000002#4F56F9 R
(141308.946000) vcan0 00000001#5057FA R
(141309.187000) vcan0 00000002#5158FB R
(141309.423000) vcan0 00000001#5259FC R
(141309.667000) vcan0 00000002#535AFD R
(141309.902000) vcan0 00000001#545BFE R
(141310.138000) vcan0 00000002#005CAA R
(141310.380000) vcan0 00000001#015DAB R
(141310.624000) vcan0 00000002#025EAC R
(141310.859000) vcan0 00000001#035FAD R
(141311.095000) vcan0 00000002#0460AE R
(141311.337000) vcan0 00000001#0561AF R
(141311.580000) vcan0 00000002#0662B0 R
(141311.816000) vcan0 00000001#0763B1 R
(141312.052000) vcan0 00000002#0864B2 R
(141312.290000) vcan0 00000001#0965B3 R
(141312.526000) vcan0 00000002#0A66B4 R
(141312.770000) vcan0 00000001#0B67B5 R
(141313.006000) vcan0 00000002#0C68B6 R
(141313.247000) vcan0 00000001#0D69B7 R
(141313.483000) vcan0 00000002#0E6AB8 R
(141313.726000) vcan0 00000001#0F6BB9 R
(141313.962000) vcan0 00000002#106CBA R
(141314.204000) vcan0 00000001#116DBB R
(141314.440000) vcan0 00000002#126EBC R
(141314.684000) vcan0 00000001#136FBD R
(141314.919000) vcan0 00000002#1470BE R
(141315.156000) vcan0 00000001#1571BF R
(141315.396000) vcan0 00000002#1672C0 R
(141315.640000) vcan0 00000001#1773C1 R
(141315.876000) vcan0 00000002#1874C2 R
(141316.111000) vcan0 00000001#1975C3 R
(141316.353000) vcan0 00000002#1A76C4 R
(141316.596000) vcan0 00000001#1B77C5 R
(141316.832000) vcan0 00000002#1C78C6 R
(141317.068000) vcan0 00000001#1D79C7 R
(141317.306000) vcan0 00000002#1E7AC8 R
(141317.542000) vcan0 00000001#1F7BC9 R
(141317.786000) vcan0 00000002#207CCA R
(141318.022000) vcan0 00000001#217DCB R
(141318.264000) vcan0 00000002#227ECC R
(141318.500000) vcan0 00000001#237FCD R
(141318.743000) vcan0 00000002#2480CE R
(141318.979000) vcan0 00000001#2581CF R
(141319.220000) vcan0 00000002#2682D0 R
(141319.456000) vcan0 00000001#2783D1 R
(141319.699000) vcan0 00000002#2884D2 R
(141319.935000) vcan0 00000001#2985D3 R
(141320.174000) vcan0 00000002#2A86D4 R
(141320.410000) vcan0 00000001#2B87D5 R
(141320.654000) vcan0 00000002#2C88D6 R
(141320.889000) vcan0 00000001#2D89D7 R
(141321.125000) vcan0 00000002#2E8AD8 R
(141321.367000) vcan0 00000001#2F8BD9 R
(141321.611000) vcan0 00000002#308CDA R
(141321.846000) vcan0 00000001#318DDB R
(141322.082000) vcan0 00000002#328EDC R
(141322.320000) vcan0 00000001#338FDD R
(141322.556000) vcan0 00000002#3490DE R
(141322.800000) vcan0 00000001#3591DF R
(141323.036000) vcan0 00000002#3692E0 R
(141323.274000) vcan0 00000001#3793E1 R
(141323.510000) vcan0 00000002#3894E2 R
(141323.754000) vcan0 00000001#3995E3 R
(141323.989000) vcan0 00000002#3A96E4 R
(141324.231000) vcan0 00000001#3B97E5 R
(141324.467000) vcan0 00000002#3C98E6 R
(141324.711000) vcan0 00000001#3D99E7 R
(141324.947000) vcan0 00000002#3E9AE8 R
(141325.187000) vcan0 00000001#3F9BE9 R
(141325.423000) vcan0 00000002#409CEA R
(141325.667000) vcan0 00000001#419DEB R
(141325.903000) vcan0 00000002#429EEC R
(141326.138000) vcan0 00000001#439FED R
(141326.380000) vcan0 00000002#44A0EE R
(141326.624000) vcan0 00000001#45A1EF R
(141326.860000) vcan0 00000002#46A2F0 R
(141327.095000) vcan0 00000001#47A3F1 R
(141327.337000) vcan0 00000002#48A4F2 R
(141327.580000) vcan0 00000001#49A5F3 R
(141327.816000) vcan0 00000002#4AA6F4 R
(141328.052000) vcan0 00000001#4BA7F5 R
(141328.290000) vcan0 00000002#4CA8F6 R
(141328.526000) vcan0 00000001#4DA9F7 R
(141328.770000) vcan0 00000002#4EAAF8 R
(141329.006000) vcan0 00000001#4F55F9 R
(141329.248000) vcan0 00000002#5056FA R
(141329.483000) vcan0 00000001#5157FB R
(141329.727000) vcan0 00000002#5258FC R
(141329.963000) vcan0 00000001#5359FD R
(141330.203000) vcan0 00000002#545AFE R
(141330.439000) vcan0 00000001#005BAA R
(141330.683000) vcan0 00000002#015CAB R
(141330.919000) vcan0 00000001#025DAC R
(141331.155000) vcan0 00000002#035EAD R
(141331.396000) vcan0 00000001#045FAE R
(141331.640000) vcan0 00000002#0560AF R
(141331.876000) vcan0 00000001#0661B0 R
(141332.111000) vcan0 00000002#0762B1 R
(141332.353000) vcan0 00000001#0863B2 R
(141332.596000) vcan0 00000002#0964B3 R
(141332.832000) vcan0 00000001#0A65B4 R
(141333.068000) vcan0 00000002#0B66B5 R
(141333.306000) vcan0 00000001#0C67B6 R
(141333.541000) vcan0 00000002#0D68B7 R
(141333.785000) vcan0 00000001#0E69B8 R
(141334.021000) vcan0 00000002#0F6AB9 R
(141334.263000) vcan0 00000001#106BBA R
(141334.499000) vcan0 00000002#116CBB R
(141334.743000) vcan0 00000001#126DBC R
(141334.978000) vcan0 00000002#136EBD R
(141335.220000) vcan0 00000001#146FBE R
(141335.456000) vcan0 00000002#1570BF R
(141335.700000) vcan0 00000001#1671C0 R
(141335.936000) vcan0 00000002#1772C1 R
(141336.174000) vcan0 00000001#1873C2 R
(141336.410000) vcan0 00000002#1974C3 R
(141336.654000) vcan0 00000001#1A75C4 R
(141336.889000) vcan0 00000002#1B76C5 R
(141337.125000) vcan0 00000001#1C77C6 R
(141337.366000) vcan0 00000002#1D78C7 R
(141337.610000) vcan0 00000001#1E79C8 R
(141337.846000) vcan0 00000002#1F7AC9 R
(141338.081000) vcan0 00000001#207BCA R
(141338.320000) vcan0 00000002#217CCB R
(141338.556000) vcan0 00000001#227DCC R
(141338.800000) vcan0 00000002#237ECD R
(141339.036000) vcan0 00000001#247FCE R
(141339.274000) vcan0 00000002#2580CF R
(141339.510000) vcan0 00000001#2681D0 R
(141339.754000) vcan0 00000002#2782D1 R
(141339.989000) vcan0 00000001#2883D2 R
(141340.231000) vcan0 00000002#2984D3 R
(141340.467000) vcan0 00000001#2A85D4 R
(141340.711000) vcan0 00000002#2B86D5 R
(141340.947000) vcan0 00000001#2C87D6 R
(141341.187000) vcan0 00000002#2D88D7 R
(141341.423000) vcan0 00000001#2E89D8 R
(141341.667000) vcan0 00000002#2F8AD9 R
(141341.902000) vcan0 00000001#308BDA R
(141342.138000) vcan0 00000002#318CDB R
(141342.380000) vcan0 00000001#328DDC R
(141342.624000) vcan0 00000002#338EDD R
(141342.860000) vcan0 00000001#348FDE R
(141343.095000) vcan0 00000002#3590DF R
(141343.337000) vcan0 00000001#3691E0 R
(141343.580000) vcan0 00000002#3792E1 R
(141343.816000) vcan0 00000001#3893E2 R
(141344.052000) vcan0 00000002#3994E3 R
(141344.289000) vcan0 00000001#3A95E4 R
(141344.525000) vcan0 00000002#3B96E5 R
(141344.769000) vcan0 00000001#3C97E6 R
(141345.005000) vcan0 00000002#3D98E7 R
(141345.247000) vcan0 00000001#3E99E8 R
(141345.483000) vcan0 00000002#3F9AE9 R
(141345.726000) vcan0 00000001#409BEA R
(141345.962000) vcan0 00000002#419CEB R
(141346.204000) vcan0 00000001#429DEC R
(141346.440000) vcan0 00000002#439EED R
(141346.684000) vcan0 00000001#449FEE R
(141346.919000) vcan0 00000002#45A0EF R
(141347.156000) vcan0 00000001#46A1F0 R
(141347.396000) vcan0 00000002#47A2F1 R
(141347.640000) vcan0 00000001#48A3F2 R
(141347.876000) vcan0 00000002#49A4F3 R
(141348.111000) vcan0 00000001#4AA5F4 R
(141348.353000) vcan0 00000002#4BA6F5 R
(141348.596000) vcan0 00000001#4CA7F6 R
(141348.832000) vcan0 00000002#4DA8F7 R
(141349.068000) vcan0 00000001#4EA9F8 R
(141349.306000) vcan0 00000002#4FAAF9 R
(141349.542000) vcan0 00000001#5055FA R
(141349.786000) vcan0 00000002#5156FB R
(141350.022000) vcan0 00000001#5257FC R
(141350.264000) vcan0 00000002#5358FD R
(141350.500000) vcan0 00000001#5459FE R
(141350.743000) vcan0 00000002#005AAA R
(141350.979000) vcan0 00000001#015BAB R
(141351.220000) vcan0 00000002#025CAC R
(141351.456000) vcan0 00000001#035DAD R
(141351.699000) vcan0 00000002#045EAE R
(141351.935000) vcan0 00000001#055FAF R
(141352.174000) vcan0 00000002#0660B0 R
(141352.410000) vcan0 00000001#0761B1 R
(141352.654000) vcan0 00000002#0862B2 R
(141352.889000) vcan0 00000001#0963B3 R
(141353.125000) vcan0 00000002#0A64B4 R
(141353.367000) vcan0 00000001#0B65B5 R
(141353.611000) vcan0 00000002#0C66B6 R
(141353.846000) vcan0 00000001#0D67B7 R
(141354.082000) vcan0 00000002#0E68B8 R
(141354.320000) vcan0 00000001#0F69B9 R
(141354.556000) vcan0 00000002#106ABA R
(141354.800000) vcan0 00000001#116BBB R
(141355.036000) vcan0 00000002#126CBC R
(141355.274000) vcan0 00000001#136DBD R
(141355.510000) vcan0 00000002#146EBE R
(141355.754000) vcan0 00000001#156FBF R
(141355.989000) vcan0 00000002#1670C0 R
(141356.231000) vcan0 00000001#1771C1 R
(141356.467000) vcan0 00000002#1872C2 R
(141356.711000) vcan0 00000001#1973C3 R
(141356.947000) vcan0 00000002#1A74C4 R
(141357.187000) vcan0 00000001#1B75C5 R
(141357.423000) vcan0 00000002#1C76C6 R
(141357.667000) vcan0 00000001#1D77C7 R
(141357.903000) vcan0 00000002#1E78C8 R
(141358.138000) vcan0 00000001#1F79C9 R
(141358.380000) vcan0 00000002#207ACA R
(141358.624000) vcan0 00000001#217BCB R
(141358.860000) vcan0 00000002#227CCC R
(141359.095000) vcan0 00000001#237DCD R
(141359.337000) vcan0 00000002#247ECE R
(141359.580000) vcan0 00000001#257FCF R
(141359.816000) vcan0 00000002#2680D0 R
(141360.052000) vcan0 00000001#2781D1 R
(141360.290000) vcan0 00000002#2882D2 R
(141360.526000) vcan0 00000001#2983D3 R
(141360.770000) vcan0 00000002#2A84D4 R
(141361.006000) vcan0 00000001#2B85D5 R
(141361.248000) vcan0 00000002#2C86D6 R
(141361.483000) vcan0 00000001#2D87D7 R
(141361.727000) vcan0 00000002#2E88D8 R
(141361.963000) vcan0 00000001#2F89D9 R
(141362.203000) vcan0 00000002#308ADA R
(141362.439000) vcan0 00000001#318BDB R
(141362.683000) vcan0 00000002#328CDC R
(141362.919000) vcan0 00000001#338DDD R
(141363.155000) vcan0 00000002#348EDE R
(141363.396000) vcan0 00000001#358FDF R
(141363.640000) vcan0 00000002#3690E0 R
(141363.876000) vcan0 00000001#3791E1 R
(141364.111000) vcan0 00000002#3892E2 R
(141364.353000) vcan0 00000001#3993E3 R
(141364.596000) vcan0 00000002#3A94E4 R
(141364.832000) vcan0 00000001#3B95E5 R
(141365.068000) vcan0 00000002#3C96E6 R
(141365.306000) vcan0 00000001#3D97E7 R
(141365.542000) vcan0 00000002#3E98E8 R
(141365.786000) vcan0 00000001#3F99E9 R
(141366.022000) vcan0 00000002#409AEA R
(141366.263000) vcan0 00000001#419BEB R
(141366.499000) vcan0 00000002#429CEC R
(141366.743000) vcan0 00000001#439DED R
(141366.978000) vcan0 00000002#449EEE R
(141367.220000) vcan0 00000001#459FEF R
(141367.456000) vcan0 00000002#46A0F0 R
(141367.700000) vcan0 00000001#47A1F1 R
(141367.936000) vcan0 00000002#48A2F2 R
(141368.174000) vcan0 00000001#49A3F3 R
(141368.410000) vcan0 00000002#4AA4F4 R
(141368.654000) vcan0 00000001#4BA5F5 R
(141368.889000) vcan0 00000002#4CA6F6 R
(141369.125000) vcan0 00000001#4DA7F7 R
(141369.366000) vcan0 00000002#4EA8F8 R
(141369.610000) vcan0 00000001#4FA9F9 R
(141369.846000) vcan0 00000002#50AAFA R
(141370.081000) vcan0 00000001#5155FB R
(141370.320000) vcan0 00000002#5256FC R
(141370.556000) vcan0 00000001#5357FD R
(141370.800000) vcan0 00000002#5458FE R
(141371.036000) vcan0 00000001#0059AA R
(141371.274000) vcan0 00000002#015AAB R
(141371.510000) vcan0 00000001#025BAC R
(141371.754000) vcan0 00000002#035CAD R
(141371.989000) vcan0 00000001#045DAE R
(141372.231000) vcan0 00000002#055EAF R
(141372.467000) vcan0 00000001#065FB0 R
(141372.711000) vcan0 00000002#0760B1 R
(141372.947000) vcan0 00000001#0861B2 R
(141373.187000) vcan0 00000002#0962B3 R
(141373.423000) vcan0 00000001#0A63B4 R
(141373.667000) vcan0 00000002#0B64B5 R
(141373.902000) vcan0 00000001#0C65B6 R
(141374.138000) vcan0 00000002#0D66B7 R
(141374.380000) vcan0 00000001#0E67B8 R
(141374.624000) vcan0 00000002#0F68B9 R
(141374.860000) vcan0 00000001#1069BA R
(141375.095000) vcan0 00000002#116ABB R
(141375.337000) vcan0 00000001#126BBC R
(141375.580000) vcan0 00000002#136CBD R
(141375.816000) vcan0 00000001#146DBE R
(141376.052000) vcan0 00000002#156EBF R
(141376.289000) vcan0 00000001#166FC0 R
(141376.525000) vcan0 00000002#1770C1 R
(141376.769000) vcan0 00000001#1871C2 R
(141377.005000) vcan0 00000002#1972C3 R
(141377.247000) vcan0 00000001#1A73C4 R
(141377.483000) vcan0 00000002#1B74C5 R
(141377.726000) vcan0 00000001#1C75C6 R
(141377.962000) vcan0 00000002#1D76C7 R
(141378.204000) vcan0 00000001#1E77C8 R
(141378.440000) vcan0 00000002#1F78C9 R
(141378.684000) vcan0 00000001#2079CA R
(141378.919000) vcan0 00000002#217ACB R
(141379.156000) vcan0 00000001#227BCC R
(141379.396000) vcan0 00000002#237CCD R
(141379.640000) vcan0 00000001#247DCE R
(141379.876000) vcan0 00000002#257ECF R
(141380.111000) vcan0 00000001#267FD0 R
(141380.353000) vcan0 00000002#2780D1 R
(141380.596000) vcan0 00000001#2881D2 R
(141380.832000) vcan0 00000002#2982D3 R
(141381.068000) vcan0 00000001#2A83D4 R
(141381.306000) vcan0 00000002#2B84D5 R
(141381.542000) vcan0 00000001#2C85D6 R
(141381.786000) vcan0 00000002#2D86D7 R
(141382.022000) vcan0 00000001#2E87D8 R
(141382.264000) vcan0 00000002#2F88D9 R
(141382.500000) vcan0 00000001#3089DA R
(141382.743000) vcan0 00000002#318ADB R
(141382.979000) vcan0 00000001#328BDC R
(141383.220000) vcan0 00000002#338CDD R
(141383.456000) vcan0 00000001#348DDE R
(141383.699000) vcan0 00000002#358EDF R
(141383.935000) vcan0 00000001#368FE0 R
(141384.174000) vcan0 00000002#3790E1 R
(141384.410000) vcan0 00000001#3891E2 R
(141384.654000) vcan0 00000002#3992E3 R
(141384.889000) vcan0 00000001#3A93E4 R
(141385.125000) vcan0 00000002#3B94E5 R
(141385.367000) vcan0 00000001#3C95E6 R
(141385.611000) vcan0 00000002#3D96E7 R
(141385.846000) vcan0 00000001#3E97E8 R
(141386.082000) vcan0 00000002#3F98E9 R
(141386.320000) vcan0 00000001#4099EA R
(141386.556000) vcan0 00000002#419AEB R
(141386.800000) vcan0 00000001#429BEC R
(141387.036000) vcan0 00000002#439CED R
(141387.274000) vcan0 00000001#449DEE R
(141387.510000) vcan0 00000002#459EEF R
(141387.754000) vcan0 00000001#469FF0 R
(141387.989000) vcan0 00000002#47A0F1 R
(141388.231000) vcan0 00000001#48A1F2 R
(141388.467000) vcan0 00000002#49A2F3 R
(141388.711000) vcan0 00000001#4AA3F4 R
(141388.947000) vcan0 00000002#4BA4F5 R
(141389.187000) vcan0 00000001#4CA5F6 R
(141389.423000) vcan0 00000002#4DA6F7 R
(141389.667000) vcan0 00000001#4EA7F8 R
(141389.903000) vcan0 00000002#4FA8F9 R
(141390.138000) vcan0 00000001#50A9FA R
(141390.380000) vcan0 00000002#51AAFB R
(141390.624000) vcan0 00000001#5255FC R
(141390.859000) vcan0 00000002#5356FD R
(141391.095000) vcan0 00000001#5457FE R
(141391.337000) vcan0 00000002#0058AA R
(141391.580000) vcan0 00000001#0159AB R
(141391.816000) vcan0 00000002#025AAC R
(141392.052000) vcan0 00000001#035BAD R
(141392.290000) vcan0 00000002#045CAE R
(141392.526000) vcan0 00000001#055DAF R
(141392.770000) vcan0 00000002#065EB0 R
(141393.006000) vcan0 00000001#075FB1 R
(141393.248000) vcan0 00000002#0860B2 R
(141393.483000) vcan0 00000001#0961B3 R
(141393.727000) vcan0 00000002#0A62B4 R
(141393.963000) vcan0 00000001#0B63B5 R
(141394.204000) vcan0 00000002#0C64B6 R
(141394.439000) vcan0 00000001#0D65B7 R
(141394.683000) vcan0 00000002#0E66B8 R
(141394.919000) vcan0 00000001#0F67B9 R
(141395.155000) vcan0 00000002#1068BA R
(141395.396000) vcan0 00000001#1169BB R
(141395.640000) vcan0 00000002#126ABC R
(141395.876000) vcan0 00000001#136BBD R
(141396.111000) vcan0 00000002#146CBE R
(141396.353000) vcan0 00000001#156DBF R
(141396.596000) vcan0 00000002#166EC0 R
(141396.832000) vcan0 00000001#176FC1 R
(141397.068000) vcan0 00000002#1870C2 R
(141397.306000) vcan0 00000001#1971C3 R
(141397.542000) vcan0 00000002#1A72C4 R
(141397.786000) vcan0 00000001#1B73C5 R
(141398.021000) vcan0 00000002#1C74C6 R
(141398.263000) vcan0 00000001#1D75C7 R
(141398.499000) vcan0 00000002#1E76C8 R
(141398.742000) vcan0 00000001#1F77C9 R
(141398.978000) vcan0 00000002#2078CA R
(141399.220000) vcan0 00000001#2179CB R
(141399.456000) vcan0 00000002#227ACC R
(141399.700000) vcan0 00000001#237BCD R
(141399.936000) vcan0 00000002#247CCE R
(141400.174000) vcan0 00000001#257DCF R
(141400.410000) vcan0 00000002#267ED0 R
(141400.654000) vcan0 00000001#277FD1 R
(141400.889000) vcan0 00000002#2880D2 R
(141401.125000) vcan0 00000001#2981D3 R
(141401.366000) vcan0 00000002#2A82D4 R
(141401.610000) vcan0 00000001#2B83D5 R
(141401.846000) vcan0 00000002#2C84D6 R
(141402.081000) vcan0 00000001#2D85D7 R
(141402.320000) vcan0 00000002#2E86D8 R
(141402.556000) vcan0 00000001#2F87D9 R
(141402.800000) vcan0 00000002#3088DA R
(141403.036000) vcan0 00000001#3189DB R
(141403.274000) vcan0 00000002#328ADC R
(141403.510000) vcan0 00000001#338BDD R
(141403.754000) vcan0 00000002#348CDE R
(141403.989000) vcan0 00000001#358DDF R
(141404.230000) vcan0 00000002#368EE0 R
(141404.466000) vcan0 00000001#378FE1 R
(141404.710000) vcan0 00000002#3890E2 R
(141404.946000) vcan0 00000001#3991E3 R
(141405.188000) vcan0 00000002#3A92E4 R
(141405.423000) vcan0 00000001#3B93E5 R
(141405.667000) vcan0 00000002#3C94E6 R
(141405.903000) vcan0 00000001#3D95E7 R
(141406.139000) vcan0 00000002#3E96E8 R
(141406.380000) vcan0 00000001#3F97E9 R
(141406.624000) vcan0 00000002#4098EA R
(141406.859000) vcan0 00000001#4199EB R
(141407.095000) vcan0 00000002#429AEC R
(141407.337000) vcan0 00000001#439BED R
(141407.580000) vcan0 00000002#449CEE R
(141407.816000) vcan0 00000001#459DEF R
(141408.052000) vcan0 00000002#469EF0 R
(141408.289000) vcan0 00000001#479FF1 R
(141408.525000) vcan0 00000002#48A0F2 R
(141408.769000) vcan0 00000001#49A1F3 R
(141409.005000) vcan0 00000002#4AA2F4 R
(141409.247000) vcan0 00000001#4BA3F5 R
(141409.483000) vcan0 00000002#4CA4F6 R
(141409.726000) vcan0 00000001#4DA5F7 R
(141409.962000) vcan0 00000002#4EA6F8 R
(141410.204000) vcan0 00000001#4FA7F9 R
(141410.440000) vcan0 00000002#50A8FA R
(141410.684000) vcan0 00000001#51A9FB R
(141410.919000) vcan0 00000002#52AAFC R
(141411.156000) vcan0 00000001#5355FD R
(141411.396000) vcan0 00000002#5456FE R
(141411.640000) vcan0 00000001#0057AA R
(141411.876000) vcan0 00000002#0158AB R
(141412.111000) vcan0 00000001#0259AC R
(141412.353000) vcan0 00000002#035AAD R
(141412.597000) vcan0 00000001#045BAE R
(141412.832000) vcan0 00000002#055CAF R
(141413.068000) vcan0 00000001#065DB0 R
(141413.306000) vcan0 00000002#075EB1 R
(141413.542000) vcan0 00000001#085FB2 R
(141413.786000) vcan0 00000002#0960B3 R
(141414.022000) vcan0 00000001#0A61B4 R
(141414.264000) vcan0 00000002#0B62B5 R
(141414.500000) vcan0 00000001#0C63B6 R
(141414.743000) vcan0 00000002#0D64B7 R
(141414.979000) vcan0 00000001#0E65B8 R
(141415.220000) vcan0 00000002#0F66B9 R
(141415.456000) vcan0 00000001#1067BA R
(141415.699000) vcan0 00000002#1168BB R
(141415.935000) vcan0 00000001#1269BC R
(141416.174000) vcan0 00000002#136ABD R
(141416.410000) vcan0 00000001#146BBE R
(141416.654000) vcan0 00000002#156CBF R
(141416.889000) vcan0 00000001#166DC0 R
(141417.125000) vcan0 00000002#176EC1 R
(141417.367000) vcan0 00000001#186FC2 R
(141417.611000) vcan0 00000002#1970C3 R
(141417.846000) vcan0 00000001#1A71C4 R
(141418.082000) vcan0 00000002#1B72C5 R
(141418.320000) vcan0 00000001#1C73C6 R
(141418.556000) vcan0 00000002#1D74C7 R
(141418.800000) vcan0 00000001#1E75C8 R
(141419.036000) vcan0 00000002#1F76C9 R
(141419.274000) vcan0 00000001#2077CA R
(141419.510000) vcan0 00000002#2178CB R
(141419.754000) vcan0 00000001#2279CC R
(141419.989000) vcan0 00000002#237ACD R
(141420.231000) vcan0 00000001#247BCE R
(141420.467000) vcan0 00000002#257CCF R
(141420.711000) vcan0 00000001#267DD0 R
(141420.947000) vcan0 00000002#277ED1 R
(141421.187000) vcan0 00000001#287FD2 R
(141421.423000) vcan0 00000002#2980D3 R
(141421.667000) vcan0 00000001#2A81D4 R
(141421.903000) vcan0 00000002#2B82D5 R
(141422.138000) vcan0 00000001#2C83D6 R
(141422.380000) vcan0 00000002#2D84D7 R
(141422.624000) vcan0 00000001#2E85D8 R
(141422.860000) vcan0 00000002#2F86D9 R
(141423.095000) vcan0 00000001#3087DA R
(141423.337000) vcan0 00000002#3188DB R
(141423.580000) vcan0 00000001#3289DC R
(141423.816000) vcan0 00000002#338ADD R
(141424.052000) vcan0 00000001#348BDE R
(141424.290000) vcan0 00000002#358CDF R
(141424.526000) vcan0 00000001#368DE0 R
(141424.770000) vcan0 00000002#378EE1 R
(141425.006000) vcan0 00000001#388FE2 R
(141425.248000) vcan0 00000002#3990E3 R
(141425.483000) vcan0 00000001#3A91E4 R
(141425.727000) vcan0 00000002#3B92E5 R
(141425.963000) vcan0 00000001#3C93E6 R
(141426.203000) vcan0 00000002#3D94E7 R
(141426.439000) vcan0 00000001#3E95E8 R
(141426.683000) vcan0 00000002#3F96E9 R
(141426.919000) vcan0 00000001#4097EA R
(141427.155000) vcan0 00000002#4198EB R
(141427.396000) vcan0 00000001#4299EC R
(141427.640000) vcan0 00000002#439AED R
(141427.876000) vcan0 00000001#449BEE R
(141428.111000) vcan0 00000002#459CEF R
(141428.353000) vcan0 00000001#469DF0 R
(141428.596000) vcan0 00000002#479EF1 R
(141428.832000) vcan0 00000001#489FF2 R
(141429.068000) vcan0 00000002#49A0F3 R
(141429.306000) vcan0 00000001#4AA1F4 R
(141429.542000) vcan0 00000002#4BA2F5 R
(141429.786000) vcan0 00000001#4CA3F6 R
(141430.022000) vcan0 00000002#4DA4F7 R
(141430.263000) vcan0 00000001#4EA5F8 R
(141430.499000) vcan0 00000002#4FA6F9 R
(141430.743000) vcan0 00000001#50A7FA R
(141430.978000) vcan0 00000002#51A8FB R
(141431.220000) vcan0 00000001#52A9FC R
(141431.456000) vcan0 00000002#53AAFD R
(141431.700000) vcan0 00000001#5455FE R
(141431.936000) vcan0 00000002#0056AA R
(141432.174000) vcan0 00000001#0157AB R
(141432.410000) vcan0 00000002#0258AC R
(141432.654000) vcan0 00000001#0359AD R
(141432.889000) vcan0 00000002#045AAE R
(141433.125000) vcan0 00000001#055BAF R
(141433.367000) vcan0 00000002#065CB0 R
(141433.611000) vcan0 00000001#075DB1 R
(141433.847000) vcan0 00000002#085EB2 R
(141434.082000) vcan0 00000001#095FB3 R
(141434.320000) vcan0 00000002#0A60B4 R
(141434.556000) vcan0 00000001#0B61B5 R
(141434.800000) vcan0 00000002#0C62B6 R
(141435.036000) vcan0 00000001#0D63B7 R
(141435.274000) vcan0 00000002#0E64B8 R
(141435.510000) vcan0 00000001#0F65B9 R
(141435.754000) vcan0 00000002#1066BA R
(141435.989000) vcan0 00000001#1167BB R
(141436.231000) vcan0 00000002#1268BC R
(141436.467000) vcan0 00000001#1369BD R
(141436.711000) vcan0 00000002#146ABE R
(141436.947000) vcan0 00000001#156BBF R
(141437.187000) vcan0 00000002#166CC0 R
(141437.423000) vcan0 00000001#176DC1 R
(141437.667000) vcan0 00000002#186EC2 R
(141437.902000) vcan0 00000001#196FC3 R
(141438.138000) vcan0 00000002#1A70C4 R
(141438.380000) vcan0 00000001#1B71C5 R
(141438.624000) vcan0 00000002#1C72C6 R
(141438.860000) vcan0 00000001#1D73C7 R
(141439.095000) vcan0 00000002#1E74C8 R
(141439.337000) vcan0 00000001#1F75C9 R
(141439.580000) vcan0 00000002#2076CA R
(141439.816000) vcan0 00000001#2177CB R
(141440.052000) vcan0 00000002#2278CC R
(141440.289000) vcan0 00000001#2379CD R
(141440.525000) vcan0 00000002#247ACE R
(141440.769000) vcan0 00000001#257BCF R
(141441.005000) vcan0 00000002#267CD0 R
(141441.247000) vcan0 00000001#277DD1 R
(141441.483000) vcan0 00000002#287ED2 R
(141441.726000) vcan0 00000001#297FD3 R
(141441.962000) vcan0 00000002#2A80D4 R
(141442.204000) vcan0 00000001#2B81D5 R
(141442.440000) vcan0 00000002#2C82D6 R
(141442.684000) vcan0 00000001#2D83D7 R
(141442.919000) vcan0 00000002#2E84D8 R
(141443.156000) vcan0 00000001#2F85D9 R
(141443.396000) vcan0 00000002#3086DA R
(141443.640000) vcan0 00000001#3187DB R
(141443.876000) vcan0 00000002#3288DC R
(141444.111000) vcan0 00000001#3389DD R
(141444.353000) vcan0 00000002#348ADE R
(141444.596000) vcan0 00000001#358BDF R
(141444.832000) vcan0 00000002#368CE0 R
(141445.068000) vcan0 00000001#378DE1 R
(141445.306000) vcan0 00000002#388EE2 R
(141445.542000) vcan0 00000001#398FE3 R
(141445.786000) vcan0 00000002#3A90E4 R
(141446.022000) vcan0 00000001#3B91E5 R
(141446.264000) vcan0 00000002#3C92E6 R
(141446.500000) vcan0 00000001#3D93E7 R
(141446.743000) vcan0 00000002#3E94E8 R
(141446.979000) vcan0 00000001#3F95E9 R
(141447.220000) vcan0 00000002#4096EA R
(141447.456000) vcan0 00000001#4197EB R
(141447.699000) vcan0 00000002#4298EC R
(141447.935000) vcan0 00000001#4399ED R
(141448.174000) vcan0 00000002#449AEE R
(141448.410000) vcan0 00000001#459BEF R
(141448.654000) vcan0 00000002#469CF0 R
(141448.889000) vcan0 00000001#479DF1 R
(141449.125000) vcan0 00000002#489EF2 R
(141449.367000) vcan0 00000001#499FF3 R
(141449.611000) vcan0 00000002#4AA0F4 R
(141449.846000) vcan0 00000001#4BA1F5 R
(141450.082000) vcan0 00000002#4CA2F6 R
(141450.320000) vcan0 00000001#4DA3F7 R
(141450.556000) vcan0 00000002#4EA4F8 R
(141450.800000) vcan0 00000001#4FA5F9 R
(141451.036000) vcan0 00000002#50A6FA R
(141451.274000) vcan0 00000001#51A7FB R
(141451.510000) vcan0 00000002#52A8FC R
(141451.754000) vcan0 00000001#53A9FD R
(141451.989000) vcan0 00000002#54AAFE R
(141452.231000) vcan0 00000001#0055AA R
(141452.467000) vcan0 00000002#0156AB R
(141452.711000) vcan0 00000001#0257AC R
(141452.947000) vcan0 00000002#0358AD R
(141453.187000) vcan0 00000001#0459AE R
(141453.423000) vcan0 00000002#055AAF R
(141453.667000) vcan0 00000001#065BB0 R
(141453.902000) vcan0 00000002#075CB1 R
(141454.138000) vcan0 00000001#085DB2 R
(141454.380000) vcan0 00000002#095EB3 R
(141454.624000) vcan0 00000001#0A5FB4 R
(141454.859000) vcan0 00000002#0B60B5 R
(141455.095000) vcan0 00000001#0C61B6 R
(141455.337000) vcan0 00000002#0D62B7 R
(141455.580000) vcan0 00000001#0E63B8 R
(141455.816000) vcan0 00000002#0F64B9 R
(141456.052000) vcan0 00000001#1065BA R
(141456.290000) vcan0 00000002#1166BB R
(141456.526000) vcan0 00000001#1267BC R
(141456.770000) vcan0 00000002#1368BD R
(141457.006000) vcan0 00000001#1469BE R
(141457.247000) vcan0 00000002#156ABF R
(141457.483000) vcan0 00000001#166BC0 R
(141457.726000) vcan0 00000002#176CC1 R
(141457.962000) vcan0 00000001#186DC2 R
(141458.204000) vcan0 00000002#196EC3 R
(141458.440000) vcan0 00000001#1A6FC4 R
(141458.684000) vcan0 00000002#1B70C5 R
(141458.919000) vcan0 00000001#1C71C6 R
(141459.156000) vcan0 00000002#1D72C7 R
(141459.396000) vcan0 00000001#1E73C8 R
(141459.640000) vcan0 00000002#1F74C9 R
(141459.876000) vcan0 00000001#2075CA R
(141460.111000) vcan0 00000002#2176CB R
(141460.353000) vcan0 00000001#2277CC R
(141460.596000) vcan0 00000002#2378CD R
(141460.832000) vcan0 00000001#2479CE R
(141461.068000) vcan0 00000002#257ACF R
(141461.306000) vcan0 00000001#267BD0 R
(141461.541000) vcan0 00000002#277CD1 R
(141461.785000) vcan0 00000001#287DD2 R
(141462.021000) vcan0 00000002#297ED3 R
(141462.263000) vcan0 00000001#2A7FD4 R
(141462.499000) vcan0 00000002#2B80D5 R
(141462.743000) vcan0 00000001#2C81D6 R
(141462.978000) vcan0 00000002#2D82D7 R
(141463.220000) vcan0 00000001#2E83D8 R
(141463.456000) vcan0 00000002#2F84D9 R
(141463.700000) vcan0 00000001#3085DA R
(141463.936000) vcan0 00000002#3186DB R
(141464.174000) vcan0 00000001#3287DC R
(141464.410000) vcan0 00000002#3388DD R
(141464.654000) vcan0 00000001#3489DE R
(141464.889000) vcan0 00000002#358ADF R
(141465.125000) vcan0 00000001#368BE0 R
(141465.366000) vcan0 00000002#378CE1 R
(141465.610000) vcan0 00000001#388DE2 R
(141465.846000) vcan0 00000002#398EE3 R
(141466.081000) vcan0 00000001#3A8FE4 R
(141466.320000) vcan0 00000002#3B90E5 R
(141466.556000) vcan0 00000001#3C91E6 R
(141466.800000) vcan0 00000002#3D92E7 R
(141467.036000) vcan0 00000001#3E93E8 R
(141467.274000) vcan0 00000002#3F94E9 R
(141467.510000) vcan0 00000001#4095EA R
(141467.754000) vcan0 00000002#4196EB R
(141467.989000) vcan0 00000001#4297EC R
(141468.231000) vcan0 00000002#4398ED R
(141468.467000) vcan0 00000001#4499EE R
(141468.711000) vcan0 00000002#459AEF R
(141468.947000) vcan0 00000001#469BF0 R
(141469.187000) vcan0 00000002#479CF1 R
(141469.423000) vcan0 00000001#489DF2 R
(141469.667000) vcan0 00000002#499EF3 R
(141469.902000) vcan0 00000001#4A9FF4 R
(141470.138000) vcan0 00000002#4BA0F5 R
(141470.380000) vcan0 00000001#4CA1F6 R
(141470.624000) vcan0 00000002#4DA2F7 R
(141470.860000) vcan0 00000001#4EA3F8 R
(141471.095000) vcan0 00000002#4FA4F9 R
(141471.337000) vcan0 00000001#50A5FA R
(141471.580000) vcan0 00000002#51A6FB R
(141471.816000) vcan0 00000001#52A7FC R
(141472.052000) vcan0 00000002#53A8FD R
(141472.289000) vcan0 00000001#54A9FE R
(141472.525000) vcan0 00000002#00AAAA R
(141472.769000) vcan0 00000001#0155AB R
(141473.005000) vcan0 00000002#0256AC R
(141473.247000) vcan0 00000001#0357AD R
(141473.483000) vcan0 00000002#0458AE R
(141473.726000) vcan0 00000001#0559AF R
(141473.962000) vcan0 00000002#065AB0 R
(141474.204000) vcan0 00000001#075BB1 R
(141474.440000) vcan0 00000002#085CB2 R
(141474.684000) vcan0 00000001#095DB3 R
(141474.919000) vcan0 00000002#0A5EB4 R
(141475.156000) vcan0 00000001#0B5FB5 R
(141475.396000) vcan0 00000002#0C60B6 R
(141475.640000) vcan0 00000001#0D61B7 R
(141475.876000) vcan0 00000002#0E62B8 R
(141476.111000) vcan0 00000001#0F63B9 R
(141476.353000) vcan0 00000002#1064BA R
(141476.596000) vcan0 00000001#1165BB R
(141476.832000) vcan0 00000002#1266BC R
(141477.068000) vcan0 00000001#1367BD R
(141477.306000) vcan0 00000002#1468BE R
(141477.542000) vcan0 00000001#1569BF R
(141477.786000) vcan0 00000002#166AC0 R
(141478.022000) vcan0 00000001#176BC1 R
(141478.264000) vcan0 00000002#186CC2 R
(141478.500000) vcan0 00000001#196DC3 R
(141478.743000) vcan0 00000002#1A6EC4 R
(141478.979000) vcan0 00000001#1B6FC5 R
(141479.220000) vcan0 00000002#1C70C6 R
(141479.456000) vcan0 00000001#1D71C7 R
(141479.699000) vcan0 00000002#1E72C8 R
(141479.935000) vcan0 00000001#1F73C9 R
(141480.174000) vcan0 00000002#2074CA R
(141480.410000) vcan0 00000001#2175CB R
(141480.654000) vcan0 00000002#2276CC R
(141480.889000) vcan0 00000001#2377CD R
(141481.125000) vcan0 00000002#2478CE R
(141481.367000) vcan0 00000001#2579CF R
(141481.611000) vcan0 00000002#267AD0 R
(141481.846000) vcan0 00000001#277BD1 R
(141482.082000) vcan0 00000002#287CD2 R
(141482.320000) vcan0 00000001#297DD3 R
(141482.556000) vcan0 00000002#2A7ED4 R
(141482.800000) vcan0 00000001#2B7FD5 R
(141483.036000) vcan0 00000002#2C80D6 R
(141483.274000) vcan0 00000001#2D81D7 R
(141483.510000) vcan0 00000002#2E82D8 R
(141483.754000) vcan0 00000001#2F83D9 R
(141483.989000) vcan0 00000002#3084DA R
(141484.231000) vcan0 00000001#3185DB R
(141484.467000) vcan0 00000002#3286DC R
(141484.711000) vcan0 00000001#3387DD R
(141484.947000) vcan0 00000002#3488DE R
(141485.187000) vcan0 00000001#3589DF R
(141485.423000) vcan0 00000002#368AE0 R
(141485.667000) vcan0 00000001#378BE1 R
(141485.903000) vcan0 00000002#388CE2 R
(141486.138000) vcan0 00000001#398DE3 R
(141486.380000) vcan0 00000002#3A8EE4 R
(141486.624000) vcan0 00000001#3B8FE5 R
(141486.860000) vcan0 00000002#3C90E6 R
(141487.095000) vcan0 00000001#3D91E7 R
(141487.337000) vcan0 00000002#3E92E8 R
(141487.580000) vcan0 00000001#3F93E9 R
(141487.816000) vcan0 00000002#4094EA R
(141488.052000) vcan0 00000001#4195EB R
(141488.290000) vcan0 00000002#4296EC R
(141488.526000) vcan0 00000001#4397ED R
(141488.770000) vcan0 00000002#4498EE R
(141489.006000) vcan0 00000001#4599EF R
(141489.248000) vcan0 00000002#469AF0 R
(141489.483000) vcan0 00000001#479BF1 R
(141489.727000) vcan0 00000002#489CF2 R
(141489.963000) vcan0 00000001#499DF3 R
(141490.203000) vcan0 00000002#4A9EF4 R
(141490.439000) vcan0 00000001#4B9FF5 R
(141490.683000) vcan0 00000002#4CA0F6 R
(141490.919000) vcan0 00000001#4DA1F7 R
(141491.155000) vcan0 00000002#4EA2F8 R
(141491.396000) vcan0 00000001#4FA3F9 R
(141491.640000) vcan0 00000002#50A4FA R
(141491.876000) vcan0 00000001#51A5FB R
(141492.111000) vcan0 00000002#52A6FC R
(141492.353000) vcan0 00000001#53A7FD R
(141492.596000) vcan0 00000002#54A8FE R
(141492.832000) vcan0 00000001#00A9AA R
(141493.068000) vcan0 00000002#01AAAB R
(141493.306000) vcan0 00000001#0255AC R
(141493.542000) vcan0 00000002#0356AD R
(141493.786000) vcan0 00000001#0457AE R
(141494.021000) vcan0 00000002#0558AF R
(141494.263000) vcan0 00000001#0659B0 R
(141494.499000) vcan0 00000002#075AB1 R
(141494.743000) vcan0 00000001#085BB2 R
(141494.978000) vcan0 00000002#095CB3 R
(141495.220000) vcan0 00000001#0A5DB4 R
(141495.456000) vcan0 00000002#0B5EB5 R
(141495.700000) vcan0 00000001#0C5FB6 R
(141495.936000) vcan0 00000002#0D60B7 R
(141496.174000) vcan0 00000001#0E61B8 R
(141496.410000) vcan0 00000002#0F62B9 R
(141496.654000) vcan0 00000001#1063BA R
(141496.889000) vcan0 00000002#1164BB R
(141497.125000) vcan0 00000001#1265BC R
(141497.366000) vcan0 00000002#1366BD R
(141497.610000) vcan0 00000001#1467BE R
(141497.846000) vcan0 00000002#1568BF R
(141498.081000) vcan0 00000001#1669C0 R
(141498.320000) vcan0 00000002#176AC1 R
(141498.556000) vcan0 00000001#186BC2 R
(141498.800000) vcan0 00000002#196CC3 R
(141499.036000) vcan0 00000001#1A6DC4 R
(141499.274000) vcan0 00000002#1B6EC5 R
(141499.510000) vcan0 00000001#1C6FC6 R
(141499.754000) vcan0 00000002#1D70C7 R
(141499.989000) vcan0 00000001#1E71C8 R
(141500.231000) vcan0 00000002#1F72C9 R
(141500.467000) vcan0 00000001#2073CA R
(141500.711000) vcan0 00000002#2174CB R
(141500.947000) vcan0 00000001#2275CC R
(141501.187000) vcan0 00000002#2376CD R
(141501.423000) vcan0 00000001#2477CE R
(141501.667000) vcan0 00000002#2578CF R
(141501.902000) vcan0 00000001#2679D0 R
(141502.138000) vcan0 00000002#277AD1 R
(141502.380000) vcan0 00000001#287BD2 R
(141502.624000) vcan0 00000002#297CD3 R
(141502.860000) vcan0 00000001#2A7DD4 R
(141503.095000) vcan0 00000002#2B7ED5 R
(141503.337000) vcan0 00000001#2C7FD6 R
(141503.580000) vcan0 00000002#2D80D7 R
(141503.816000) vcan0 00000001#2E81D8 R
(141504.052000) vcan0 00000002#2F82D9 R
(141504.289000) vcan0 00000001#3083DA R
(141504.525000) vcan0 00000002#3184DB R
(141504.769000) vcan0 00000001#3285DC R
(141505.005000) vcan0 00000002#3386DD R
(141505.247000) vcan0 00000001#3487DE R
(141505.483000) vcan0 00000002#3588DF R
(141505.726000) vcan0 00000001#3689E0 R
(141505.962000) vcan0 00000002#378AE1 R
(141506.204000) vcan0 00000001#388BE2 R
(141506.440000) vcan0 00000002#398CE3 R
(141506.684000) vcan0 00000001#3A8DE4 R
(141506.919000) vcan0 00000002#3B8EE5 R
(141507.156000) vcan0 00000001#3C8FE6 R
(141507.396000) vcan0 00000002#3D90E7 R
(141507.640000) vcan0 00000001#3E91E8 R
(141507.876000) vcan0 00000002#3F92E9 R
(141508.111000) vcan0 00000001#4093EA R
(141508.353000) vcan0 00000002#4194EB R
(141508.596000) vcan0 00000001#4295EC R
(141508.832000) vcan0 00000002#4396ED R
(141509.068000) vcan0 00000001#4497EE R
(141509.306000) vcan0 00000002#4598EF R
(141509.542000) vcan0 00000001#4699F0 R
(141509.786000) vcan0 00000002#479AF1 R
(141510.022000) vcan0 00000001#489BF2 R
(141510.264000) vcan0 00000002#499CF3 R
(141510.500000) vcan0 00000001#4A9DF4 R
(141510.743000) vcan0 00000002#4B9EF5 R
(141510.979000) vcan0 00000001#4C9FF6 R
(141511.220000) vcan0 00000002#4DA0F7 R
(141511.456000) vcan0 00000001#4EA1F8 R
(141511.699000) vcan0 00000002#4FA2F9 R
(141511.935000) vcan0 00000001#50A3FA R
(141512.174000) vcan0 00000002#51A4FB R
(141512.410000) vcan0 00000001#52A5FC R
(141512.654000) vcan0 00000002#53A6FD R
(141512.889000) vcan0 00000001#54A7FE R
(141513.125000) vcan0 00000002#00A8AA R
(141513.367000) vcan0 00000001#01A9AB R
(141513.611000) vcan0 00000002#02AAAC R
(141513.847000) vcan0 00000001#0355AD R
(141514.082000) vcan0 00000002#0456AE R
(141514.320000) vcan0 00000001#0557AF R
(141514.556000) vcan0 00000002#0658B0 R
(141514.800000) vcan0 00000001#0759B1 R
(141515.036000) vcan0 00000002#085AB2 R
(141515.274000) vcan0 00000001#095BB3 R
(141515.510000) vcan0 00000002#0A5CB4 R
(141515.754000) vcan0 00000001#0B5DB5 R
(141515.989000) vcan0 00000002#0C5EB6 R
(141516.231000) vcan0 00000001#0D5FB7 R
(141516.467000) vcan0 00000002#0E60B8 R
(141516.711000) vcan0 00000001#0F61B9 R
(141516.947000) vcan0 00000002#1062BA R
(141517.187000) vcan0 00000001#1163BB R
(141517.423000) vcan0 00000002#1264BC R
(141517.667000) vcan0 00000001#1365BD R
(141517.902000) vcan0 00000002#1466BE R
(141518.138000) vcan0 00000001#1567BF R
(141518.380000) vcan0 00000002#1668C0 R
(141518.624000) vcan0 00000001#1769C1 R
(141518.859000) vcan0 00000002#186AC2 R
(141519.095000) vcan0 00000001#196BC3 R
(141519.337000) vcan0 00000002#1A6CC4 R
(141519.580000) vcan0 00000001#1B6DC5 R
(141519.816000) vcan0 00000002#1C6EC6 R
(141520.052000) vcan0 00000001#1D6FC7 R
(141520.290000) vcan0 00000002#1E70C8 R
(141520.526000) vcan0 00000001#1F71C9 R
(141520.770000) vcan0 00000002#2072CA R
(141521.006000) vcan0 00000001#2173CB R
(141521.247000) vcan0 00000002#2274CC R
(141521.483000) vcan0 00000001#2375CD R
(141521.726000) vcan0 00000002#2476CE R
(141521.962000) vcan0 00000001#2577CF R
(141522.204000) vcan0 00000002#2678D0 R
(141522.440000) vcan0 00000001#2779D1 R
(141522.684000) vcan0 00000002#287AD2 R
(141522.919000) vcan0 00000001#297BD3 R
(141523.156000) vcan0 00000002#2A7CD4 R
(141523.396000) vcan0 00000001#2B7DD5 R
(141523.640000) vcan0 00000002#2C7ED6 R
(141523.876000) vcan0 00000001#2D7FD7 R
(141524.111000) vcan0 00000002#2E80D8 R
(141524.353000) vcan0 00000001#2F81D9 R
(141524.596000) vcan0 00000002#3082DA R
(141524.832000) vcan0 00000001#3183DB R
(141525.068000) vcan0 00000002#3284DC R
(141525.306000) vcan0 00000001#3385DD R
(141525.541000) vcan0 00000002#3486DE R
(141525.785000) vcan0 00000001#3587DF R
(141526.021000) vcan0 00000002#3688E0 R
(141526.263000) vcan0 00000001#3789E1 R
(141526.499000) vcan0 00000002#388AE2 R
(141526.743000) vcan0 00000001#398BE3 R
(141526.978000) vcan0 00000002#3A8CE4 R
(141527.220000) vcan0 00000001#3B8DE5 R
(141527.456000) vcan0 00000002#3C8EE6 R
(141527.700000) vcan0 00000001#3D8FE7 R
(141527.936000) vcan0 00000002#3E90E8 R
(141528.174000) vcan0 00000001#3F91E9 R
(141528.410000) vcan0 00000002#4092EA R
(141528.654000) vcan0 00000001#4193EB R
(141528.889000) vcan0 00000002#4294EC R
(141529.125000) vcan0 00000001#4395ED R
(141529.366000) vcan0 00000002#4496EE R
(141529.610000) vcan0 00000001#4597EF R
(141529.846000) vcan0 00000002#4698F0 R
(141530.081000) vcan0 00000001#4799F1 R
(141530.320000) vcan0 00000002#489AF2 R
(141530.556000) vcan0 00000001#499BF3 R
(141530.800000) vcan0 00000002#4A9CF4 R
(141531.036000) vcan0 00000001#4B9DF5 R
(141531.274000) vcan0 00000002#4C9EF6 R
(141531.510000) vcan0 00000001#4D9FF7 R
(141531.754000) vcan0 00000002#4EA0F8 R
(141531.989000) vcan0 00000001#4FA1F9 R
(141532.231000) vcan0 00000002#50A2FA R
(141532.467000) vcan0 00000001#51A3FB R
(141532.711000) vcan0 00000002#52A4FC R
(141532.947000) vcan0 00000001#53A5FD R
(141533.187000) vcan0 00000002#54A6FE R
(141533.423000) vcan0 00000001#00A7AA R
(141533.667000) vcan0 00000002#01A8AB R
(141533.902000) vcan0 00000001#02A9AC R
(141534.138000) vcan0 00000002#03AAAD R
(141534.380000) vcan0 00000001#0455AE R
(141534.624000) vcan0 00000002#0556AF R
(141534.860000) vcan0 00000001#0657B0 R
(141535.095000) vcan0 00000002#0758B1 R
(141535.337000) vcan0 00000001#0859B2 R
(141535.580000) vcan0 00000002#095AB3 R
(141535.816000) vcan0 00000001#0A5BB4 R
(141536.052000) vcan0 00000002#0B5CB5 R
(141536.289000) vcan0 00000001#0C5DB6 R
(141536.525000) vcan0 00000002#0D5EB7 R
(141536.769000) vcan0 00000001#0E5FB8 R
(141537.005000) vcan0 00000002#0F60B9 R
(141537.247000) vcan0 00000001#1061BA R
(141537.483000) vcan0 00000002#1162BB R
(141537.726000) vcan0 00000001#1263BC R
(141537.962000) vcan0 00000002#1364BD R
(141538.204000) vcan0 00000001#1465BE R
(141538.440000) vcan0 00000002#1566BF R
(141538.684000) vcan0 00000001#1667C0 R
(141538.919000) vcan0 00000002#1768C1 R
(141539.156000) vcan0 00000001#1869C2 R
(141539.396000) vcan0 00000002#196AC3 R
(141539.640000) vcan0 00000001#1A6BC4 R
(141539.876000) vcan0 00000002#1B6CC5 R
(141540.111000) vcan0 00000001#1C6DC6 R
(141540.353000) vcan0 00000002#1D6EC7 R
(141540.596000) vcan0 00000001#1E6FC8 R
(141540.832000) vcan0 00000002#1F70C9 R
(141541.068000) vcan0 00000001#2071CA R
(141541.306000) vcan0 00000002#2172CB R
(141541.542000) vcan0 00000001#2273CC R
(141541.786000) vcan0 00000002#2374CD R
(141542.022000) vcan0 00000001#2475CE R
(141542.264000) vcan0 00000002#2576CF R
(141542.500000) vcan0 00000001#2677D0 R
(141542.743000) vcan0 00000002#2778D1 R
(141542.979000) vcan0 00000001#2879D2 R
(141543.220000) vcan0 00000002#297AD3 R
(141543.456000) vcan0 00000001#2A7BD4 R
(141543.699000) vcan0 00000002#2B7CD5 R
(141543.935000) vcan0 00000001#2C7DD6 R
(141544.174000) vcan0 00000002#2D7ED7 R
(141544.410000) vcan0 00000001#2E7FD8 R
(141544.654000) vcan0 00000002#2F80D9 R
(141544.889000) vcan0 00000001#3081DA R
(141545.125000) vcan0 00000002#3182DB R
(141545.367000) vcan0 00000001#3283DC R
(141545.611000) vcan0 00000002#3384DD R
(141545.846000) vcan0 00000001#3485DE R
(141546.082000) vcan0 00000002#3586DF R
(141546.320000) vcan0 00000001#3687E0 R
(141546.556000) vcan0 00000002#3788E1 R
(141546.800000) vcan0 00000001#3889E2 R
(141547.036000) vcan0 00000002#398AE3 R
(141547.274000) vcan0 00000001#3A8BE4 R
(141547.510000) vcan0 00000002#3B8CE5 R
(141547.754000) vcan0 00000001#3C8DE6 R
(141547.989000) vcan0 00000002#3D8EE7 R
(141548.231000) vcan0 00000001#3E8FE8 R
(141548.467000) vcan0 00000002#3F90E9 R
(141548.711000) vcan0 00000001#4091EA R
(141548.947000) vcan0 00000002#4192EB R
(141549.187000) vcan0 00000001#4293EC R
(141549.423000) vcan0 00000002#4394ED R
(141549.667000) vcan0 00000001#4495EE R
(141549.903000) vcan0 00000002#4596EF R
(141550.138000) vcan0 00000001#4697F0 R
(141550.380000) vcan0 00000002#4798F1 R
(141550.624000) vcan0 00000001#4899F2 R
(141550.860000) vcan0 00000002#499AF3 R
(141551.095000) vcan0 00000001#4A9BF4 R
(141551.337000) vcan0 00000002#4B9CF5 R
(141551.580000) vcan0 00000001#4C9DF6 R
(141551.816000) vcan0 00000002#4D9EF7 R
(141552.052000) vcan0 00000001#4E9FF8 R
(141552.290000) vcan0 00000002#4FA0F9 R
(141552.526000) vcan0 00000001#50A1FA R
(141552.770000) vcan0 00000002#51A2FB R
(141553.006000) vcan0 00000001#52A3FC R
(141553.248000) vcan0 00000002#53A4FD R
(141553.483000) vcan0 00000001#54A5FE R
(141553.727000) vcan0 00000002#00A6AA R
(141553.963000) vcan0 00000001#01A7AB R
(141554.204000) vcan0 00000002#02A8AC R
(141554.439000) vcan0 00000001#03A9AD R
(141554.683000) vcan0 00000002#04AAAE R
(141554.919000) vcan0 00000001#0555AF R
(141555.155000) vcan0 00000002#0656B0 R
(141555.396000) vcan0 00000001#0757B1 R
(141555.640000) vcan0 00000002#0858B2 R
(141555.876000) vcan0 00000001#0959B3 R
(141556.111000) vcan0 00000002#0A5AB4 R
(141556.353000) vcan0 00000001#0B5BB5 R
(141556.596000) vcan0 00000002#0C5CB6 R
(141556.832000) vcan0 00000001#0D5DB7 R
(141557.068000) vcan0 00000002#0E5EB8 R
(141557.306000) vcan0 00000001#0F5FB9 R
(141557.542000) vcan0 00000002#1060BA R
(141557.786000) vcan0 00000001#1161BB R
(141558.021000) vcan0 00000002#1262BC R
(141558.263000) vcan0 00000001#1363BD R
(141558.499000) vcan0 00000002#1464BE R
(141558.742000) vcan0 00000001#1565BF R
(141558.978000) vcan0 00000002#1666C0 R
(141559.220000) vcan0 00000001#1767C1 R
(141559.456000) vcan0 00000002#1868C2 R
(141559.700000) vcan0 00000001#1969C3 R
(141559.936000) vcan0 00000002#1A6AC4 R
(141560.174000) vcan0 00000001#1B6BC5 R
(141560.410000) vcan0 00000002#1C6CC6 R
(141560.654000) vcan0 00000001#1D6DC7 R
(141560.889000) vcan0 00000002#1E6EC8 R
(141561.125000) vcan0 00000001#1F6FC9 R
(141561.366000) vcan0 00000002#2070CA R
(141561.610000) vcan0 00000001#2171CB R
(141561.846000) vcan0 00000002#2272CC R
(141562.081000) vcan0 00000001#2373CD R
(141562.320000) vcan0 00000002#2474CE R
(141562.556000) vcan0 00000001#2575CF R
(141562.800000) vcan0 00000002#2676D0 R
(141563.036000) vcan0 00000001#2777D1 R
(141563.274000) vcan0 00000002#2878D2 R
(141563.510000) vcan0 00000001#2979D3 R
(141563.754000) vcan0 00000002#2A7AD4 R
(141563.989000) vcan0 00000001#2B7BD5 R
(141564.230000) vcan0 00000002#2C7CD6 R
(141564.466000) vcan0 00000001#2D7DD7 R
(141564.710000) vcan0 00000002#2E7ED8 R
(141564.946000) vcan0 00000001#2F7FD9 R
(141565.188000) vcan0 00000002#3080DA R
(141565.423000) vcan0 00000001#3181DB R
(141565.667000) vcan0 00000002#3282DC R
(141565.903000) vcan0 00000001#3383DD R
(141566.139000) vcan0 00000002#3484DE R
(141566.380000) vcan0 00000001#3585DF R
(141566.624000) vcan0 00000002#3686E0 R
(141566.859000) vcan0 00000001#3787E1 R
(141567.095000) vcan0 00000002#3888E2 R
(141567.337000) vcan0 00000001#3989E3 R
(141567.580000) vcan0 00000002#3A8AE4 R
(141567.816000) vcan0 00000001#3B8BE5 R
(141568.052000) vcan0 00000002#3C8CE6 R
(141568.289000) vcan0 00000001#3D8DE7 R
(141568.525000) vcan0 00000002#3E8EE8 R
(141568.769000) vcan0 00000001#3F8FE9 R
(141569.005000) vcan0 00000002#4090EA R
(141569.247000) vcan0 00000001#4191EB R
(141569.483000) vcan0 00000002#4292EC R
(141569.726000) vcan0 00000001#4393ED R
(141569.962000) vcan0 00000002#4494EE R
(141570.204000) vcan0 00000001#4595EF R
(141570.440000) vcan0 00000002#4696F0 R
(141570.684000) vcan0 00000001#4797F1 R
(141570.919000) vcan0 00000002#4898F2 R
(141571.156000) vcan0 00000001#4999F3 R
(141571.396000) vcan0 00000002#4A9AF4 R
(141571.640000) vcan0 00000001#4B9BF5 R
(141571.876000) vcan0 00000002#4C9CF6 R
(141572.111000) vcan0 00000001#4D9DF7 R
(141572.353000) vcan0 00000002#4E9EF8 R
(141572.596000) vcan0 00000001#4F9FF9 R
(141572.832000) vcan0 00000002#50A0FA R
(141573.068000) vcan0 00000001#51A1FB R
(141573.306000) vcan0 00000002#52A2FC R
(141573.542000) vcan0 00000001#53A3FD R
(141573.786000) vcan0 00000002#54A4FE R
(141574.022000) vcan0 00000001#00A5AA R
(141574.264000) vcan0 00000002#01A6AB R
(141574.500000) vcan0 00000001#02A7AC R
(141574.743000) vcan0 00000002#03A8AD R
(141574.979000) vcan0 00000001#04A9AE R
(141575.220000) vcan0 00000002#05AAAF R
(141575.456000) vcan0 00000001#0655B0 R
(141575.699000) vcan0 00000002#0756B1 R
(141575.935000) vcan0 00000001#0857B2 R
(141576.174000) vcan0 00000002#0958B3 R
(141576.410000) vcan0 00000001#0A59B4 R
(141576.654000) vcan0 00000002#0B5AB5 R
(141576.889000) vcan0 00000001#0C5BB6 R
(141577.125000) vcan0 00000002#0D5CB7 R
(141577.367000) vcan0 00000001#0E5DB8 R
(141577.611000) vcan0 00000002#0F5EB9 R
(141577.846000) vcan0 00000001#105FBA R
(141578.082000) vcan0 00000002#1160BB R
(141578.320000) vcan0 00000001#1261BC R
(141578.556000) vcan0 00000002#1362BD R
(141578.800000) vcan0 00000001#1463BE R
(141579.036000) vcan0 00000002#1564BF R
(141579.274000) vcan0 00000001#1665C0 R
(141579.510000) vcan0 00000002#1766C1 R
(141579.754000) vcan0 00000001#1867C2 R
(141579.989000) vcan0 00000002#1968C3 R
