(290331.345000) vcan0 00000001#266387 R
(290331.581000) vcan0 00000002#276488 R
(290331.825000) vcan0 00000001#286589 R
(290332.061000) vcan0 00000002#29668A R
(290339.229000) vcan0 00000002#4784A8 R
(290339.464000) vcan0 00000001#4885A9 R
(290339.708000) vcan0 00000002#4986AA R
(290339.944000) vcan0 00000001#4A87AB R
(290340.180000) vcan0 00000002#4B88AC R
(290340.422000) vcan0 00000001#4C89AD R
(290340.666000) vcan0 00000002#4D8AAE R
(290340.901000) vcan0 00000001#4E8BAF R
(290341.137000) vcan0 00000002#4F8CB0 R
(290341.375000) vcan0 00000001#508DB1 R
(290341.611000) vcan0 00000002#518EB2 R
(290341.855000) vcan0 00000001#528FB3 R
(290342.090000) vcan0 00000002#5390B4 R
(290342.329000) vcan0 00000001#5491B5 R
(290342.564000) vcan0 00000002#0092B6 R
(290342.808000) vcan0 00000001#0193B7 R
(290343.044000) vcan0 00000002#0294B8 R
(290343.285000) vcan0 00000001#0395B9 R
(290343.521000) vcan0 00000002#0496BA R
(290343.765000) vcan0 00000001#0597BB R
(290344.000000) vcan0 00000002#0698BC R
(290344.242000) vcan0 00000001#0799BD R
(290344.478000) vcan0 00000002#089ABE R
(290344.722000) vcan0 00000001#099BBF R
(290344.958000) vcan0 00000002#0A9CC0 R
(290345.193000) vcan0 00000001#0B9DC1 R
(290345.434000) vcan0 00000002#0C9EC2 R
(290345.678000) vcan0 00000001#0D9FC3 R
(290345.914000) vcan0 00000002#0EA0C4 R
(290346.150000) vcan0 00000001#0FA1C5 R
(290346.391000) vcan0 00000002#10A2C6 R
(290346.627000) vcan0 00000001#11A3C7 R
(290346.871000) vcan0 00000002#12A4C8 R
(290347.107000) vcan0 00000001#13A5C9 R
(290347.345000) vcan0 00000002#14A6CA R
(290347.581000) vcan0 00000001#15A7CB R
(290347.824000) vcan0 00000002#16A8CC R
(290348.060000) vcan0 00000001#17A9CD R
(290348.302000) vcan0 00000002#18AACE R
(290348.537000) vcan0 00000001#1955CF R
(290348.781000) vcan0 00000002#1A56D0 R
(290349.017000) vcan0 00000001#1B57D1 R
(290349.258000) vcan0 00000002#1C58D2 R
(290349.494000) vcan0 00000001#1D59D3 R
(290349.738000) vcan0 00000002#1E5AD4 R
(290349.974000) vcan0 00000001#1F5BD5 R
(290350.210000) vcan0 00000002#205CD6 R
(290350.451000) vcan0 00000001#215DD7 R
(290350.695000) vcan0 00000002#225ED8 R
(290350.931000) vcan0 00000001#235FD9 R
(290351.166000) vcan0 00000002#2460DA R
(290351.408000) vcan0 00000001#2561DB R
(290351.651000) vcan0 00000002#2662DC R
(290351.887000) vcan0 00000001#2763DD R
(290352.123000) vcan0 00000002#2864DE R
(290352.361000) vcan0 00000001#2965DF R
(290352.597000) vcan0 00000002#2A66E0 R
(290352.840000) vcan0 00000001#2B67E1 R
(290353.076000) vcan0 00000002#2C68E2 R
(290353.318000) vcan0 00000001#2D69E3 R
(290353.554000) vcan0 00000002#2E6AE4 R
(290353.797000) vcan0 00000001#2F6BE5 R
(290354.033000) vcan0 00000002#306CE6 R
(290354.275000) vcan0 00000001#316DE7 R
(290354.511000) vcan0 00000002#326EE8 R
(290354.755000) vcan0 00000001#336FE9 R
(290354.990000) vcan0 00000002#3470EA R
(290355.229000) vcan0 00000001#3571EB R
(290355.464000) vcan0 00000002#3672EC R
(290355.708000) vcan0 00000001#3773ED R
(290355.944000) vcan0 00000002#3874EE R
(290356.180000) vcan0 00000001#3975EF R
(290356.421000) vcan0 00000002#3A76F0 R
(290356.665000) vcan0 00000001#3B77F1 R
(290356.901000) vcan0 00000002#3C78F2 R
(290357.137000) vcan0 00000001#3D79F3 R
(290357.375000) vcan0 00000002#3E7AF4 R
(290357.611000) vcan0 00000001#3F7BF5 R
(290357.855000) vcan0 00000002#407CF6 R
(290358.090000) vcan0 00000001#417DF7 R
(290358.328000) vcan0 00000002#427EF8 R
(290358.564000) vcan0 00000001#437FF9 R
(290358.808000) vcan0 00000002#4480FA R
(290359.044000) vcan0 00000001#4581FB R
(290359.286000) vcan0 00000002#4682FC R
(290359.521000) vcan0 00000001#4783FD R
(290359.765000) vcan0 00000002#4884FE R
(290360.001000) vcan0 00000001#4985FF R
(290360.242000) vcan0 00000002#4A8600 R
(290360.478000) vcan0 00000001#4B8701 R
(290360.722000) vcan0 00000002#4C8802 R
(290360.958000) vcan0 00000001#4D8903 R
(290361.194000) vcan0 00000002#4E8A04 R
(290361.434000) vcan0 00000001#4F8B05 R
(290361.678000) vcan0 00000002#508C06 R
(290361.914000) vcan0 00000001#518D07 R
(290362.150000) vcan0 00000002#528E08 R
(290362.391000) vcan0 00000001#538F09 R
(290362.627000) vcan0 00000002#54900A R
(290362.871000) vcan0 00000001#00910B R
(290363.107000) vcan0 00000002#01920C R
(290363.345000) vcan0 00000001#02930D R
(290363.581000) vcan0 00000002#03940E R
(290363.824000) vcan0 00000001#04950F R
(290364.060000) vcan0 00000002#059610 R
(290364.302000) vcan0 00000001#069711 R
(290364.537000) vcan0 00000002#079812 R
(290364.781000) vcan0 00000001#089913 R
(290365.017000) vcan0 00000002#099A14 R
(290365.259000) vcan0 00000001#0A9B15 R
(290365.494000) vcan0 00000002#0B9C16 R
(290365.738000) vcan0 00000001#0C9D17 R
(290365.974000) vcan0 00000002#0D9E18 R
(290366.210000) vcan0 00000001#0E9F19 R
(290366.451000) vcan0 00000002#0FA01A R
(290366.695000) vcan0 00000001#10A11B R
(290366.931000) vcan0 00000002#11A21C R
(290367.166000) vcan0 00000001#12A31D R
(290367.408000) vcan0 00000002#13A41E R
(290367.652000) vcan0 00000001#14A51F R
(290367.887000) vcan0 00000002#15A620 R
(290368.123000) vcan0 00000001#16A721 R
(290368.361000) vcan0 00000002#17A822 R
(290368.597000) vcan0 00000001#18A923 R
(290368.840000) vcan0 00000002#19AA24 R
(290369.076000) vcan0 00000001#1A5525 R
(290369.318000) vcan0 00000002#1B5626 R
(290369.554000) vcan0 00000001#1C5727 R
(290369.797000) vcan0 00000002#1D5828 R
(290370.033000) vcan0 00000001#1E5929 R
(290370.275000) vcan0 00000002#1F5A2A R
(290370.511000) vcan0 00000001#205B2B R
(290370.755000) vcan0 00000002#215C2C R
(290370.990000) vcan0 00000001#225D2D R
(290371.229000) vcan0 00000002#235E2E R
(290371.464000) vcan0 00000001#245F2F R
(290371.708000) vcan0 00000002#256030 R
(290371.944000) vcan0 00000001#266131 R
(290372.180000) vcan0 00000002#276232 R
(290372.422000) vcan0 00000001#286333 R
(290372.666000) vcan0 00000002#296434 R
(290372.901000) vcan0 00000001#2A6535 R
(290373.137000) vcan0 00000002#2B6636 R
(290373.375000) vcan0 00000001#2C6737 R
(290373.611000) vcan0 00000002#2D6838 R
(290373.855000) vcan0 00000001#2E6939 R
(290374.090000) vcan0 00000002#2F6A3A R
(290374.329000) vcan0 00000001#306B3B R
(290374.564000) vcan0 00000002#316C3C R
(290374.808000) vcan0 00000001#326D3D R
(290375.044000) vcan0 00000002#336E3E R
(290375.285000) vcan0 00000001#346F3F R
(290375.521000) vcan0 00000002#357040 R
(290375.765000) vcan0 00000001#367141 R
(290376.000000) vcan0 00000002#377242 R
(290376.242000) vcan0 00000001#387343 R
(290376.478000) vcan0 00000002#397444 R
(290376.722000) vcan0 00000001#3A7545 R
(290376.958000) vcan0 00000002#3B7646 R
(290377.193000) vcan0 00000001#3C7747 R
(290377.434000) vcan0 00000002#3D7848 R
(290377.678000) vcan0 00000001#3E7949 R
(290377.914000) vcan0 00000002#3F7A4A R
(290378.150000) vcan0 00000001#407B4B R
(290378.391000) vcan0 00000002#417C4C R
(290378.627000) vcan0 00000001#427D4D R
(290378.871000) vcan0 00000002#437E4E R
(290379.107000) vcan0 00000001#447F4F R
(290379.345000) vcan0 00000002#458050 R
(290379.581000) vcan0 00000001#468151 R
(290379.825000) vcan0 00000002#478252 R
(290380.061000) vcan0 00000001#488353 R
(290380.302000) vcan0 00000002#498454 R
(290380.537000) vcan0 00000001#4A8555 R
(290380.781000) vcan0 00000002#4B8656 R
(290381.017000) vcan0 00000001#4C8757 R
(290381.258000) vcan0 00000002#4D8858 R
(290381.494000) vcan0 00000001#4E8959 R
(290381.738000) vcan0 00000002#4F8A5A R
(290381.974000) vcan0 00000001#508B5B R
(290382.210000) vcan0 00000002#518C5C R
(290382.451000) vcan0 00000001#528D5D R
(290382.695000) vcan0 00000002#538E5E R
(290382.931000) vcan0 00000001#548F5F R
(290383.166000) vcan0 00000002#009060 R
(290383.408000) vcan0 00000001#019161 R
(290383.651000) vcan0 00000002#029262 R
(290383.887000) vcan0 00000001#039363 R
(290384.123000) vcan0 00000002#049464 R
(290384.361000) vcan0 00000001#059565 R
(290384.597000) vcan0 00000002#069666 R
(290384.840000) vcan0 00000001#079767 R
(290385.076000) vcan0 00000002#089868 R
(290385.318000) vcan0 00000001#099969 R
(290385.554000) vcan0 00000002#0A9A6A R
(290385.797000) vcan0 00000001#0B9B6B R
(290386.033000) vcan0 00000002#0C9C6C R
(290386.275000) vcan0 00000001#0D9D6D R
(290386.511000) vcan0 00000002#0E9E6E R
(290386.755000) vcan0 00000001#0F9F6F R
(290386.990000) vcan0 00000002#10A070 R
(290387.229000) vcan0 00000001#11A171 R
(290387.464000) vcan0 00000002#12A272 R
(290387.708000) vcan0 00000001#13A373 R
(290387.944000) vcan0 00000002#14A474 R
(290388.180000) vcan0 00000001#15A575 R
(290388.421000) vcan0 00000002#16A676 R
(290388.665000) vcan0 00000001#17A777 R
(290388.901000) vcan0 00000002#18A878 R
(290389.137000) vcan0 00000001#19A979 R
(290389.375000) vcan0 00000002#1AAA7A R
(290389.611000) vcan0 00000001#1B557B R
(290389.854000) vcan0 00000002#1C567C R
(290390.090000) vcan0 00000001#1D577D R
(290390.328000) vcan0 00000002#1E587E R
(290390.564000) vcan0 00000001#1F597F R
(290390.808000) vcan0 00000002#205A80 R
(290391.044000) vcan0 00000001#215B81 R
(290391.285000) vcan0 00000002#225C82 R
(290391.521000) vcan0 00000001#235D83 R
(290391.765000) vcan0 00000002#245E84 R
(290392.000000) vcan0 00000001#255F85 R
(290392.242000) vcan0 00000002#266086 R
(290392.478000) vcan0 00000001#276187 R
(290392.722000) vcan0 00000002#286288 R
(290392.958000) vcan0 00000001#296389 R
(290393.193000) vcan0 00000002#2A648A R
(290393.434000) vcan0 00000001#2B658B R
(290393.678000) vcan0 00000002#2C668C R
(290393.914000) vcan0 00000001#2D678D R
(290394.150000) vcan0 00000002#2E688E R
(290394.391000) vcan0 00000001#2F698F R
(290394.627000) vcan0 00000002#306A90 R
(290394.871000) vcan0 00000001#316B91 R
(290395.107000) vcan0 00000002#326C92 R
(290395.345000) vcan0 00000001#336D93 R
(290395.581000) vcan0 00000002#346E94 R
(290395.824000) vcan0 00000001#356F95 R
(290396.060000) vcan0 00000002#367096 R
(290396.302000) vcan0 00000001#377197 R
(290396.537000) vcan0 00000002#387298 R
(290396.781000) vcan0 00000001#397399 R
(290397.017000) vcan0 00000002#3A749A R
(290397.259000) vcan0 00000001#3B759B R
(290397.494000) vcan0 00000002#3C769C R
(290397.738000) vcan0 00000001#3D779D R
(290397.974000) vcan0 00000002#3E789E R
(290398.210000) vcan0 00000001#3F799F R
(290398.451000) vcan0 00000002#407AA0 R
(290398.695000) vcan0 00000001#417BA1 R
(290398.931000) vcan0 00000002#427CA2 R
(290399.166000) vcan0 00000001#437DA3 R
(290399.408000) vcan0 00000002#447EA4 R
(290399.652000) vcan0 00000001#457FA5 R
(290399.887000) vcan0 00000002#4680A6 R
(290400.123000) vcan0 00000001#4781A7 R
(290400.361000) vcan0 00000002#4882A8 R
(290400.597000) vcan0 00000001#4983A9 R
(290400.840000) vcan0 00000002#4A84AA R
(290401.076000) vcan0 00000001#4B85AB R
(290401.318000) vcan0 00000002#4C86AC R
(290401.554000) vcan0 00000001#4D87AD R
(290401.797000) vcan0 00000002#4E88AE R
(290402.033000) vcan0 00000001#4F89AF R
(290402.275000) vcan0 00000002#508AB0 R
(290402.511000) vcan0 00000001#518BB1 R
(290402.755000) vcan0 00000002#528CB2 R
(290402.990000) vcan0 00000001#538DB3 R
(290403.229000) vcan0 00000002#548EB4 R
(290403.464000) vcan0 00000001#008FB5 R
(290403.708000) vcan0 00000002#0190B6 R
(290403.944000) vcan0 00000001#0291B7 R
(290404.180000) vcan0 00000002#0392B8 R
(290404.422000) vcan0 00000001#0493B9 R
(290404.666000) vcan0 00000002#0594BA R
(290404.901000) vcan0 00000001#0695BB R
(290405.137000) vcan0 00000002#0796BC R
(290405.375000) vcan0 00000001#0897BD R
(290405.611000) vcan0 00000002#0998BE R
(290405.855000) vcan0 00000001#0A99BF R
(290406.090000) vcan0 00000002#0B9AC0 R
(290406.329000) vcan0 00000001#0C9BC1 R
(290406.564000) vcan0 00000002#0D9CC2 R
(290406.808000) vcan0 00000001#0E9DC3 R
(290407.044000) vcan0 00000002#0F9EC4 R
(290407.285000) vcan0 00000001#109FC5 R
(290407.521000) vcan0 00000002#11A0C6 R
(290407.765000) vcan0 00000001#12A1C7 R
(290408.000000) vcan0 00000002#13A2C8 R
(290408.242000) vcan0 00000001#14A3C9 R
(290408.478000) vcan0 00000002#15A4CA R
(290408.722000) vcan0 00000001#16A5CB R
(290408.958000) vcan0 00000002#17A6CC R
(290409.193000) vcan0 00000001#18A7CD R
(290409.434000) vcan0 00000002#19A8CE R
(290409.678000) vcan0 00000001#1AA9CF R
(290409.914000) vcan0 00000002#1BAAD0 R
(290410.150000) vcan0 00000001#1C55D1 R
(290410.391000) vcan0 00000002#1D56D2 R
(290410.627000) vcan0 00000001#1E57D3 R
(290410.871000) vcan0 00000002#1F58D4 R
(290411.107000) vcan0 00000001#2059D5 R
(290411.345000) vcan0 00000002#215AD6 R
(290411.580000) vcan0 00000001#225BD7 R
(290411.824000) vcan0 00000002#235CD8 R
(290412.060000) vcan0 00000001#245DD9 R
(290412.302000) vcan0 00000002#255EDA R
(290412.538000) vcan0 00000001#265FDB R
(290412.781000) vcan0 00000002#2760DC R
(290413.017000) vcan0 00000001#2861DD R
(290413.259000) vcan0 00000002#2962DE R
(290413.495000) vcan0 00000001#2A63DF R
(290413.739000) vcan0 00000002#2B64E0 R
(290413.974000) vcan0 00000001#2C65E1 R
(290414.211000) vcan0 00000002#2D66E2 R
(290414.451000) vcan0 00000001#2E67E3 R
(290414.695000) vcan0 00000002#2F68E4 R
(290414.931000) vcan0 00000001#3069E5 R
(290415.167000) vcan0 00000002#316AE6 R
(290415.408000) vcan0 00000001#326BE7 R
(290415.651000) vcan0 00000002#336CE8 R
(290415.887000) vcan0 00000001#346DE9 R
(290416.123000) vcan0 00000002#356EEA R
(290416.361000) vcan0 00000001#366FEB R
(290416.597000) vcan0 00000002#3770EC R
(290416.841000) vcan0 00000001#3871ED R
(290417.076000) vcan0 00000002#3972EE R
(290417.318000) vcan0 00000001#3A73EF R
(290417.554000) vcan0 00000002#3B74F0 R
(290417.798000) vcan0 00000001#3C75F1 R
(290418.033000) vcan0 00000002#3D76F2 R
(290418.275000) vcan0 00000001#3E77F3 R
(290418.511000) vcan0 00000002#3F78F4 R
(290418.755000) vcan0 00000001#4079F5 R
(290418.991000) vcan0 00000002#417AF6 R
(290419.229000) vcan0 00000001#427BF7 R
(290419.464000) vcan0 00000002#437CF8 R
(290419.708000) vcan0 00000001#447DF9 R
(290419.944000) vcan0 00000002#457EFA R
(290420.180000) vcan0 00000001#467FFB R
(290420.422000) vcan0 00000002#4780FC R
(290420.666000) vcan0 00000001#4881FD R
(290420.901000) vcan0 00000002#4982FE R
(290421.137000) vcan0 00000001#4A83FF R
(290421.375000) vcan0 00000002#4B8400 R
(290421.611000) vcan0 00000001#4C8501 R
(290421.855000) vcan0 00000002#4D8602 R
(290422.090000) vcan0 00000001#4E8703 R
(290422.328000) vcan0 00000002#4F8804 R
(290422.564000) vcan0 00000001#508905 R
(290422.808000) vcan0 00000002#518A06 R
(290423.044000) vcan0 00000001#528B07 R
(290423.286000) vcan0 00000002#538C08 R
(290423.521000) vcan0 00000001#548D09 R
(290423.765000) vcan0 00000002#008E0A R
(290424.001000) vcan0 00000001#018F0B R
(290424.242000) vcan0 00000002#02900C R
(290424.478000) vcan0 00000001#03910D R
(290424.722000) vcan0 00000002#04920E R
(290424.958000) vcan0 00000001#05930F R
(290425.194000) vcan0 00000002#069410 R
(290425.434000) vcan0 00000001#079511 R
(290425.678000) vcan0 00000002#089612 R
(290425.914000) vcan0 00000001#099713 R
(290426.150000) vcan0 00000002#0A9814 R
(290426.391000) vcan0 00000001#0B9915 R
(290426.627000) vcan0 00000002#0C9A16 R
(290426.871000) vcan0 00000001#0D9B17 R
(290427.107000) vcan0 00000002#0E9C18 R
(290427.345000) vcan0 00000001#0F9D19 R
(290427.581000) vcan0 00000002#109E1A R
(290427.825000) vcan0 00000001#119F1B R
(290428.061000) vcan0 00000002#12A01C R
(290428.302000) vcan0 00000001#13A11D R
(290428.538000) vcan0 00000002#14A21E R
(290428.782000) vcan0 00000001#15A31F R
(290429.017000) vcan0 00000002#16A420 R
(290429.258000) vcan0 00000001#17A521 R
(290429.494000) vcan0 00000002#18A622 R
(290429.738000) vcan0 00000001#19A723 R
(290429.974000) vcan0 00000002#1AA824 R
(290430.210000) vcan0 00000001#1BA925 R
(290430.451000) vcan0 00000002#1CAA26 R
(290430.695000) vcan0 00000001#1D5527 R
(290430.931000) vcan0 00000002#1E5628 R
(290431.166000) vcan0 00000001#1F5729 R
(290431.408000) vcan0 00000002#20582A R
(290431.652000) vcan0 00000001#21592B R
(290431.887000) vcan0 00000002#225A2C R
(290432.123000) vcan0 00000001#235B2D R
(290432.361000) vcan0 00000002#245C2E R
(290432.597000) vcan0 00000001#255D2F R
(290432.840000) vcan0 00000002#265E30 R
(290433.076000) vcan0 00000001#275F31 R
(290433.318000) vcan0 00000002#286032 R
(290433.554000) vcan0 00000001#296133 R
(290433.797000) vcan0 00000002#2A6234 R
(290434.033000) vcan0 00000001#2B6335 R
(290434.275000) vcan0 00000002#2C6436 R
(290434.511000) vcan0 00000001#2D6537 R
(290434.755000) vcan0 00000002#2E6638 R
(290434.990000) vcan0 00000001#2F6739 R
(290435.229000) vcan0 00000002#30683A R
(290435.464000) vcan0 00000001#31693B R
(290435.708000) vcan0 00000002#326A3C R
(290435.944000) vcan0 00000001#336B3D R
(290436.180000) vcan0 00000002#346C3E R
(290436.422000) vcan0 00000001#356D3F R
(290436.666000) vcan0 00000002#366E40 R
(290436.901000) vcan0 00000001#376F41 R
(290437.137000) vcan0 00000002#387042 R
(290437.375000) vcan0 00000001#397143 R
(290437.611000) vcan0 00000002#3A7244 R
(290437.855000) vcan0 00000001#3B7345 R
(290438.090000) vcan0 00000002#3C7446 R
(290438.329000) vcan0 00000001#3D7547 R
(290438.564000) vcan0 00000002#3E7648 R
(290438.808000) vcan0 00000001#3F7749 R
(290439.044000) vcan0 00000002#40784A R
(290439.285000) vcan0 00000001#41794B R
(290439.521000) vcan0 00000002#427A4C R
(290439.765000) vcan0 00000001#437B4D R
(290440.000000) vcan0 00000002#447C4E R
(290440.242000) vcan0 00000001#457D4F R
(290440.478000) vcan0 00000002#467E50 R
(290440.722000) vcan0 00000001#477F51 R
(290440.958000) vcan0 00000002#488052 R
(290441.194000) vcan0 00000001#498153 R
(290441.434000) vcan0 00000002#4A8254 R
(290441.678000) vcan0 00000001#4B8355 R
(290441.914000) vcan0 00000002#4C8456 R
(290442.150000) vcan0 00000001#4D8557 R
(290442.391000) vcan0 00000002#4E8658 R
(290442.627000) vcan0 00000001#4F8759 R
(290442.871000) vcan0 00000002#50885A R
(290443.107000) vcan0 00000001#51895B R
(290443.345000) vcan0 00000002#528A5C R
(290443.581000) vcan0 00000001#538B5D R
(290443.825000) vcan0 00000002#548C5E R
(290444.061000) vcan0 00000001#008D5F R
(290444.302000) vcan0 00000002#018E60 R
(290444.537000) vcan0 00000001#028F61 R
(290444.781000) vcan0 00000002#039062 R
(290445.017000) vcan0 00000001#049163 R
(290445.258000) vcan0 00000002#059264 R
(290445.494000) vcan0 00000001#069365 R
(290445.738000) vcan0 00000002#079466 R
(290445.974000) vcan0 00000001#089567 R
(290446.210000) vcan0 00000002#099668 R
(290446.451000) vcan0 00000001#0A9769 R
(290446.695000) vcan0 00000002#0B986A R
(290446.931000) vcan0 00000001#0C996B R
(290447.166000) vcan0 00000002#0D9A6C R
(290447.408000) vcan0 00000001#0E9B6D R
(290447.651000) vcan0 00000002#0F9C6E R
(290447.887000) vcan0 00000001#109D6F R
(290448.123000) vcan0 00000002#119E70 R
(290448.361000) vcan0 00000001#129F71 R
(290448.597000) vcan0 00000002#13A072 R
(290448.840000) vcan0 00000001#14A173 R
(290449.076000) vcan0 00000002#15A274 R
(290449.318000) vcan0 00000001#16A375 R
(290449.554000) vcan0 00000002#17A476 R
(290449.797000) vcan0 00000001#18A577 R
(290450.033000) vcan0 00000002#19A678 R
(290450.275000) vcan0 00000001#1AA779 R
(290450.511000) vcan0 00000002#1BA87A R
(290450.755000) vcan0 00000001#1CA97B R
(290450.990000) vcan0 00000002#1DAA7C R
(290451.229000) vcan0 00000001#1E557D R
(290451.464000) vcan0 00000002#1F567E R
(290451.708000) vcan0 00000001#20577F R
(290451.944000) vcan0 00000002#215880 R
(290452.180000) vcan0 00000001#225981 R
(290452.422000) vcan0 00000002#235A82 R
(290452.666000) vcan0 00000001#245B83 R
(290452.901000) vcan0 00000002#255C84 R
(290453.137000) vcan0 00000001#265D85 R
(290453.375000) vcan0 00000002#275E86 R
(290453.611000) vcan0 00000001#285F87 R
(290453.855000) vcan0 00000002#296088 R
(290454.090000) vcan0 00000001#2A6189 R
(290454.329000) vcan0 00000002#2B628A R
(290454.564000) vcan0 00000001#2C638B R
(290454.808000) vcan0 00000002#2D648C R
(290455.044000) vcan0 00000001#2E658D R
(290455.285000) vcan0 00000002#2F668E R
(290455.521000) vcan0 00000001#30678F R
(290455.765000) vcan0 00000002#316890 R
(290456.000000) vcan0 00000001#326991 R
(290456.242000) vcan0 00000002#336A92 R
(290456.478000) vcan0 00000001#346B93 R
(290456.722000) vcan0 00000002#356C94 R
(290456.958000) vcan0 00000001#366D95 R
(290457.193000) vcan0 00000002#376E96 R
(290457.434000) vcan0 00000001#386F97 R
(290457.678000) vcan0 00000002#397098 R
(290457.914000) vcan0 00000001#3A7199 R
(290458.150000) vcan0 00000002#3B729A R
(290458.391000) vcan0 00000001#3C739B R
(290458.627000) vcan0 00000002#3D749C R
(290458.871000) vcan0 00000001#3E759D R
(290459.107000) vcan0 00000002#3F769E R
(290459.345000) vcan0 00000001#40779F R
(290459.581000) vcan0 00000002#4178A0 R
(290459.824000) vcan0 00000001#4279A1 R
(290460.060000) vcan0 00000002#437AA2 R
(290460.302000) vcan0 00000001#447BA3 R
(290460.537000) vcan0 00000002#457CA4 R
(290460.781000) vcan0 00000001#467DA5 R
(290461.017000) vcan0 00000002#477EA6 R
(290461.259000) vcan0 00000001#487FA7 R
(290461.494000) vcan0 00000002#4980A8 R
(290461.738000) vcan0 00000001#4A81A9 R
(290461.974000) vcan0 00000002#4B82AA R
(290462.210000) vcan0 00000001#4C83AB R
(290462.451000) vcan0 00000002#4D84AC R
(290462.695000) vcan0 00000001#4E85AD R
(290462.931000) vcan0 00000002#4F86AE R
(290463.166000) vcan0 00000001#5087AF R
(290463.408000) vcan0 00000002#5188B0 R
(290463.652000) vcan0 00000001#5289B1 R
(290463.887000) vcan0 00000002#538AB2 R
(290464.123000) vcan0 00000001#548BB3 R
(290464.361000) vcan0 00000002#008CB4 R
(290464.597000) vcan0 00000001#018DB5 R
(290464.840000) vcan0 00000002#028EB6 R
(290465.076000) vcan0 00000001#038FB7 R
(290465.318000) vcan0 00000002#0490B8 R
(290465.554000) vcan0 00000001#0591B9 R
(290465.797000) vcan0 00000002#0692BA R
(290466.033000) vcan0 00000001#0793BB R
(290466.275000) vcan0 00000002#0894BC R
(290466.511000) vcan0 00000001#0995BD R
(290466.755000) vcan0 00000002#0A96BE R
(290466.990000) vcan0 00000001#0B97BF R
(290467.229000) vcan0 00000002#0C98C0 R
(290467.464000) vcan0 00000001#0D99C1 R
(290467.708000) vcan0 00000002#0E9AC2 R
(290467.944000) vcan0 00000001#0F9BC3 R
(290468.180000) vcan0 00000002#109CC4 R
(290468.422000) vcan0 00000001#119DC5 R
(290468.666000) vcan0 00000002#129EC6 R
(290468.901000) vcan0 00000001#139FC7 R
(290469.137000) vcan0 00000002#14A0C8 R
(290469.375000) vcan0 00000001#15A1C9 R
(290469.611000) vcan0 00000002#16A2CA R
(290469.855000) vcan0 00000001#17A3CB R
(290470.090000) vcan0 00000002#18A4CC R
(290470.329000) vcan0 00000001#19A5CD R
(290470.564000) vcan0 00000002#1AA6CE R
(290470.808000) vcan0 00000001#1BA7CF R
(290471.044000) vcan0 00000002#1CA8D0 R
(290471.285000) vcan0 00000001#1DA9D1 R
(290471.521000) vcan0 00000002#1EAAD2 R
(290471.765000) vcan0 00000001#1F55D3 R
(290472.000000) vcan0 00000002#2056D4 R
(290472.242000) vcan0 00000001#2157D5 R
(290472.478000) vcan0 00000002#2258D6 R
(290472.722000) vcan0 00000001#2359D7 R
(290472.958000) vcan0 00000002#245AD8 R
(290473.193000) vcan0 00000001#255BD9 R
(290473.434000) vcan0 00000002#265CDA R
(290473.678000) vcan0 00000001#275DDB R
(290473.914000) vcan0 00000002#285EDC R
(290474.150000) vcan0 00000001#295FDD R
(290474.391000) vcan0 00000002#2A60DE R
(290474.627000) vcan0 00000001#2B61DF R
(290474.871000) vcan0 00000002#2C62E0 R
(290475.107000) vcan0 00000001#2D63E1 R
(290475.345000) vcan0 00000002#2E64E2 R
(290475.581000) vcan0 00000001#2F65E3 R
(290475.824000) vcan0 00000002#3066E4 R
(290476.060000) vcan0 00000001#3167E5 R
(290476.302000) vcan0 00000002#3268E6 R
(290476.537000) vcan0 00000001#3369E7 R
(290476.781000) vcan0 00000002#346AE8 R
(290477.017000) vcan0 00000001#356BE9 R
(290477.259000) vcan0 00000002#366CEA R
(290477.494000) vcan0 00000001#376DEB R
(290477.738000) vcan0 00000002#386EEC R
(290477.974000) vcan0 00000001#396FED R
(290478.210000) vcan0 00000002#3A70EE R
(290478.451000) vcan0 00000001#3B71EF R
(290478.695000) vcan0 00000002#3C72F0 R
(290478.931000) vcan0 00000001#3D73F1 R
(290479.166000) vcan0 00000002#3E74F2 R
(290479.408000) vcan0 00000001#3F75F3 R
(290479.651000) vcan0 00000002#4076F4 R
(290479.887000) vcan0 00000001#4177F5 R
(290480.123000) vcan0 00000002#4278F6 R
(290480.361000) vcan0 00000001#4379F7 R
(290480.597000) vcan0 00000002#447AF8 R
(290480.841000) vcan0 00000001#457BF9 R
(290481.077000) vcan0 00000002#467CFA R
(290481.319000) vcan0 00000001#477DFB R
(290481.554000) vcan0 00000002#487EFC R
(290481.798000) vcan0 00000001#497FFD R
(290482.034000) vcan0 00000002#4A80FE R
(290482.275000) vcan0 00000001#4B81FF R
(290482.510000) vcan0 00000002#4C8200 R
(290482.754000) vcan0 00000001#4D8301 R
(290482.990000) vcan0 00000002#4E8402 R
(290483.229000) vcan0 00000001#4F8503 R
(290483.464000) vcan0 00000002#508604 R
(290483.708000) vcan0 00000001#518705 R
(290483.944000) vcan0 00000002#528806 R
(290484.180000) vcan0 00000001#538907 R
(290484.422000) vcan0 00000002#548A08 R
(290484.666000) vcan0 00000001#008B09 R
(290484.901000) vcan0 00000002#018C0A R
(290485.137000) vcan0 00000001#028D0B R
(290485.375000) vcan0 00000002#038E0C R
(290485.611000) vcan0 00000001#048F0D R
(290485.855000) vcan0 00000002#05900E R
(290486.090000) vcan0 00000001#06910F R
(290486.329000) vcan0 00000002#079210 R
(290486.564000) vcan0 00000001#089311 R
(290486.808000) vcan0 00000002#099412 R
(290487.044000) vcan0 00000001#0A9513 R
(290487.285000) vcan0 00000002#0B9614 R
(290487.521000) vcan0 00000001#0C9715 R
(290487.765000) vcan0 00000002#0D9816 R
(290488.000000) vcan0 00000001#0E9917 R
(290488.242000) vcan0 00000002#0F9A18 R
(290488.478000) vcan0 00000001#109B19 R
(290488.722000) vcan0 00000002#119C1A R
(290488.958000) vcan0 00000001#129D1B R
(290489.194000) vcan0 00000002#139E1C R
(290489.434000) vcan0 00000001#149F1D R
(290489.678000) vcan0 00000002#15A01E R
(290489.914000) vcan0 00000001#16A11F R
(290490.150000) vcan0 00000002#17A220 R
(290490.391000) vcan0 00000001#18A321 R
(290490.627000) vcan0 00000002#19A422 R
(290490.871000) vcan0 00000001#1AA523 R
(290491.107000) vcan0 00000002#1BA624 R
(290491.345000) vcan0 00000001#1CA725 R
(290491.581000) vcan0 00000002#1DA826 R
(290491.825000) vcan0 00000001#1EA927 R
(290492.061000) vcan0 00000002#1FAA28 R
(290492.302000) vcan0 00000001#205529 R
(290492.538000) vcan0 00000002#21562A R
(290492.781000) vcan0 00000001#22572B R
(290493.017000) vcan0 00000002#23582C R
(290493.259000) vcan0 00000001#24592D R
(290493.495000) vcan0 00000002#255A2E R
(290493.739000) vcan0 00000001#265B2F R
(290493.975000) vcan0 00000002#275C30 R
(290494.211000) vcan0 00000001#285D31 R
(290494.451000) vcan0 00000002#295E32 R
(290494.695000) vcan0 00000001#2A5F33 R
(290494.931000) vcan0 00000002#2B6034 R
(290495.166000) vcan0 00000001#2C6135 R
(290495.408000) vcan0 00000002#2D6236 R
(290495.651000) vcan0 00000001#2E6337 R
(290495.887000) vcan0 00000002#2F6438 R
(290496.123000) vcan0 00000001#306539 R
(290496.361000) vcan0 00000002#31663A R
(290496.597000) vcan0 00000001#32673B R
(290496.841000) vcan0 00000002#33683C R
(290497.076000) vcan0 00000001#34693D R
(290497.318000) vcan0 00000002#356A3E R
(290497.554000) vcan0 00000001#366B3F R
(290497.798000) vcan0 00000002#376C40 R
(290498.033000) vcan0 00000001#386D41 R
(290498.275000) vcan0 00000002#396E42 R
(290498.511000) vcan0 00000001#3A6F43 R
(290498.755000) vcan0 00000002#3B7044 R
(290498.991000) vcan0 00000001#3C7145 R
(290499.228000) vcan0 00000002#3D7246 R
(290499.464000) vcan0 00000001#3E7347 R
(290499.708000) vcan0 00000002#3F7448 R
(290499.944000) vcan0 00000001#407549 R
(290500.180000) vcan0 00000002#41764A R
(290500.421000) vcan0 00000001#42774B R
(290500.665000) vcan0 00000002#43784C R
(290500.901000) vcan0 00000001#44794D R
(290501.137000) vcan0 00000002#457A4E R
(290501.375000) vcan0 00000001#467B4F R
(290501.611000) vcan0 00000002#477C50 R
(290501.855000) vcan0 00000001#487D51 R
(290502.090000) vcan0 00000002#497E52 R
(290502.328000) vcan0 00000001#4A7F53 R
(290502.564000) vcan0 00000002#4B8054 R
(290502.808000) vcan0 00000001#4C8155 R
(290503.044000) vcan0 00000002#4D8256 R
(290503.285000) vcan0 00000001#4E8357 R
(290503.521000) vcan0 00000002#4F8458 R
(290503.765000) vcan0 00000001#508559 R
(290504.000000) vcan0 00000002#51865A R
(290504.242000) vcan0 00000001#52875B R
(290504.478000) vcan0 00000002#53885C R
(290504.722000) vcan0 00000001#54895D R
(290504.958000) vcan0 00000002#008A5E R
(290505.193000) vcan0 00000001#018B5F R
(290505.434000) vcan0 00000002#028C60 R
(290505.678000) vcan0 00000001#038D61 R
(290505.914000) vcan0 00000002#048E62 R
(290506.150000) vcan0 00000001#058F63 R
(290506.391000) vcan0 00000002#069064 R
(290506.627000) vcan0 00000001#079165 R
(290506.871000) vcan0 00000002#089266 R
(290507.107000) vcan0 00000001#099367 R
(290507.345000) vcan0 00000002#0A9468 R
(290507.581000) vcan0 00000001#0B9569 R
(290507.825000) vcan0 00000002#0C966A R
(290508.061000) vcan0 00000001#0D976B R
(290508.302000) vcan0 00000002#0E986C R
(290508.537000) vcan0 00000001#0F996D R
(290508.781000) vcan0 00000002#109A6E R
(290509.017000) vcan0 00000001#119B6F R
(290509.258000) vcan0 00000002#129C70 R
(290509.494000) vcan0 00000001#139D71 R
(290509.738000) vcan0 00000002#149E72 R
(290509.974000) vcan0 00000001#159F73 R
(290510.210000) vcan0 00000002#16A074 R
(290510.451000) vcan0 00000001#17A175 R
(290510.695000) vcan0 00000002#18A276 R
(290510.931000) vcan0 00000001#19A377 R
(290511.166000) vcan0 00000002#1AA478 R
(290511.408000) vcan0 00000001#1BA579 R
(290511.652000) vcan0 00000002#1CA67A R
(290511.887000) vcan0 00000001#1DA77B R
(290512.123000) vcan0 00000002#1EA87C R
(290512.361000) vcan0 00000001#1FA97D R
(290512.597000) vcan0 00000002#20AA7E R
(290512.840000) vcan0 00000001#21557F R
(290513.076000) vcan0 00000002#225680 R
(290513.318000) vcan0 00000001#235781 R
(290513.554000) vcan0 00000002#245882 R
(290513.797000) vcan0 00000001#255983 R
(290514.033000) vcan0 00000002#265A84 R
(290514.275000) vcan0 00000001#275B85 R
(290514.511000) vcan0 00000002#285C86 R
(290514.755000) vcan0 00000001#295D87 R
(290514.990000) vcan0 00000002#2A5E88 R
(290515.229000) vcan0 00000001#2B5F89 R
(290515.464000) vcan0 00000002#2C608A R
(290515.708000) vcan0 00000001#2D618B R
(290515.944000) vcan0 00000002#2E628C R
(290516.180000) vcan0 00000001#2F638D R
(290516.422000) vcan0 00000002#30648E R
(290516.666000) vcan0 00000001#31658F R
(290516.901000) vcan0 00000002#326690 R
(290517.137000) vcan0 00000001#336791 R
(290517.375000) vcan0 00000002#346892 R
(290517.611000) vcan0 00000001#356993 R
(290517.855000) vcan0 00000002#366A94 R
(290518.090000) vcan0 00000001#376B95 R
(290518.329000) vcan0 00000002#386C96 R
(290518.564000) vcan0 00000001#396D97 R
(290518.808000) vcan0 00000002#3A6E98 R
(290519.044000) vcan0 00000001#3B6F99 R
(290519.285000) vcan0 00000002#3C709A R
(290519.521000) vcan0 00000001#3D719B R
(290519.765000) vcan0 00000002#3E729C R
(290520.000000) vcan0 00000001#3F739D R
(290520.242000) vcan0 00000002#40749E R
(290520.478000) vcan0 00000001#41759F R
(290520.722000) vcan0 00000002#4276A0 R
(290520.958000) vcan0 00000001#4377A1 R
(290521.194000) vcan0 00000002#4478A2 R
(290521.434000) vcan0 00000001#4579A3 R
(290521.678000) vcan0 00000002#467AA4 R
(290521.914000) vcan0 00000001#477BA5 R
(290522.150000) vcan0 00000002#487CA6 R
(290522.391000) vcan0 00000001#497DA7 R
(290522.627000) vcan0 00000002#4A7EA8 R
(290522.871000) vcan0 00000001#4B7FA9 R
(290523.107000) vcan0 00000002#4C80AA R
(290523.345000) vcan0 00000001#4D81AB R
(290523.581000) vcan0 00000002#4E82AC R
(290523.825000) vcan0 00000001#4F83AD R
(290524.061000) vcan0 00000002#5084AE R
(290524.302000) vcan0 00000001#5185AF R
(290524.538000) vcan0 00000002#5286B0 R
(290524.782000) vcan0 00000001#5387B1 R
(290525.017000) vcan0 00000002#5488B2 R
(290525.258000) vcan0 00000001#0089B3 R
(290525.494000) vcan0 00000002#018AB4 R
(290525.738000) vcan0 00000001#028BB5 R
(290525.974000) vcan0 00000002#038CB6 R
(290526.210000) vcan0 00000001#048DB7 R
(290526.451000) vcan0 00000002#058EB8 R
(290526.695000) vcan0 00000001#068FB9 R
(290526.931000) vcan0 00000002#0790BA R
(290527.166000) vcan0 00000001#0891BB R
(290527.408000) vcan0 00000002#0992BC R
(290527.652000) vcan0 00000001#0A93BD R
(290527.887000) vcan0 00000002#0B94BE R
(290528.123000) vcan0 00000001#0C95BF R
(290528.361000) vcan0 00000002#0D96C0 R
(290528.597000) vcan0 00000001#0E97C1 R
(290528.840000) vcan0 00000002#0F98C2 R
(290529.076000) vcan0 00000001#1099C3 R
(290529.318000) vcan0 00000002#119AC4 R
(290529.554000) vcan0 00000001#129BC5 R
(290529.797000) vcan0 00000002#139CC6 R
(290530.033000) vcan0 00000001#149DC7 R
(290530.275000) vcan0 00000002#159EC8 R
(290530.511000) vcan0 00000001#169FC9 R
(290530.755000) vcan0 00000002#17A0CA R
(290530.990000) vcan0 00000001#18A1CB R
(290531.229000) vcan0 00000002#19A2CC R
(290531.464000) vcan0 00000001#1AA3CD R
(290531.708000) vcan0 00000002#1BA4CE R
(290531.944000) vcan0 00000001#1CA5CF R
(290532.180000) vcan0 00000002#1DA6D0 R
(290532.422000) vcan0 00000001#1EA7D1 R
(290532.666000) vcan0 00000002#1FA8D2 R
(290532.901000) vcan0 00000001#20A9D3 R
(290533.137000) vcan0 00000002#21AAD4 R
(290533.375000) vcan0 00000001#2255D5 R
(290533.611000) vcan0 00000002#2356D6 R
(290533.855000) vcan0 00000001#2457D7 R
(290534.090000) vcan0 00000002#2558D8 R
(290534.329000) vcan0 00000001#2659D9 R
(290534.564000) vcan0 00000002#275ADA R
(290534.808000) vcan0 00000001#285BDB R
(290535.044000) vcan0 00000002#295CDC R
(290535.285000) vcan0 00000001#2A5DDD R
(290535.521000) vcan0 00000002#2B5EDE R
(290535.765000) vcan0 00000001#2C5FDF R
(290536.000000) vcan0 00000002#2D60E0 R
(290536.242000) vcan0 00000001#2E61E1 R
(290536.478000) vcan0 00000002#2F62E2 R
(290536.722000) vcan0 00000001#3063E3 R
(290536.958000) vcan0 00000002#3164E4 R
(290537.193000) vcan0 00000001#3265E5 R
(290537.434000) vcan0 00000002#3366E6 R
(290537.678000) vcan0 00000001#3467E7 R
(290537.914000) vcan0 00000002#3568E8 R
(290538.150000) vcan0 00000001#3669E9 R
(290538.391000) vcan0 00000002#376AEA R
(290538.627000) vcan0 00000001#386BEB R
(290538.871000) vcan0 00000002#396CEC R
(290539.107000) vcan0 00000001#3A6DED R
(290539.345000) vcan0 00000002#3B6EEE R
(290539.581000) vcan0 00000001#3C6FEF R
(290539.825000) vcan0 00000002#3D70F0 R
(290540.061000) vcan0 00000001#3E71F1 R
(290540.302000) vcan0 00000002#3F72F2 R
(290540.537000) vcan0 00000001#4073F3 R
(290540.781000) vcan0 00000002#4174F4 R
(290541.017000) vcan0 00000001#4275F5 R
(290541.258000) vcan0 00000002#4376F6 R
(290541.494000) vcan0 00000001#4477F7 R
(290541.738000) vcan0 00000002#4578F8 R
(290541.974000) vcan0 00000001#4679F9 R
(290542.210000) vcan0 00000002#477AFA R
(290542.451000) vcan0 00000001#487BFB R
(290542.695000) vcan0 00000002#497CFC R
(290542.931000) vcan0 00000001#4A7DFD R
(290543.166000) vcan0 00000002#4B7EFE R
(290543.408000) vcan0 00000001#4C7FFF R
(290543.652000) vcan0 00000002#4D8000 R
(290543.887000) vcan0 00000001#4E8101 R
(290544.123000) vcan0 00000002#4F8202 R
(290544.361000) vcan0 00000001#508303 R
(290544.597000) vcan0 00000002#518404 R
(290544.840000) vcan0 00000001#528505 R
(290545.076000) vcan0 00000002#538606 R
(290545.318000) vcan0 00000001#548707 R
(290545.554000) vcan0 00000002#008808 R
(290545.797000) vcan0 00000001#018909 R
(290546.033000) vcan0 00000002#028A0A R
(290546.275000) vcan0 00000001#038B0B R
(290546.511000) vcan0 00000002#048C0C R
(290546.755000) vcan0 00000001#058D0D R
(290546.990000) vcan0 00000002#068E0E R
(290547.229000) vcan0 00000001#078F0F R
(290547.464000) vcan0 00000002#089010 R
(290547.708000) vcan0 00000001#099111 R
(290547.944000) vcan0 00000002#0A9212 R
(290548.180000) vcan0 00000001#0B9313 R
(290548.422000) vcan0 00000002#0C9414 R
(290548.665000) vcan0 00000001#0D9515 R
(290548.901000) vcan0 00000002#0E9616 R
(290549.137000) vcan0 00000001#0F9717 R
(290549.375000) vcan0 00000002#109818 R
(290549.611000) vcan0 00000001#119919 R
(290549.854000) vcan0 00000002#129A1A R
(290550.090000) vcan0 00000001#139B1B R
(290550.328000) vcan0 00000002#149C1C R
(290550.564000) vcan0 00000001#159D1D R
(290550.808000) vcan0 00000002#169E1E R
(290551.044000) vcan0 00000001#179F1F R
(290551.285000) vcan0 00000002#18A020 R
(290551.521000) vcan0 00000001#19A121 R
(290551.765000) vcan0 00000002#1AA222 R
(290552.000000) vcan0 00000001#1BA323 R
(290552.242000) vcan0 00000002#1CA424 R
(290552.478000) vcan0 00000001#1DA525 R
(290552.722000) vcan0 00000002#1EA626 R
(290552.958000) vcan0 00000001#1FA727 R
(290553.193000) vcan0 00000002#20A828 R
(290553.434000) vcan0 00000001#21A929 R
(290553.678000) vcan0 00000002#22AA2A R
(290553.914000) vcan0 00000001#23552B R
(290554.150000) vcan0 00000002#24562C R
(290554.391000) vcan0 00000001#25572D R
(290554.627000) vcan0 00000002#26582E R
(290554.871000) vcan0 00000001#27592F R
(290555.107000) vcan0 00000002#285A30 R
(290555.345000) vcan0 00000001#295B31 R
(290555.581000) vcan0 00000002#2A5C32 R
(290555.825000) vcan0 00000001#2B5D33 R
(290556.061000) vcan0 00000002#2C5E34 R
(290556.302000) vcan0 00000001#2D5F35 R
(290556.538000) vcan0 00000002#2E6036 R
(290556.782000) vcan0 00000001#2F6137 R
(290557.017000) vcan0 00000002#306238 R
(290557.258000) vcan0 00000001#316339 R
(290557.494000) vcan0 00000002#32643A R
(290557.738000) vcan0 00000001#33653B R
(290557.974000) vcan0 00000002#34663C R
(290558.210000) vcan0 00000001#35673D R
(290558.451000) vcan0 00000002#36683E R
(290558.695000) vcan0 00000001#37693F R
(290558.931000) vcan0 00000002#386A40 R
(290559.166000) vcan0 00000001#396B41 R
(290559.408000) vcan0 00000002#3A6C42 R
(290559.652000) vcan0 00000001#3B6D43 R
(290559.887000) vcan0 00000002#3C6E44 R
(290560.123000) vcan0 00000001#3D6F45 R
(290560.361000) vcan0 00000002#3E7046 R
(290560.597000) vcan0 00000001#3F7147 R
(290560.840000) vcan0 00000002#407248 R
(290561.076000) vcan0 00000001#417349 R
(290561.318000) vcan0 00000002#42744A R
(290561.554000) vcan0 00000001#43754B R
(290561.797000) vcan0 00000002#44764C R
(290562.033000) vcan0 00000001#45774D R
(290562.275000) vcan0 00000002#46784E R
(290562.511000) vcan0 00000001#47794F R
(290562.755000) vcan0 00000002#487A50 R
(290562.990000) vcan0 00000001#497B51 R
(290563.229000) vcan0 00000002#4A7C52 R
(290563.464000) vcan0 00000001#4B7D53 R
(290563.708000) vcan0 00000002#4C7E54 R
(290563.944000) vcan0 00000001#4D7F55 R
(290564.180000) vcan0 00000002#4E8056 R
(290564.422000) vcan0 00000001#4F8157 R
(290564.666000) vcan0 00000002#508258 R
(290564.901000) vcan0 00000001#518359 R
(290565.137000) vcan0 00000002#52845A R
(290565.375000) vcan0 00000001#53855B R
(290565.611000) vcan0 00000002#54865C R
(290565.855000) vcan0 00000001#00875D R
(290566.090000) vcan0 00000002#01885E R
(290566.329000) vcan0 00000001#02895F R
(290566.564000) vcan0 00000002#038A60 R
(290566.808000) vcan0 00000001#048B61 R
(290567.044000) vcan0 00000002#058C62 R
(290567.285000) vcan0 00000001#068D63 R
(290567.521000) vcan0 00000002#078E64 R
(290567.765000) vcan0 00000001#088F65 R
(290568.000000) vcan0 00000002#099066 R
(290568.242000) vcan0 00000001#0A9167 R
(290568.478000) vcan0 00000002#0B9268 R
(290568.722000) vcan0 00000001#0C9369 R
(290568.958000) vcan0 00000002#0D946A R
(290569.193000) vcan0 00000001#0E956B R
(290569.434000) vcan0 00000002#0F966C R
(290569.678000) vcan0 00000001#10976D R
(290569.914000) vcan0 00000002#11986E R
(290570.150000) vcan0 00000001#12996F R
(290570.391000) vcan0 00000002#139A70 R
(290570.627000) vcan0 00000001#149B71 R
(290570.871000) vcan0 00000002#159C72 R
(290571.107000) vcan0 00000001#169D73 R
(290571.345000) vcan0 00000002#179E74 R
(290571.581000) vcan0 00000001#189F75 R
(290571.824000) vcan0 00000002#19A076 R
(290572.060000) vcan0 00000001#1AA177 R
(290572.302000) vcan0 00000002#1BA278 R
(290572.537000) vcan0 00000001#1CA379 R
(290572.781000) vcan0 00000002#1DA47A R
(290573.017000) vcan0 00000001#1EA57B R
(290573.259000) vcan0 00000002#1FA67C R
(290573.494000) vcan0 00000001#20A77D R
(290573.738000) vcan0 00000002#21A87E R
(290573.974000) vcan0 00000001#22A97F R
(290574.210000) vcan0 00000002#23AA80 R
(290574.451000) vcan0 00000001#245581 R
(290574.695000) vcan0 00000002#255682 R
(290574.931000) vcan0 00000001#265783 R
(290575.166000) vcan0 00000002#275884 R
(290575.408000) vcan0 00000001#285985 R
(290575.651000) vcan0 00000002#295A86 R
(290575.887000) vcan0 00000001#2A5B87 R
(290576.123000) vcan0 00000002#2B5C88 R
(290576.361000) vcan0 00000001#2C5D89 R
(290576.597000) vcan0 00000002#2D5E8A R
(290576.841000) vcan0 00000001#2E5F8B R
(290577.077000) vcan0 00000002#2F608C R
(290577.319000) vcan0 00000001#30618D R
(290577.554000) vcan0 00000002#31628E R
(290577.798000) vcan0 00000001#32638F R
(290578.034000) vcan0 00000002#336490 R
(290578.275000) vcan0 00000001#346591 R
(290578.510000) vcan0 00000002#356692 R
(290578.754000) vcan0 00000001#366793 R
(290578.990000) vcan0 00000002#376894 R
(290579.229000) vcan0 00000001#386995 R
(290579.464000) vcan0 00000002#396A96 R
(290579.708000) vcan0 00000001#3A6B97 R
(290579.944000) vcan0 00000002#3B6C98 R
(290580.180000) vcan0 00000001#3C6D99 R
(290580.422000) vcan0 00000002#3D6E9A R
(290580.666000) vcan0 00000001#3E6F9B R
(290580.901000) vcan0 00000002#3F709C R
(290581.137000) vcan0 00000001#40719D R
(290581.375000) vcan0 00000002#41729E R
(290581.611000) vcan0 00000001#42739F R
(290581.855000) vcan0 00000002#4374A0 R
(290582.090000) vcan0 00000001#4475A1 R
(290582.329000) vcan0 00000002#4576A2 R
(290582.564000) vcan0 00000001#4677A3 R
(290582.808000) vcan0 00000002#4778A4 R
(290583.044000) vcan0 00000001#4879A5 R
(290583.285000) vcan0 00000002#497AA6 R
(290583.521000) vcan0 00000001#4A7BA7 R
(290583.765000) vcan0 00000002#4B7CA8 R
(290584.000000) vcan0 00000001#4C7DA9 R
(290584.242000) vcan0 00000002#4D7EAA R
(290584.478000) vcan0 00000001#4E7FAB R
(290584.722000) vcan0 00000002#4F80AC R
(290584.958000) vcan0 00000001#5081AD R
(290585.194000) vcan0 00000002#5182AE R
(290585.434000) vcan0 00000001#5283AF R
(290585.678000) vcan0 00000002#5384B0 R
(290585.914000) vcan0 00000001#5485B1 R
(290586.150000) vcan0 00000002#0086B2 R
(290586.391000) vcan0 00000001#0187B3 R
(290586.627000) vcan0 00000002#0288B4 R
(290586.871000) vcan0 00000001#0389B5 R
(290587.107000) vcan0 00000002#048AB6 R
(290587.345000) vcan0 00000001#058BB7 R
(290587.581000) vcan0 00000002#068CB8 R
(290587.824000) vcan0 00000001#078DB9 R
(290588.060000) vcan0 00000002#088EBA R
(290588.302000) vcan0 00000001#098FBB R
(290588.537000) vcan0 00000002#0A90BC R
(290588.781000) vcan0 00000001#0B91BD R
(290589.017000) vcan0 00000002#0C92BE R
(290589.259000) vcan0 00000001#0D93BF R
(290589.494000) vcan0 00000002#0E94C0 R
(290589.738000) vcan0 00000001#0F95C1 R
(290589.974000) vcan0 00000002#1096C2 R
(290590.210000) vcan0 00000001#1197C3 R
(290590.451000) vcan0 00000002#1298C4 R
(290590.695000) vcan0 00000001#1399C5 R
(290590.931000) vcan0 00000002#149AC6 R
(290591.166000) vcan0 00000001#159BC7 R
(290591.408000) vcan0 00000002#169CC8 R
(290591.652000) vcan0 00000001#179DC9 R
(290591.887000) vcan0 00000002#189ECA R
(290592.123000) vcan0 00000001#199FCB R
(290592.361000) vcan0 00000002#1AA0CC R
(290592.597000) vcan0 00000001#1BA1CD R
(290592.840000) vcan0 00000002#1CA2CE R
(290593.076000) vcan0 00000001#1DA3CF R
(290593.318000) vcan0 00000002#1EA4D0 R
(290593.554000) vcan0 00000001#1FA5D1 R
(290593.797000) vcan0 00000002#20A6D2 R
(290594.033000) vcan0 00000001#21A7D3 R
(290594.275000) vcan0 00000002#22A8D4 R
(290594.511000) vcan0 00000001#23A9D5 R
(290594.755000) vcan0 00000002#24AAD6 R
(290594.990000) vcan0 00000001#2555D7 R
(290595.229000) vcan0 00000002#2656D8 R
(290595.464000) vcan0 00000001#2757D9 R
(290595.708000) vcan0 00000002#2858DA R
(290595.944000) vcan0 00000001#2959DB R
(290596.180000) vcan0 00000002#2A5ADC R
(290596.422000) vcan0 00000001#2B5BDD R
(290596.666000) vcan0 00000002#2C5CDE R
(290596.901000) vcan0 00000001#2D5DDF R
(290597.137000) vcan0 00000002#2E5EE0 R
(290597.375000) vcan0 00000001#2F5FE1 R
(290597.611000) vcan0 00000002#3060E2 R
(290597.855000) vcan0 00000001#3161E3 R
(290598.090000) vcan0 00000002#3262E4 R
(290598.329000) vcan0 00000001#3363E5 R
(290598.564000) vcan0 00000002#3464E6 R
(290598.808000) vcan0 00000001#3565E7 R
(290599.044000) vcan0 00000002#3666E8 R
(290599.285000) vcan0 00000001#3767E9 R
(290599.521000) vcan0 00000002#3868EA R
(290599.765000) vcan0 00000001#3969EB R
(290600.000000) vcan0 00000002#3A6AEC R
(290600.242000) vcan0 00000001#3B6BED R
(290600.478000) vcan0 00000002#3C6CEE R
(290600.722000) vcan0 00000001#3D6DEF R
(290600.958000) vcan0 00000002#3E6EF0 R
(290601.193000) vcan0 00000001#3F6FF1 R
(290601.434000) vcan0 00000002#4070F2 R
(290601.678000) vcan0 00000001#4171F3 R
(290601.914000) vcan0 00000002#4272F4 R
(290602.150000) vcan0 00000001#4373F5 R
(290602.391000) vcan0 00000002#4474F6 R
(290602.627000) vcan0 00000001#4575F7 R
(290602.871000) vcan0 00000002#4676F8 R
(290603.107000) vcan0 00000001#4777F9 R
(290603.345000) vcan0 00000002#4878FA R
(290603.581000) vcan0 00000001#4979FB R
(290603.825000) vcan0 00000002#4A7AFC R
(290604.061000) vcan0 00000001#4B7BFD R
(290604.302000) vcan0 00000002#4C7CFE R
(290604.537000) vcan0 00000001#4D7DFF R
(290604.781000) vcan0 00000002#4E7E00 R
(290605.017000) vcan0 00000001#4F7F01 R
(290605.258000) vcan0 00000002#508002 R
(290605.494000) vcan0 00000001#518103 R
(290605.738000) vcan0 00000002#528204 R
(290605.974000) vcan0 00000001#538305 R
(290606.210000) vcan0 00000002#548406 R
(290606.451000) vcan0 00000001#008507 R
(290606.695000) vcan0 00000002#018608 R
(290606.931000) vcan0 00000001#028709 R
(290607.166000) vcan0 00000002#03880A R
(290607.408000) vcan0 00000001#04890B R
(290607.651000) vcan0 00000002#058A0C R
(290607.887000) vcan0 00000001#068B0D R
(290608.123000) vcan0 00000002#078C0E R
(290608.361000) vcan0 00000001#088D0F R
(290608.597000) vcan0 00000002#098E10 R
(290608.840000) vcan0 00000001#0A8F11 R
(290609.076000) vcan0 00000002#0B9012 R
(290609.318000) vcan0 00000001#0C9113 R
(290609.554000) vcan0 00000002#0D9214 R
(290609.797000) vcan0 00000001#0E9315 R
(290610.033000) vcan0 00000002#0F9416 R
(290610.275000) vcan0 00000001#109517 R
(290610.511000) vcan0 00000002#119618 R
(290610.755000) vcan0 00000001#129719 R
(290610.990000) vcan0 00000002#13981A R
(290611.229000) vcan0 00000001#14991B R
(290611.464000) vcan0 00000002#159A1C R
(290611.708000) vcan0 00000001#169B1D R
(290611.944000) vcan0 00000002#179C1E R
(290612.180000) vcan0 00000001#189D1F R
(290612.421000) vcan0 00000002#199E20 R
(290612.665000) vcan0 00000001#1A9F21 R
(290612.901000) vcan0 00000002#1BA022 R
(290613.137000) vcan0 00000001#1CA123 R
(290613.375000) vcan0 00000002#1DA224 R
(290613.611000) vcan0 00000001#1EA325 R
(290613.855000) vcan0 00000002#1FA426 R
(290614.090000) vcan0 00000001#20A527 R
(290614.328000) vcan0 00000002#21A628 R
(290614.564000) vcan0 00000001#22A729 R
(290614.808000) vcan0 00000002#23A82A R
(290615.044000) vcan0 00000001#24A92B R
(290615.286000) vcan0 00000002#25AA2C R
(290615.521000) vcan0 00000001#26552D R
(290615.765000) vcan0 00000002#27562E R
(290616.001000) vcan0 00000001#28572F R
(290616.242000) vcan0 00000002#295830 R
(290616.478000) vcan0 00000001#2A5931 R
(290616.722000) vcan0 00000002#2B5A32 R
(290616.958000) vcan0 00000001#2C5B33 R
(290617.194000) vcan0 00000002#2D5C34 R
(290617.434000) vcan0 00000001#2E5D35 R
(290617.678000) vcan0 00000002#2F5E36 R
(290617.914000) vcan0 00000001#305F37 R
(290618.150000) vcan0 00000002#316038 R
(290618.391000) vcan0 00000001#326139 R
(290618.627000) vcan0 00000002#33623A R
(290618.871000) vcan0 00000001#34633B R
(290619.107000) vcan0 00000002#35643C R
(290619.345000) vcan0 00000001#36653D R
(290619.581000) vcan0 00000002#37663E R
(290619.824000) vcan0 00000001#38673F R
(290620.060000) vcan0 00000002#396840 R
(290620.302000) vcan0 00000001#3A6941 R
(290620.537000) vcan0 00000002#3B6A42 R
(290620.781000) vcan0 00000001#3C6B43 R
(290621.017000) vcan0 00000002#3D6C44 R
(290621.259000) vcan0 00000001#3E6D45 R
(290621.494000) vcan0 00000002#3F6E46 R
(290621.738000) vcan0 00000001#406F47 R
(290621.974000) vcan0 00000002#417048 R
(290622.210000) vcan0 00000001#427149 R
(290622.451000) vcan0 00000002#43724A R
(290622.695000) vcan0 00000001#44734B R
(290622.931000) vcan0 00000002#45744C R
(290623.166000) vcan0 00000001#46754D R
(290623.408000) vcan0 00000002#47764E R
(290623.652000) vcan0 00000001#48774F R
(290623.887000) vcan0 00000002#497850 R
(290624.123000) vcan0 00000001#4A7951 R
(290624.361000) vcan0 00000002#4B7A52 R
(290624.597000) vcan0 00000001#4C7B53 R
(290624.840000) vcan0 00000002#4D7C54 R
(290625.076000) vcan0 00000001#4E7D55 R
(290625.318000) vcan0 00000002#4F7E56 R
(290625.554000) vcan0 00000001#507F57 R
(290625.797000) vcan0 00000002#518058 R
(290626.033000) vcan0 00000001#528159 R
(290626.275000) vcan0 00000002#53825A R
(290626.511000) vcan0 00000001#54835B R
(290626.755000) vcan0 00000002#00845C R
(290626.990000) vcan0 00000001#01855D R
(290627.229000) vcan0 00000002#02865E R
(290627.464000) vcan0 00000001#03875F R
(290627.708000) vcan0 00000002#048860 R
(290627.944000) vcan0 00000001#058961 R
(290628.180000) vcan0 00000002#068A62 R
(290628.422000) vcan0 00000001#078B63 R
(290628.666000) vcan0 00000002#088C64 R
(290628.901000) vcan0 00000001#098D65 R
(290629.137000) vcan0 00000002#0A8E66 R
(290629.375000) vcan0 00000001#0B8F67 R
(290629.611000) vcan0 00000002#0C9068 R
(290629.855000) vcan0 00000001#0D9169 R
(290630.090000) vcan0 00000002#0E926A R
(290630.329000) vcan0 00000001#0F936B R
(290630.564000) vcan0 00000002#10946C R
(290630.808000) vcan0 00000001#11956D R
(290631.044000) vcan0 00000002#12966E R
(290631.285000) vcan0 00000001#13976F R
(290631.521000) vcan0 00000002#149870 R
(290631.765000) vcan0 00000001#159971 R
(290632.000000) vcan0 00000002#169A72 R
(290632.242000) vcan0 00000001#179B73 R
(290632.478000) vcan0 00000002#189C74 R
(290632.722000) vcan0 00000001#199D75 R
(290632.958000) vcan0 00000002#1A9E76 R
(290633.193000) vcan0 00000001#1B9F77 R
(290633.434000) vcan0 00000002#1CA078 R
(290633.678000) vcan0 00000001#1DA179 R
(290633.914000) vcan0 00000002#1EA27A R
(290634.150000) vcan0 00000001#1FA37B R
(290634.391000) vcan0 00000002#20A47C R
(290634.627000) vcan0 00000001#21A57D R
(290634.871000) vcan0 00000002#22A67E R
(290635.107000) vcan0 00000001#23A77F R
(290635.345000) vcan0 00000002#24A880 R
(290635.581000) vcan0 00000001#25A981 R
(290635.825000) vcan0 00000002#26AA82 R
(290636.061000) vcan0 00000001#275583 R
(290636.302000) vcan0 00000002#285684 R
(290636.537000) vcan0 00000001#295785 R
(290636.781000) vcan0 00000002#2A5886 R
(290637.017000) vcan0 00000001#2B5987 R
(290637.258000) vcan0 00000002#2C5A88 R
(290637.494000) vcan0 00000001#2D5B89 R
(290637.738000) vcan0 00000002#2E5C8A R
(290637.974000) vcan0 00000001#2F5D8B R
(290638.210000) vcan0 00000002#305E8C R
(290638.451000) vcan0 00000001#315F8D R
(290638.695000) vcan0 00000002#32608E R
(290638.931000) vcan0 00000001#33618F R
(290639.166000) vcan0 00000002#346290 R
(290639.408000) vcan0 00000001#356391 R
(290639.651000) vcan0 00000002#366492 R
(290639.887000) vcan0 00000001#376593 R
(290640.123000) vcan0 00000002#386694 R
(290640.361000) vcan0 00000001#396795 R
(290640.597000) vcan0 00000002#3A6896 R
(290640.840000) vcan0 00000001#3B6997 R
(290641.076000) vcan0 00000002#3C6A98 R
(290641.318000) vcan0 00000001#3D6B99 R
(290641.554000) vcan0 00000002#3E6C9A R
(290641.797000) vcan0 00000001#3F6D9B R
(290642.033000) vcan0 00000002#406E9C R
(290642.275000) vcan0 00000001#416F9D R
(290642.511000) vcan0 00000002#42709E R
(290642.755000) vcan0 00000001#43719F R
(290642.990000) vcan0 00000002#4472A0 R
(290643.229000) vcan0 00000001#4573A1 R
(290643.464000) vcan0 00000002#4674A2 R
(290643.708000) vcan0 00000001#4775A3 R
(290643.944000) vcan0 00000002#4876A4 R
(290644.180000) vcan0 00000001#4977A5 R
(290644.421000) vcan0 00000002#4A78A6 R
(290644.665000) vcan0 00000001#4B79A7 R
(290644.901000) vcan0 00000002#4C7AA8 R
(290645.137000) vcan0 00000001#4D7BA9 R
(290645.375000) vcan0 00000002#4E7CAA R
(290645.611000) vcan0 00000001#4F7DAB R
(290645.855000) vcan0 00000002#507EAC R
(290646.090000) vcan0 00000001#517FAD R
(290646.328000) vcan0 00000002#5280AE R
(290646.564000) vcan0 00000001#5381AF R
(290646.808000) vcan0 00000002#5482B0 R
(290647.044000) vcan0 00000001#0083B1 R
(290647.286000) vcan0 00000002#0184B2 R
(290647.521000) vcan0 00000001#0285B3 R
(290647.765000) vcan0 00000002#0386B4 R
(290648.001000) vcan0 00000001#0487B5 R
(290648.243000) vcan0 00000002#0588B6 R
(290648.478000) vcan0 00000001#0689B7 R
(290648.722000) vcan0 00000002#078AB8 R
(290648.958000) vcan0 00000001#088BB9 R
(290649.194000) vcan0 00000002#098CBA R
(290649.434000) vcan0 00000001#0A8DBB R
(290649.678000) vcan0 00000002#0B8EBC R
(290649.914000) vcan0 00000001#0C8FBD R
(290650.150000) vcan0 00000002#0D90BE R
(290650.391000) vcan0 00000001#0E91BF R
(290650.627000) vcan0 00000002#0F92C0 R
(290650.871000) vcan0 00000001#1093C1 R
(290651.107000) vcan0 00000002#1194C2 R
(290651.344000) vcan0 00000001#1295C3 R
(290651.580000) vcan0 00000002#1396C4 R
(290651.824000) vcan0 00000001#1497C5 R
(290652.060000) vcan0 00000002#1598C6 R
(290652.302000) vcan0 00000001#1699C7 R
(290652.537000) vcan0 00000002#179AC8 R
(290652.781000) vcan0 00000001#189BC9 R
(290653.017000) vcan0 00000002#199CCA R
(290653.258000) vcan0 00000001#1A9DCB R
(290653.494000) vcan0 00000002#1B9ECC R
(290653.738000) vcan0 00000001#1C9FCD R
(290653.974000) vcan0 00000002#1DA0CE R
(290654.210000) vcan0 00000001#1EA1CF R
(290654.451000) vcan0 00000002#1FA2D0 R
(290654.695000) vcan0 00000001#20A3D1 R
(290654.931000) vcan0 00000002#21A4D2 R
(290655.166000) vcan0 00000001#22A5D3 R
(290655.408000) vcan0 00000002#23A6D4 R
(290655.651000) vcan0 00000001#24A7D5 R
(290655.887000) vcan0 00000002#25A8D6 R
(290656.123000) vcan0 00000001#26A9D7 R
(290656.361000) vcan0 00000002#27AAD8 R
(290656.597000) vcan0 00000001#2855D9 R
(290656.841000) vcan0 00000002#2956DA R
(290657.077000) vcan0 00000001#2A57DB R
(290657.319000) vcan0 00000002#2B58DC R
(290657.554000) vcan0 00000001#2C59DD R
(290657.798000) vcan0 00000002#2D5ADE R
(290658.034000) vcan0 00000001#2E5BDF R
(290658.276000) vcan0 00000002#2F5CE0 R
(290658.511000) vcan0 00000001#305DE1 R
(290658.755000) vcan0 00000002#315EE2 R
(290658.991000) vcan0 00000001#325FE3 R
(290659.229000) vcan0 00000002#3360E4 R
(290659.465000) vcan0 00000001#3461E5 R
(290659.708000) vcan0 00000002#3562E6 R
(290659.944000) vcan0 00000001#3663E7 R
(290660.180000) vcan0 00000002#3764E8 R
(290660.422000) vcan0 00000001#3865E9 R
(290660.666000) vcan0 00000002#3966EA R
(290660.901000) vcan0 00000001#3A67EB R
(290661.137000) vcan0 00000002#3B68EC R
(290661.375000) vcan0 00000001#3C69ED R
(290661.611000) vcan0 00000002#3D6AEE R
(290661.855000) vcan0 00000001#3E6BEF R
(290662.090000) vcan0 00000002#3F6CF0 R
(290662.329000) vcan0 00000001#406DF1 R
(290662.564000) vcan0 00000002#416EF2 R
(290662.808000) vcan0 00000001#426FF3 R
(290663.044000) vcan0 00000002#4370F4 R
(290663.285000) vcan0 00000001#4471F5 R
(290663.521000) vcan0 00000002#4572F6 R
(290663.765000) vcan0 00000001#4673F7 R
(290664.000000) vcan0 00000002#4774F8 R
(290664.242000) vcan0 00000001#4875F9 R
(290664.478000) vcan0 00000002#4976FA R
(290664.722000) vcan0 00000001#4A77FB R
(290664.958000) vcan0 00000002#4B78FC R
(290665.194000) vcan0 00000001#4C79FD R
(290665.434000) vcan0 00000002#4D7AFE R
(290665.678000) vcan0 00000001#4E7BFF R
(290665.914000) vcan0 00000002#4F7C00 R
(290666.150000) vcan0 00000001#507D01 R
(290666.391000) vcan0 00000002#517E02 R
(290666.627000) vcan0 00000001#527F03 R
(290666.871000) vcan0 00000002#538004 R
(290667.107000) vcan0 00000001#548105 R
(290667.345000) vcan0 00000002#008206 R
(290667.581000) vcan0 00000001#018307 R
(290667.825000) vcan0 00000002#028408 R
(290668.061000) vcan0 00000001#038509 R
(290668.302000) vcan0 00000002#04860A R
(290668.537000) vcan0 00000001#05870B R
(290668.781000) vcan0 00000002#06880C R
(290669.017000) vcan0 00000001#07890D R
(290669.258000) vcan0 00000002#088A0E R
(290669.494000) vcan0 00000001#098B0F R
(290669.738000) vcan0 00000002#0A8C10 R
(290669.974000) vcan0 00000001#0B8D11 R
(290670.210000) vcan0 00000002#0C8E12 R
(290670.451000) vcan0 00000001#0D8F13 R
(290670.695000) vcan0 00000002#0E9014 R
(290670.931000) vcan0 00000001#0F9115 R
(290671.166000) vcan0 00000002#109216 R
(290671.408000) vcan0 00000001#119317 R
(290671.651000) vcan0 00000002#129418 R
(290671.887000) vcan0 00000001#139519 R
(290672.123000) vcan0 00000002#14961A R
(290672.361000) vcan0 00000001#15971B R
(290672.597000) vcan0 00000002#16981C R
(290672.840000) vcan0 00000001#17991D R
(290673.076000) vcan0 00000002#189A1E R
(290673.318000) vcan0 00000001#199B1F R
(290673.554000) vcan0 00000002#1A9C20 R
(290673.797000) vcan0 00000001#1B9D21 R
(290674.033000) vcan0 00000002#1C9E22 R
(290674.275000) vcan0 00000001#1D9F23 R
(290674.511000) vcan0 00000002#1EA024 R
(290674.755000) vcan0 00000001#1FA125 R
(290674.990000) vcan0 00000002#20A226 R
(290675.229000) vcan0 00000001#21A327 R
(290675.464000) vcan0 00000002#22A428 R
(290675.708000) vcan0 00000001#23A529 R
(290675.944000) vcan0 00000002#24A62A R
(290676.180000) vcan0 00000001#25A72B R
(290676.421000) vcan0 00000002#26A82C R
(290676.665000) vcan0 00000001#27A92D R
(290676.901000) vcan0 00000002#28AA2E R
(290677.137000) vcan0 00000001#29552F R
(290677.375000) vcan0 00000002#2A5630 R
(290677.611000) vcan0 00000001#2B5731 R
(290677.854000) vcan0 00000002#2C5832 R
(290678.090000) vcan0 00000001#2D5933 R
(290678.328000) vcan0 00000002#2E5A34 R
(290678.564000) vcan0 00000001#2F5B35 R
(290678.808000) vcan0 00000002#305C36 R
(290679.044000) vcan0 00000001#315D37 R
(290679.285000) vcan0 00000002#325E38 R
(290679.521000) vcan0 00000001#335F39 R
(290679.765000) vcan0 00000002#34603A R
(290680.000000) vcan0 00000001#35613B R
(290680.242000) vcan0 00000002#36623C R
(290680.478000) vcan0 00000001#37633D R
(290680.722000) vcan0 00000002#38643E R
(290680.958000) vcan0 00000001#39653F R
(290681.193000) vcan0 00000002#3A6640 R
(290681.434000) vcan0 00000001#3B6741 R
(290681.678000) vcan0 00000002#3C6842 R
(290681.914000) vcan0 00000001#3D6943 R
(290682.150000) vcan0 00000002#3E6A44 R
(290682.391000) vcan0 00000001#3F6B45 R
(290682.627000) vcan0 00000002#406C46 R
(290682.871000) vcan0 00000001#416D47 R
(290683.107000) vcan0 00000002#426E48 R
(290683.345000) vcan0 00000001#436F49 R
(290683.581000) vcan0 00000002#44704A R
(290683.824000) vcan0 00000001#45714B R
(290684.060000) vcan0 00000002#46724C R
(290684.302000) vcan0 00000001#47734D R
(290684.537000) vcan0 00000002#48744E R
(290684.781000) vcan0 00000001#49754F R
(290685.017000) vcan0 00000002#4A7650 R
(290685.259000) vcan0 00000001#4B7751 R
(290685.494000) vcan0 00000002#4C7852 R
(290685.738000) vcan0 00000001#4D7953 R
(290685.974000) vcan0 00000002#4E7A54 R
(290686.210000) vcan0 00000001#4F7B55 R
(290686.451000) vcan0 00000002#507C56 R
(290686.695000) vcan0 00000001#517D57 R
(290686.931000) vcan0 00000002#527E58 R
(290687.166000) vcan0 00000001#537F59 R
(290687.408000) vcan0 00000002#54805A R
(290687.652000) vcan0 00000001#00815B R
(290687.887000) vcan0 00000002#01825C R
(290688.123000) vcan0 00000001#02835D R
(290688.361000) vcan0 00000002#03845E R
(290688.597000) vcan0 00000001#04855F R
(290688.840000) vcan0 00000002#058660 R
(290689.076000) vcan0 00000001#068761 R
(290689.318000) vcan0 00000002#078862 R
(290689.554000) vcan0 00000001#088963 R
(290689.797000) vcan0 00000002#098A64 R
(290690.033000) vcan0 00000001#0A8B65 R
(290690.275000) vcan0 00000002#0B8C66 R
(290690.511000) vcan0 00000001#0C8D67 R
(290690.755000) vcan0 00000002#0D8E68 R
(290690.990000) vcan0 00000001#0E8F69 R
(290691.229000) vcan0 00000002#0F906A R
(290691.464000) vcan0 00000001#10916B R
(290691.708000) vcan0 00000002#11926C R
(290691.944000) vcan0 00000001#12936D R
(290692.180000) vcan0 00000002#13946E R
(290692.422000) vcan0 00000001#14956F R
(290692.666000) vcan0 00000002#159670 R
(290692.901000) vcan0 00000001#169771 R
(290693.137000) vcan0 00000002#179872 R
(290693.375000) vcan0 00000001#189973 R
(290693.611000) vcan0 00000002#199A74 R
(290693.855000) vcan0 00000001#1A9B75 R
(290694.090000) vcan0 00000002#1B9C76 R
(290694.329000) vcan0 00000001#1C9D77 R
(290694.564000) vcan0 00000002#1D9E78 R
(290694.808000) vcan0 00000001#1E9F79 R
(290695.044000) vcan0 00000002#1FA07A R
(290695.285000) vcan0 00000001#20A17B R
(290695.521000) vcan0 00000002#21A27C R
(290695.765000) vcan0 00000001#22A37D R
(290696.000000) vcan0 00000002#23A47E R
(290696.242000) vcan0 00000001#24A57F R
(290696.478000) vcan0 00000002#25A680 R
(290696.722000) vcan0 00000001#26A781 R
(290696.958000) vcan0 00000002#27A882 R
(290697.194000) vcan0 00000001#28A983 R
(290697.434000) vcan0 00000002#29AA84 R
(290697.678000) vcan0 00000001#2A5585 R
(290697.914000) vcan0 00000002#2B5686 R
(290698.150000) vcan0 00000001#2C5787 R
(290698.391000) vcan0 00000002#2D5888 R
(290698.627000) vcan0 00000001#2E5989 R
(290698.871000) vcan0 00000002#2F5A8A R
(290699.107000) vcan0 00000001#305B8B R
(290699.345000) vcan0 00000002#315C8C R
(290699.581000) vcan0 00000001#325D8D R
(290699.824000) vcan0 00000002#335E8E R
(290700.060000) vcan0 00000001#345F8F R
(290700.302000) vcan0 00000002#356090 R
(290700.537000) vcan0 00000001#366191 R
(290700.781000) vcan0 00000002#376292 R
(290701.017000) vcan0 00000001#386393 R
(290701.259000) vcan0 00000002#396494 R
(290701.494000) vcan0 00000001#3A6595 R
(290701.738000) vcan0 00000002#3B6696 R
(290701.974000) vcan0 00000001#3C6797 R
(290702.210000) vcan0 00000002#3D6898 R
(290702.451000) vcan0 00000001#3E6999 R
(290702.695000) vcan0 00000002#3F6A9A R
(290702.931000) vcan0 00000001#406B9B R
(290703.166000) vcan0 00000002#416C9C R
(290703.408000) vcan0 00000001#426D9D R
(290703.651000) vcan0 00000002#436E9E R
(290703.887000) vcan0 00000001#446F9F R
(290704.123000) vcan0 00000002#4570A0 R
(290704.361000) vcan0 00000001#4671A1 R
(290704.597000) vcan0 00000002#4772A2 R
(290704.841000) vcan0 00000001#4873A3 R
(290705.077000) vcan0 00000002#4974A4 R
(290705.319000) vcan0 00000001#4A75A5 R
(290705.554000) vcan0 00000002#4B76A6 R
(290705.798000) vcan0 00000001#4C77A7 R
(290706.034000) vcan0 00000002#4D78A8 R
(290706.275000) vcan0 00000001#4E79A9 R
(290706.510000) vcan0 00000002#4F7AAA R
(290706.754000) vcan0 00000001#507BAB R
(290706.990000) vcan0 00000002#517CAC R
(290707.229000) vcan0 00000001#527DAD R
(290707.464000) vcan0 00000002#537EAE R
(290707.708000) vcan0 00000001#547FAF R
(290707.944000) vcan0 00000002#0080B0 R
(290708.180000) vcan0 00000001#0181B1 R
(290708.422000) vcan0 00000002#0282B2 R
(290708.666000) vcan0 00000001#0383B3 R
(290708.901000) vcan0 00000002#0484B4 R
(290709.137000) vcan0 00000001#0585B5 R
(290709.375000) vcan0 00000002#0686B6 R
(290709.611000) vcan0 00000001#0787B7 R
(290709.855000) vcan0 00000002#0888B8 R
(290710.090000) vcan0 00000001#0989B9 R
(290710.329000) vcan0 00000002#0A8ABA R
(290710.564000) vcan0 00000001#0B8BBB R
(290710.808000) vcan0 00000002#0C8CBC R
(290711.044000) vcan0 00000001#0D8DBD R
(290711.285000) vcan0 00000002#0E8EBE R
(290711.521000) vcan0 00000001#0F8FBF R
(290711.765000) vcan0 00000002#1090C0 R
(290712.000000) vcan0 00000001#1191C1 R
(290712.242000) vcan0 00000002#1292C2 R
(290712.478000) vcan0 00000001#1393C3 R
(290712.722000) vcan0 00000002#1494C4 R
(290712.958000) vcan0 00000001#1595C5 R
(290713.194000) vcan0 00000002#1696C6 R
(290713.434000) vcan0 00000001#1797C7 R
(290713.678000) vcan0 00000002#1898C8 R
(290713.914000) vcan0 00000001#1999C9 R
(290714.150000) vcan0 00000002#1A9ACA R
(290714.391000) vcan0 00000001#1B9BCB R
(290714.627000) vcan0 00000002#1C9CCC R
(290714.871000) vcan0 00000001#1D9DCD R
(290715.107000) vcan0 00000002#1E9ECE R
(290715.345000) vcan0 00000001#1F9FCF R
(290715.581000) vcan0 00000002#20A0D0 R
(290715.825000) vcan0 00000001#21A1D1 R
(290716.061000) vcan0 00000002#22A2D2 R
(290716.302000) vcan0 00000001#23A3D3 R
(290716.538000) vcan0 00000002#24A4D4 R
(290716.782000) vcan0 00000001#25A5D5 R
(290717.017000) vcan0 00000002#26A6D6 R
(290717.258000) vcan0 00000001#27A7D7 R
(290717.494000) vcan0 00000002#28A8D8 R
(290717.738000) vcan0 00000001#29A9D9 R
(290717.974000) vcan0 00000002#2AAADA R
(290718.210000) vcan0 00000001#2B55DB R
(290718.451000) vcan0 00000002#2C56DC R
(290718.695000) vcan0 00000001#2D57DD R
(290718.931000) vcan0 00000002#2E58DE R
(290719.166000) vcan0 00000001#2F59DF R
(290719.408000) vcan0 00000002#305AE0 R
(290719.652000) vcan0 00000001#315BE1 R
(290719.887000) vcan0 00000002#325CE2 R
(290720.123000) vcan0 00000001#335DE3 R
(290720.361000) vcan0 00000002#345EE4 R
(290720.597000) vcan0 00000001#355FE5 R
(290720.840000) vcan0 00000002#3660E6 R
(290721.076000) vcan0 00000001#3761E7 R
(290721.318000) vcan0 00000002#3862E8 R
(290721.554000) vcan0 00000001#3963E9 R
(290721.797000) vcan0 00000002#3A64EA R
(290722.033000) vcan0 00000001#3B65EB R
(290722.275000) vcan0 00000002#3C66EC R
(290722.511000) vcan0 00000001#3D67ED R
(290722.755000) vcan0 00000002#3E68EE R
(290722.990000) vcan0 00000001#3F69EF R
(290723.229000) vcan0 00000002#406AF0 R
(290723.464000) vcan0 00000001#416BF1 R
(290723.708000) vcan0 00000002#426CF2 R
(290723.944000) vcan0 00000001#436DF3 R
(290724.180000) vcan0 00000002#446EF4 R
(290724.422000) vcan0 00000001#456FF5 R
(290724.666000) vcan0 00000002#4670F6 R
(290724.901000) vcan0 00000001#4771F7 R
(290725.137000) vcan0 00000002#4872F8 R
(290725.375000) vcan0 00000001#4973F9 R
(290725.611000) vcan0 00000002#4A74FA R
(290725.855000) vcan0 00000001#4B75FB R
(290726.090000) vcan0 00000002#4C76FC R
(290726.329000) vcan0 00000001#4D77FD R
(290726.564000) vcan0 00000002#4E78FE R
(290726.808000) vcan0 00000001#4F79FF R
(290727.044000) vcan0 00000002#507A00 R
(290727.285000) vcan0 00000001#517B01 R
(290727.521000) vcan0 00000002#527C02 R
(290727.765000) vcan0 00000001#537D03 R
(290728.000000) vcan0 00000002#547E04 R
(290728.242000) vcan0 00000001#007F05 R
(290728.478000) vcan0 00000002#018006 R
(290728.722000) vcan0 00000001#028107 R
(290728.958000) vcan0 00000002#038208 R
(290729.193000) vcan0 00000001#048309 R
(290729.434000) vcan0 00000002#05840A R
(290729.678000) vcan0 00000001#06850B R
(290729.914000) vcan0 00000002#07860C R
(290730.150000) vcan0 00000001#08870D R
(290730.391000) vcan0 00000002#09880E R
(290730.627000) vcan0 00000001#0A890F R
(290730.871000) vcan0 00000002#0B8A10 R
(290731.107000) vcan0 00000001#0C8B11 R
(290731.345000) vcan0 00000002#0D8C12 R
(290731.581000) vcan0 00000001#0E8D13 R
(290731.824000) vcan0 00000002#0F8E14 R
(290732.060000) vcan0 00000001#108F15 R
(290732.302000) vcan0 00000002#119016 R
(290732.537000) vcan0 00000001#129117 R
(290732.781000) vcan0 00000002#139218 R
(290733.017000) vcan0 00000001#149319 R
(290733.259000) vcan0 00000002#15941A R
(290733.494000) vcan0 00000001#16951B R
(290733.738000) vcan0 00000002#17961C R
(290733.974000) vcan0 00000001#18971D R
(290734.210000) vcan0 00000002#19981E R
(290734.451000) vcan0 00000001#1A991F R
(290734.695000) vcan0 00000002#1B9A20 R
(290734.931000) vcan0 00000001#1C9B21 R
(290735.166000) vcan0 00000002#1D9C22 R
(290735.408000) vcan0 00000001#1E9D23 R
(290735.651000) vcan0 00000002#1F9E24 R
(290735.887000) vcan0 00000001#209F25 R
(290736.123000) vcan0 00000002#21A026 R
(290736.361000) vcan0 00000001#22A127 R
(290736.597000) vcan0 00000002#23A228 R
(290736.841000) vcan0 00000001#24A329 R
(290737.077000) vcan0 00000002#25A42A R
(290737.319000) vcan0 00000001#26A52B R
(290737.554000) vcan0 00000002#27A62C R
(290737.798000) vcan0 00000001#28A72D R
(290738.034000) vcan0 00000002#29A82E R
(290738.275000) vcan0 00000001#2AA92F R
(290738.510000) vcan0 00000002#2BAA30 R
(290738.754000) vcan0 00000001#2C5531 R
(290738.990000) vcan0 00000002#2D5632 R
(290739.229000) vcan0 00000001#2E5733 R
(290739.464000) vcan0 00000002#2F5834 R
(290739.708000) vcan0 00000001#305935 R
(290739.944000) vcan0 00000002#315A36 R
(290740.180000) vcan0 00000001#325B37 R
(290740.422000) vcan0 00000002#335C38 R
(290740.666000) vcan0 00000001#345D39 R
(290740.901000) vcan0 00000002#355E3A R
(290741.137000) vcan0 00000001#365F3B R
(290741.375000) vcan0 00000002#37603C R
(290741.611000) vcan0 00000001#38613D R
(290741.855000) vcan0 00000002#39623E R
(290742.090000) vcan0 00000001#3A633F R
(290742.329000) vcan0 00000002#3B6440 R
(290742.564000) vcan0 00000001#3C6541 R
(290742.808000) vcan0 00000002#3D6642 R
(290743.044000) vcan0 00000001#3E6743 R
(290743.285000) vcan0 00000002#3F6844 R
(290743.521000) vcan0 00000001#406945 R
(290743.765000) vcan0 00000002#416A46 R
(290744.000000) vcan0 00000001#426B47 R
(290744.242000) vcan0 00000002#436C48 R
(290744.478000) vcan0 00000001#446D49 R
(290744.722000) vcan0 00000002#456E4A R
(290744.958000) vcan0 00000001#466F4B R
(290745.194000) vcan0 00000002#47704C R
(290745.434000) vcan0 00000001#48714D R
(290745.678000) vcan0 00000002#49724E R
(290745.914000) vcan0 00000001#4A734F R
(290746.150000) vcan0 00000002#4B7450 R
(290746.391000) vcan0 00000001#4C7551 R
(290746.627000) vcan0 00000002#4D7652 R
(290746.871000) vcan0 00000001#4E7753 R
(290747.107000) vcan0 00000002#4F7854 R
(290747.345000) vcan0 00000001#507955 R
(290747.581000) vcan0 00000002#517A56 R
(290747.825000) vcan0 00000001#527B57 R
(290748.061000) vcan0 00000002#537C58 R
(290748.302000) vcan0 00000001#547D59 R
(290748.538000) vcan0 00000002#007E5A R
(290748.781000) vcan0 00000001#017F5B R
(290749.017000) vcan0 00000002#02805C R
(290749.259000) vcan0 00000001#03815D R
(290749.495000) vcan0 00000002#04825E R
(290749.739000) vcan0 00000001#05835F R
(290749.975000) vcan0 00000002#068460 R
(290750.211000) vcan0 00000001#078561 R
(290750.451000) vcan0 00000002#088662 R
(290750.695000) vcan0 00000001#098763 R
(290750.931000) vcan0 00000002#0A8864 R
(290751.166000) vcan0 00000001#0B8965 R
(290751.408000) vcan0 00000002#0C8A66 R
(290751.651000) vcan0 00000001#0D8B67 R
(290751.887000) vcan0 00000002#0E8C68 R
(290752.123000) vcan0 00000001#0F8D69 R
(290752.361000) vcan0 00000002#108E6A R
(290752.597000) vcan0 00000001#118F6B R
(290752.841000) vcan0 00000002#12906C R
(290753.076000) vcan0 00000001#13916D R
(290753.318000) vcan0 00000002#14926E R
(290753.554000) vcan0 00000001#15936F R
(290753.798000) vcan0 00000002#169470 R
(290754.033000) vcan0 00000001#179571 R
(290754.275000) vcan0 00000002#189672 R
(290754.511000) vcan0 00000001#199773 R
(290754.755000) vcan0 00000002#1A9874 R
(290754.991000) vcan0 00000001#1B9975 R
(290755.228000) vcan0 00000002#1C9A76 R
(290755.464000) vcan0 00000001#1D9B77 R
(290755.708000) vcan0 00000002#1E9C78 R
(290755.944000) vcan0 00000001#1F9D79 R
(290756.180000) vcan0 00000002#209E7A R
(290756.421000) vcan0 00000001#219F7B R
(290756.665000) vcan0 00000002#22A07C R
(290756.901000) vcan0 00000001#23A17D R
(290757.137000) vcan0 00000002#24A27E R
(290757.375000) vcan0 00000001#25A37F R
(290757.611000) vcan0 00000002#26A480 R
(290757.855000) vcan0 00000001#27A581 R
(290758.090000) vcan0 00000002#28A682 R
(290758.328000) vcan0 00000001#29A783 R
(290758.564000) vcan0 00000002#2AA884 R
(290758.808000) vcan0 00000001#2BA985 R
(290759.044000) vcan0 00000002#2CAA86 R
(290759.285000) vcan0 00000001#2D5587 R
(290759.521000) vcan0 00000002#2E5688 R
(290759.765000) vcan0 00000001#2F5789 R
(290760.000000) vcan0 00000002#30588A R
(290760.242000) vcan0 00000001#31598B R
(290760.478000) vcan0 00000002#325A8C R
(290760.722000) vcan0 00000001#335B8D R
(290760.958000) vcan0 00000002#345C8E R
(290761.193000) vcan0 00000001#355D8F R
(290761.434000) vcan0 00000002#365E90 R
(290761.678000) vcan0 00000001#375F91 R
(290761.914000) vcan0 00000002#386092 R
(290762.150000) vcan0 00000001#396193 R
(290762.391000) vcan0 00000002#3A6294 R
(290762.627000) vcan0 00000001#3B6395 R
(290762.871000) vcan0 00000002#3C6496 R
(290763.107000) vcan0 00000001#3D6597 R
(290763.345000) vcan0 00000002#3E6698 R
(290763.581000) vcan0 00000001#3F6799 R
(290763.825000) vcan0 00000002#40689A R
(290764.061000) vcan0 00000001#41699B R
(290764.302000) vcan0 00000002#426A9C R
(290764.537000) vcan0 00000001#436B9D R
(290764.781000) vcan0 00000002#446C9E R
(290765.017000) vcan0 00000001#456D9F R
(290765.258000) vcan0 00000002#466EA0 R
(290765.494000) vcan0 00000001#476FA1 R
(290765.738000) vcan0 00000002#4870A2 R
(290765.974000) vcan0 00000001#4971A3 R
(290766.210000) vcan0 00000002#4A72A4 R
(290766.451000) vcan0 00000001#4B73A5 R
(290766.695000) vcan0 00000002#4C74A6 R
(290766.931000) vcan0 00000001#4D75A7 R
(290767.166000) vcan0 00000002#4E76A8 R
(290767.408000) vcan0 00000001#4F77A9 R
(290767.652000) vcan0 00000002#5078AA R
(290767.887000) vcan0 00000001#5179AB R
(290768.123000) vcan0 00000002#527AAC R
(290768.361000) vcan0 00000001#537BAD R
(290768.597000) vcan0 00000002#547CAE R
(290768.840000) vcan0 00000001#007DAF R
(290769.076000) vcan0 00000002#017EB0 R
(290769.318000) vcan0 00000001#027FB1 R
(290769.554000) vcan0 00000002#0380B2 R
(290769.797000) vcan0 00000001#0481B3 R
(290770.033000) vcan0 00000002#0582B4 R
(290770.275000) vcan0 00000001#0683B5 R
(290770.511000) vcan0 00000002#0784B6 R
(290770.755000) vcan0 00000001#0885B7 R
(290770.990000) vcan0 00000002#0986B8 R
(290771.229000) vcan0 00000001#0A87B9 R
(290771.464000) vcan0 00000002#0B88BA R
(290771.708000) vcan0 00000001#0C89BB R
(290771.944000) vcan0 00000002#0D8ABC R
(290772.180000) vcan0 00000001#0E8BBD R
(290772.422000) vcan0 00000002#0F8CBE R
(290772.666000) vcan0 00000001#108DBF R
(290772.901000) vcan0 00000002#118EC0 R
(290773.137000) vcan0 00000001#128FC1 R
(290773.375000) vcan0 00000002#1390C2 R
(290773.611000) vcan0 00000001#1491C3 R
(290773.855000) vcan0 00000002#1592C4 R
(290774.090000) vcan0 00000001#1693C5 R
(290774.329000) vcan0 00000002#1794C6 R
(290774.564000) vcan0 00000001#1895C7 R
(290774.808000) vcan0 00000002#1996C8 R
(290775.044000) vcan0 00000001#1A97C9 R
(290775.285000) vcan0 00000002#1B98CA R
(290775.521000) vcan0 00000001#1C99CB R
(290775.765000) vcan0 00000002#1D9ACC R
(290776.000000) vcan0 00000001#1E9BCD R
(290776.242000) vcan0 00000002#1F9CCE R
(290776.478000) vcan0 00000001#209DCF R
(290776.722000) vcan0 00000002#219ED0 R
(290776.958000) vcan0 00000001#229FD1 R
(290777.194000) vcan0 00000002#23A0D2 R
(290777.434000) vcan0 00000001#24A1D3 R
(290777.678000) vcan0 00000002#25A2D4 R
(290777.914000) vcan0 00000001#26A3D5 R
(290778.150000) vcan0 00000002#27A4D6 R
(290778.391000) vcan0 00000001#28A5D7 R
(290778.627000) vcan0 00000002#29A6D8 R
(290778.871000) vcan0 00000001#2AA7D9 R
(290779.107000) vcan0 00000002#2BA8DA R
(290779.345000) vcan0 00000001#2CA9DB R
(290779.581000) vcan0 00000002#2DAADC R
(290779.825000) vcan0 00000001#2E55DD R
(290780.061000) vcan0 00000002#2F56DE R
(290780.302000) vcan0 00000001#3057DF R
(290780.538000) vcan0 00000002#3158E0 R
(290780.781000) vcan0 00000001#3259E1 R
(290781.017000) vcan0 00000002#335AE2 R
(290781.259000) vcan0 00000001#345BE3 R
(290781.495000) vcan0 00000002#355CE4 R
(290781.739000) vcan0 00000001#365DE5 R
(290781.975000) vcan0 00000002#375EE6 R
(290782.211000) vcan0 00000001#385FE7 R
(290782.451000) vcan0 00000002#3960E8 R
(290782.695000) vcan0 00000001#3A61E9 R
(290782.931000) vcan0 00000002#3B62EA R
(290783.166000) vcan0 00000001#3C63EB R
(290783.408000) vcan0 00000002#3D64EC R
(290783.651000) vcan0 00000001#3E65ED R
(290783.887000) vcan0 00000002#3F66EE R
(290784.123000) vcan0 00000001#4067EF R
(290784.361000) vcan0 00000002#4168F0 R
(290784.597000) vcan0 00000001#4269F1 R
(290784.841000) vcan0 00000002#436AF2 R
(290785.076000) vcan0 00000001#446BF3 R
(290785.318000) vcan0 00000002#456CF4 R
(290785.554000) vcan0 00000001#466DF5 R
(290785.798000) vcan0 00000002#476EF6 R
(290786.033000) vcan0 00000001#486FF7 R
(290786.275000) vcan0 00000002#4970F8 R
(290786.511000) vcan0 00000001#4A71F9 R
(290786.755000) vcan0 00000002#4B72FA R
(290786.991000) vcan0 00000001#4C73FB R
(290787.228000) vcan0 00000002#4D74FC R
(290787.464000) vcan0 00000001#4E75FD R
(290787.708000) vcan0 00000002#4F76FE R
(290787.944000) vcan0 00000001#5077FF R
(290788.180000) vcan0 00000002#517800 R
(290788.421000) vcan0 00000001#527901 R
(290788.665000) vcan0 00000002#537A02 R
(290788.901000) vcan0 00000001#547B03 R
(290789.137000) vcan0 00000002#007C04 R
(290789.375000) vcan0 00000001#017D05 R
(290789.611000) vcan0 00000002#027E06 R
(290789.855000) vcan0 00000001#037F07 R
(290790.090000) vcan0 00000002#048008 R
(290790.328000) vcan0 00000001#058109 R
(290790.564000) vcan0 00000002#06820A R
(290790.808000) vcan0 00000001#07830B R
(290791.044000) vcan0 00000002#08840C R
(290791.285000) vcan0 00000001#09850D R
(290791.521000) vcan0 00000002#0A860E R
(290791.765000) vcan0 00000001#0B870F R
(290792.000000) vcan0 00000002#0C8810 R
(290792.242000) vcan0 00000001#0D8911 R
(290792.478000) vcan0 00000002#0E8A12 R
(290792.722000) vcan0 00000001#0F8B13 R
(290792.958000) vcan0 00000002#108C14 R
(290793.194000) vcan0 00000001#118D15 R
(290793.434000) vcan0 00000002#128E16 R
(290793.678000) vcan0 00000001#138F17 R
(290793.914000) vcan0 00000002#149018 R
(290794.150000) vcan0 00000001#159119 R
(290794.391000) vcan0 00000002#16921A R
(290794.627000) vcan0 00000001#17931B R
(290794.871000) vcan0 00000002#18941C R
(290795.107000) vcan0 00000001#19951D R
(290795.345000) vcan0 00000002#1A961E R
(290795.581000) vcan0 00000001#1B971F R
(290795.825000) vcan0 00000002#1C9820 R
(290796.061000) vcan0 00000001#1D9921 R
(290796.302000) vcan0 00000002#1E9A22 R
(290796.537000) vcan0 00000001#1F9B23 R
(290796.781000) vcan0 00000002#209C24 R
(290797.017000) vcan0 00000001#219D25 R
(290797.258000) vcan0 00000002#229E26 R
(290797.494000) vcan0 00000001#239F27 R
(290797.738000) vcan0 00000002#24A028 R
(290797.974000) vcan0 00000001#25A129 R
(290798.210000) vcan0 00000002#26A22A R
(290798.451000) vcan0 00000001#27A32B R
(290798.695000) vcan0 00000002#28A42C R
(290798.931000) vcan0 00000001#29A52D R
(290799.166000) vcan0 00000002#2AA62E R
(290799.408000) vcan0 00000001#2BA72F R
(290799.652000) vcan0 00000002#2CA830 R
(290799.887000) vcan0 00000001#2DA931 R
(290800.123000) vcan0 00000002#2EAA32 R
(290800.361000) vcan0 00000001#2F5533 R
(290800.597000) vcan0 00000002#305634 R
(290800.840000) vcan0 00000001#315735 R
(290801.076000) vcan0 00000002#325836 R
(290801.318000) vcan0 00000001#335937 R
(290801.554000) vcan0 00000002#345A38 R
(290801.797000) vcan0 00000001#355B39 R
(290802.033000) vcan0 00000002#365C3A R
(290802.275000) vcan0 00000001#375D3B R
(290802.511000) vcan0 00000002#385E3C R
(290802.755000) vcan0 00000001#395F3D R
(290802.990000) vcan0 00000002#3A603E R
(290803.229000) vcan0 00000001#3B613F R
(290803.464000) vcan0 00000002#3C6240 R
(290803.708000) vcan0 00000001#3D6341 R
(290803.944000) vcan0 00000002#3E6442 R
(290804.180000) vcan0 00000001#3F6543 R
(290804.422000) vcan0 00000002#406644 R
(290804.665000) vcan0 00000001#416745 R
(290804.901000) vcan0 00000002#426846 R
(290805.137000) vcan0 00000001#436947 R
(290805.375000) vcan0 00000002#446A48 R
(290805.611000) vcan0 00000001#456B49 R
(290805.854000) vcan0 00000002#466C4A R
(290806.090000) vcan0 00000001#476D4B R
(290806.328000) vcan0 00000002#486E4C R
(290806.564000) vcan0 00000001#496F4D R
(290806.808000) vcan0 00000002#4A704E R
(290807.044000) vcan0 00000001#4B714F R
(290807.285000) vcan0 00000002#4C7250 R
(290807.521000) vcan0 00000001#4D7351 R
(290807.765000) vcan0 00000002#4E7452 R
(290808.000000) vcan0 00000001#4F7553 R
(290808.242000) vcan0 00000002#507654 R
(290808.478000) vcan0 00000001#517755 R
(290808.722000) vcan0 00000002#527856 R
(290808.958000) vcan0 00000001#537957 R
(290809.193000) vcan0 00000002#547A58 R
(290809.434000) vcan0 00000001#007B59 R
(290809.678000) vcan0 00000002#017C5A R
(290809.914000) vcan0 00000001#027D5B R
(290810.150000) vcan0 00000002#037E5C R
(290810.391000) vcan0 00000001#047F5D R
(290810.627000) vcan0 00000002#05805E R
(290810.871000) vcan0 00000001#06815F R
(290811.107000) vcan0 00000002#078260 R
(290811.345000) vcan0 00000001#088361 R
(290811.581000) vcan0 00000002#098462 R
(290811.825000) vcan0 00000001#0A8563 R
(290812.061000) vcan0 00000002#0B8664 R
(290812.302000) vcan0 00000001#0C8765 R
(290812.538000) vcan0 00000002#0D8866 R
(290812.782000) vcan0 00000001#0E8967 R
(290813.017000) vcan0 00000002#0F8A68 R
(290813.258000) vcan0 00000001#108B69 R
(290813.494000) vcan0 00000002#118C6A R
(290813.738000) vcan0 00000001#128D6B R
(290813.974000) vcan0 00000002#138E6C R
(290814.210000) vcan0 00000001#148F6D R
(290814.451000) vcan0 00000002#15906E R
(290814.695000) vcan0 00000001#16916F R
(290814.931000) vcan0 00000002#179270 R
(290815.166000) vcan0 00000001#189371 R
(290815.408000) vcan0 00000002#199472 R
(290815.652000) vcan0 00000001#1A9573 R
(290815.887000) vcan0 00000002#1B9674 R
(290816.123000) vcan0 00000001#1C9775 R
(290816.361000) vcan0 00000002#1D9876 R
(290816.597000) vcan0 00000001#1E9977 R
(290816.840000) vcan0 00000002#1F9A78 R
(290817.076000) vcan0 00000001#209B79 R
(290817.318000) vcan0 00000002#219C7A R
(290817.554000) vcan0 00000001#229D7B R
(290817.797000) vcan0 00000002#239E7C R
(290818.033000) vcan0 00000001#249F7D R
(290818.275000) vcan0 00000002#25A07E R
(290818.511000) vcan0 00000001#26A17F R
(290818.755000) vcan0 00000002#27A280 R
(290818.990000) vcan0 00000001#28A381 R
(290819.229000) vcan0 00000002#29A482 R
(290819.464000) vcan0 00000001#2AA583 R
(290819.708000) vcan0 00000002#2BA684 R
(290819.944000) vcan0 00000001#2CA785 R
(290820.180000) vcan0 00000002#2DA886 R
(290820.422000) vcan0 00000001#2EA987 R
(290820.666000) vcan0 00000002#2FAA88 R
(290820.901000) vcan0 00000001#305589 R
(290821.137000) vcan0 00000002#31568A R
(290821.375000) vcan0 00000001#32578B R
(290821.611000) vcan0 00000002#33588C R
(290821.855000) vcan0 00000001#34598D R
(290822.090000) vcan0 00000002#355A8E R
(290822.329000) vcan0 00000001#365B8F R
(290822.564000) vcan0 00000002#375C90 R
(290822.808000) vcan0 00000001#385D91 R
(290823.044000) vcan0 00000002#395E92 R
(290823.285000) vcan0 00000001#3A5F93 R
(290823.521000) vcan0 00000002#3B6094 R
(290823.765000) vcan0 00000001#3C6195 R
(290824.000000) vcan0 00000002#3D6296 R
(290824.242000) vcan0 00000001#3E6397 R
(290824.478000) vcan0 00000002#3F6498 R
(290824.722000) vcan0 00000001#406599 R
(290824.958000) vcan0 00000002#41669A R
(290825.193000) vcan0 00000001#42679B R
(290825.434000) vcan0 00000002#43689C R
(290825.678000) vcan0 00000001#44699D R
(290825.914000) vcan0 00000002#456A9E R
(290826.150000) vcan0 00000001#466B9F R
(290826.391000) vcan0 00000002#476CA0 R
(290826.627000) vcan0 00000001#486DA1 R
(290826.871000) vcan0 00000002#496EA2 R
(290827.107000) vcan0 00000001#4A6FA3 R
(290827.345000) vcan0 00000002#4B70A4 R
(290827.581000) vcan0 00000001#4C71A5 R
(290827.825000) vcan0 00000002#4D72A6 R
(290828.061000) vcan0 00000001#4E73A7 R
(290828.302000) vcan0 00000002#4F74A8 R
(290828.537000) vcan0 00000001#5075A9 R
(290828.781000) vcan0 00000002#5176AA R
(290829.017000) vcan0 00000001#5277AB R
(290829.258000) vcan0 00000002#5378AC R
(290829.494000) vcan0 00000001#5479AD R
(290829.738000) vcan0 00000002#007AAE R
(290829.974000) vcan0 00000001#017BAF R
(290830.210000) vcan0 00000002#027CB0 R
(290830.451000) vcan0 00000001#037DB1 R
(290830.695000) vcan0 00000002#047EB2 R
(290830.931000) vcan0 00000001#057FB3 R
(290831.166000) vcan0 00000002#0680B4 R
(290831.408000) vcan0 00000001#0781B5 R
(290831.651000) vcan0 00000002#0882B6 R
(290831.887000) vcan0 00000001#0983B7 R
(290832.123000) vcan0 00000002#0A84B8 R
(290832.361000) vcan0 00000001#0B85B9 R
(290832.597000) vcan0 00000002#0C86BA R
(290832.840000) vcan0 00000001#0D87BB R
(290833.076000) vcan0 00000002#0E88BC R
(290833.318000) vcan0 00000001#0F89BD R
(290833.554000) vcan0 00000002#108ABE R
(290833.797000) vcan0 00000001#118BBF R
(290834.033000) vcan0 00000002#128CC0 R
(290834.275000) vcan0 00000001#138DC1 R
(290834.511000) vcan0 00000002#148EC2 R
(290834.755000) vcan0 00000001#158FC3 R
(290834.990000) vcan0 00000002#1690C4 R
(290835.229000) vcan0 00000001#1791C5 R
(290835.464000) vcan0 00000002#1892C6 R
(290835.708000) vcan0 00000001#1993C7 R
(290835.944000) vcan0 00000002#1A94C8 R
(290836.180000) vcan0 00000001#1B95C9 R
(290836.421000) vcan0 00000002#1C96CA R
(290836.665000) vcan0 00000001#1D97CB R
(290836.901000) vcan0 00000002#1E98CC R
(290837.137000) vcan0 00000001#1F99CD R
(290837.375000) vcan0 00000002#209ACE R
(290837.611000) vcan0 00000001#219BCF R
(290837.855000) vcan0 00000002#229CD0 R
(290838.090000) vcan0 00000001#239DD1 R
(290838.328000) vcan0 00000002#249ED2 R
(290838.564000) vcan0 00000001#259FD3 R
(290838.808000) vcan0 00000002#26A0D4 R
(290839.044000) vcan0 00000001#27A1D5 R
(290839.286000) vcan0 00000002#28A2D6 R
(290839.521000) vcan0 00000001#29A3D7 R
(290839.765000) vcan0 00000002#2AA4D8 R
(290840.001000) vcan0 00000001#2BA5D9 R
(290840.242000) vcan0 00000002#2CA6DA R
(290840.478000) vcan0 00000001#2DA7DB R
(290840.722000) vcan0 00000002#2EA8DC R
(290840.958000) vcan0 00000001#2FA9DD R
(290841.194000) vcan0 00000002#30AADE R
(290841.434000) vcan0 00000001#3155DF R
(290841.678000) vcan0 00000002#3256E0 R
(290841.914000) vcan0 00000001#3357E1 R
(290842.150000) vcan0 00000002#3458E2 R
(290842.391000) vcan0 00000001#3559E3 R
(290842.627000) vcan0 00000002#365AE4 R
(290842.871000) vcan0 00000001#375BE5 R
(290843.107000) vcan0 00000002#385CE6 R
(290843.345000) vcan0 00000001#395DE7 R
(290843.581000) vcan0 00000002#3A5EE8 R
(290843.825000) vcan0 00000001#3B5FE9 R
(290844.061000) vcan0 00000002#3C60EA R
(290844.302000) vcan0 00000001#3D61EB R
(290844.538000) vcan0 00000002#3E62EC R
(290844.782000) vcan0 00000001#3F63ED R
(290845.017000) vcan0 00000002#4064EE R
(290845.258000) vcan0 00000001#4165EF R
(290845.494000) vcan0 00000002#4266F0 R
(290845.738000) vcan0 00000001#4367F1 R
(290845.974000) vcan0 00000002#4468F2 R
(290846.210000) vcan0 00000001#4569F3 R
(290846.451000) vcan0 00000002#466AF4 R
(290846.695000) vcan0 00000001#476BF5 R
(290846.931000) vcan0 00000002#486CF6 R
(290847.166000) vcan0 00000001#496DF7 R
(290847.408000) vcan0 00000002#4A6EF8 R
(290847.652000) vcan0 00000001#4B6FF9 R
(290847.887000) vcan0 00000002#4C70FA R
(290848.123000) vcan0 00000001#4D71FB R
(290848.361000) vcan0 00000002#4E72FC R
(290848.597000) vcan0 00000001#4F73FD R
(290848.840000) vcan0 00000002#5074FE R
(290849.076000) vcan0 00000001#5175FF R
(290849.318000) vcan0 00000002#527600 R
(290849.554000) vcan0 00000001#537701 R
(290849.797000) vcan0 00000002#547802 R
(290850.033000) vcan0 00000001#007903 R
(290850.275000) vcan0 00000002#017A04 R
(290850.510000) vcan0 00000001#027B05 R
(290850.754000) vcan0 00000002#037C06 R
(290850.990000) vcan0 00000001#047D07 R
(290851.229000) vcan0 00000002#057E08 R
(290851.464000) vcan0 00000001#067F09 R
(290851.708000) vcan0 00000002#07800A R
(290851.944000) vcan0 00000001#08810B R
(290852.180000) vcan0 00000002#09820C R
(290852.422000) vcan0 00000001#0A830D R
(290852.666000) vcan0 00000002#0B840E R
(290852.901000) vcan0 00000001#0C850F R
(290853.137000) vcan0 00000002#0D8610 R
(290853.375000) vcan0 00000001#0E8711 R
(290853.611000) vcan0 00000002#0F8812 R
(290853.855000) vcan0 00000001#108913 R
(290854.090000) vcan0 00000002#118A14 R
(290854.329000) vcan0 00000001#128B15 R
(290854.564000) vcan0 00000002#138C16 R
(290854.808000) vcan0 00000001#148D17 R
(290855.044000) vcan0 00000002#158E18 R
(290855.285000) vcan0 00000001#168F19 R
(290855.521000) vcan0 00000002#17901A R
(290855.765000) vcan0 00000001#18911B R
(290856.000000) vcan0 00000002#19921C R
(290856.242000) vcan0 00000001#1A931D R
(290856.478000) vcan0 00000002#1B941E R
(290856.722000) vcan0 00000001#1C951F R
(290856.958000) vcan0 00000002#1D9620 R
(290857.194000) vcan0 00000001#1E9721 R
(290857.434000) vcan0 00000002#1F9822 R
(290857.678000) vcan0 00000001#209923 R
(290857.914000) vcan0 00000002#219A24 R
(290858.150000) vcan0 00000001#229B25 R
(290858.391000) vcan0 00000002#239C26 R
(290858.627000) vcan0 00000001#249D27 R
(290858.871000) vcan0 00000002#259E28 R
(290859.107000) vcan0 00000001#269F29 R
(290859.345000) vcan0 00000002#27A02A R
(290859.581000) vcan0 00000001#28A12B R
(290859.825000) vcan0 00000002#29A22C R
(290860.061000) vcan0 00000001#2AA32D R
(290860.302000) vcan0 00000002#2BA42E R
(290860.537000) vcan0 00000001#2CA52F R
(290860.781000) vcan0 00000002#2DA630 R
(290861.017000) vcan0 00000001#2EA731 R
(290861.258000) vcan0 00000002#2FA832 R
(290861.494000) vcan0 00000001#30A933 R
(290861.738000) vcan0 00000002#31AA34 R
(290861.974000) vcan0 00000001#325535 R
(290862.210000) vcan0 00000002#335636 R
(290862.451000) vcan0 00000001#345737 R
(290862.695000) vcan0 00000002#355838 R
(290862.931000) vcan0 00000001#365939 R
(290863.166000) vcan0 00000002#375A3A R
(290863.408000) vcan0 00000001#385B3B R
(290863.651000) vcan0 00000002#395C3C R
(290863.887000) vcan0 00000001#3A5D3D R
(290864.123000) vcan0 00000002#3B5E3E R
(290864.361000) vcan0 00000001#3C5F3F R
(290864.597000) vcan0 00000002#3D6040 R
(290864.840000) vcan0 00000001#3E6141 R
(290865.076000) vcan0 00000002#3F6242 R
(290865.318000) vcan0 00000001#406343 R
(290865.554000) vcan0 00000002#416444 R
(290865.797000) vcan0 00000001#426545 R
(290866.033000) vcan0 00000002#436646 R
(290866.275000) vcan0 00000001#446747 R
(290866.511000) vcan0 00000002#456848 R
(290866.755000) vcan0 00000001#466949 R
(290866.990000) vcan0 00000002#476A4A R
(290867.229000) vcan0 00000001#486B4B R
(290867.464000) vcan0 00000002#496C4C R
(290867.708000) vcan0 00000001#4A6D4D R
(290867.944000) vcan0 00000002#4B6E4E R
(290868.180000) vcan0 00000001#4C6F4F R
(290868.421000) vcan0 00000002#4D7050 R
(290868.665000) vcan0 00000001#4E7151 R
(290868.901000) vcan0 00000002#4F7252 R
(290869.137000) vcan0 00000001#507353 R
(290869.375000) vcan0 00000002#517454 R
(290869.611000) vcan0 00000001#527555 R
(290869.855000) vcan0 00000002#537656 R
(290870.090000) vcan0 00000001#547757 R
(290870.328000) vcan0 00000002#007858 R
(290870.564000) vcan0 00000001#017959 R
(290870.808000) vcan0 00000002#027A5A R
(290871.044000) vcan0 00000001#037B5B R
(290871.286000) vcan0 00000002#047C5C R
(290871.521000) vcan0 00000001#057D5D R
(290871.765000) vcan0 00000002#067E5E R
(290872.001000) vcan0 00000001#077F5F R
(290872.243000) vcan0 00000002#088060 R
(290872.478000) vcan0 00000001#098161 R
(290872.722000) vcan0 00000002#0A8262 R
(290872.958000) vcan0 00000001#0B8363 R
(290873.194000) vcan0 00000002#0C8464 R
(290873.434000) vcan0 00000001#0D8565 R
(290873.678000) vcan0 00000002#0E8666 R
(290873.914000) vcan0 00000001#0F8767 R
(290874.150000) vcan0 00000002#108868 R
(290874.391000) vcan0 00000001#118969 R
(290874.627000) vcan0 00000002#128A6A R
(290874.871000) vcan0 00000001#138B6B R
(290875.107000) vcan0 00000002#148C6C R
(290875.344000) vcan0 00000001#158D6D R
(290875.580000) vcan0 00000002#168E6E R
(290875.824000) vcan0 00000001#178F6F R
(290876.060000) vcan0 00000002#189070 R
(290876.302000) vcan0 00000001#199171 R
(290876.537000) vcan0 00000002#1A9272 R
(290876.781000) vcan0 00000001#1B9373 R
(290877.017000) vcan0 00000002#1C9474 R
(290877.258000) vcan0 00000001#1D9575 R
(290877.494000) vcan0 00000002#1E9676 R
(290877.738000) vcan0 00000001#1F9777 R
(290877.974000) vcan0 00000002#209878 R
(290878.210000) vcan0 00000001#219979 R
(290878.451000) vcan0 00000002#229A7A R
(290878.695000) vcan0 00000001#239B7B R
(290878.931000) vcan0 00000002#249C7C R
(290879.166000) vcan0 00000001#259D7D R
(290879.408000) vcan0 00000002#269E7E R
(290879.651000) vcan0 00000001#279F7F R
(290879.887000) vcan0 00000002#28A080 R
(290880.123000) vcan0 00000001#29A181 R
(290880.361000) vcan0 00000002#2AA282 R
(290880.597000) vcan0 00000001#2BA383 R
(290880.841000) vcan0 00000002#2CA484 R
(290881.077000) vcan0 00000001#2DA585 R
(290881.319000) vcan0 00000002#2EA686 R
(290881.554000) vcan0 00000001#2FA787 R
(290881.798000) vcan0 00000002#30A888 R
(290882.034000) vcan0 00000001#31A989 R
(290882.275000) vcan0 00000002#32AA8A R
(290882.510000) vcan0 00000001#33558B R
(290882.754000) vcan0 00000002#34568C R
(290882.990000) vcan0 00000001#35578D R
(290883.229000) vcan0 00000002#36588E R
(290883.464000) vcan0 00000001#37598F R
(290883.708000) vcan0 00000002#385A90 R
(290883.944000) vcan0 00000001#395B91 R
(290884.180000) vcan0 00000002#3A5C92 R
(290884.422000) vcan0 00000001#3B5D93 R
(290884.666000) vcan0 00000002#3C5E94 R
(290884.901000) vcan0 00000001#3D5F95 R
(290885.137000) vcan0 00000002#3E6096 R
(290885.375000) vcan0 00000001#3F6197 R
(290885.611000) vcan0 00000002#406298 R
(290885.855000) vcan0 00000001#416399 R
(290886.090000) vcan0 00000002#42649A R
(290886.329000) vcan0 00000001#43659B R
(290886.564000) vcan0 00000002#44669C R
(290886.808000) vcan0 00000001#45679D R
(290887.044000) vcan0 00000002#46689E R
(290887.285000) vcan0 00000001#47699F R
(290887.521000) vcan0 00000002#486AA0 R
(290887.765000) vcan0 00000001#496BA1 R
(290888.000000) vcan0 00000002#4A6CA2 R
(290888.242000) vcan0 00000001#4B6DA3 R
(290888.478000) vcan0 00000002#4C6EA4 R
(290888.722000) vcan0 00000001#4D6FA5 R
(290888.958000) vcan0 00000002#4E70A6 R
(290889.193000) vcan0 00000001#4F71A7 R
(290889.434000) vcan0 00000002#5072A8 R
(290889.678000) vcan0 00000001#5173A9 R
(290889.914000) vcan0 00000002#5274AA R
(290890.150000) vcan0 00000001#5375AB R
(290890.391000) vcan0 00000002#5476AC R
(290890.627000) vcan0 00000001#0077AD R
(290890.871000) vcan0 00000002#0178AE R
(290891.107000) vcan0 00000001#0279AF R
(290891.345000) vcan0 00000002#037AB0 R
(290891.580000) vcan0 00000001#047BB1 R
(290891.824000) vcan0 00000002#057CB2 R
(290892.060000) vcan0 00000001#067DB3 R
(290892.302000) vcan0 00000002#077EB4 R
(290892.538000) vcan0 00000001#087FB5 R
(290892.781000) vcan0 00000002#0980B6 R
(290893.017000) vcan0 00000001#0A81B7 R
(290893.259000) vcan0 00000002#0B82B8 R
(290893.495000) vcan0 00000001#0C83B9 R
(290893.739000) vcan0 00000002#0D84BA R
(290893.974000) vcan0 00000001#0E85BB R
(290894.211000) vcan0 00000002#0F86BC R
(290894.451000) vcan0 00000001#1087BD R
(290894.695000) vcan0 00000002#1188BE R
(290894.931000) vcan0 00000001#1289BF R
(290895.167000) vcan0 00000002#138AC0 R
(290895.408000) vcan0 00000001#148BC1 R
(290895.651000) vcan0 00000002#158CC2 R
(290895.887000) vcan0 00000001#168DC3 R
(290896.123000) vcan0 00000002#178EC4 R
(290896.361000) vcan0 00000001#188FC5 R
(290896.597000) vcan0 00000002#1990C6 R
(290896.841000) vcan0 00000001#1A91C7 R
(290897.076000) vcan0 00000002#1B92C8 R
(290897.318000) vcan0 00000001#1C93C9 R
(290897.554000) vcan0 00000002#1D94CA R
(290897.798000) vcan0 00000001#1E95CB R
(290898.033000) vcan0 00000002#1F96CC R
(290898.275000) vcan0 00000001#2097CD R
(290898.511000) vcan0 00000002#2198CE R
(290898.755000) vcan0 00000001#2299CF R
(290898.991000) vcan0 00000002#239AD0 R
(290899.229000) vcan0 00000001#249BD1 R
(290899.464000) vcan0 00000002#259CD2 R
(290899.708000) vcan0 00000001#269DD3 R
(290899.944000) vcan0 00000002#279ED4 R
(290900.180000) vcan0 00000001#289FD5 R
(290900.422000) vcan0 00000002#29A0D6 R
(290900.666000) vcan0 00000001#2AA1D7 R
(290900.901000) vcan0 00000002#2BA2D8 R
(290901.137000) vcan0 00000001#2CA3D9 R
(290901.375000) vcan0 00000002#2DA4DA R
(290901.611000) vcan0 00000001#2EA5DB R
(290901.855000) vcan0 00000002#2FA6DC R
(290902.090000) vcan0 00000001#30A7DD R
(290902.328000) vcan0 00000002#31A8DE R
(290902.564000) vcan0 00000001#32A9DF R
(290902.808000) vcan0 00000002#33AAE0 R
(290903.044000) vcan0 00000001#3455E1 R
(290903.286000) vcan0 00000002#3556E2 R
(290903.521000) vcan0 00000001#3657E3 R
(290903.765000) vcan0 00000002#3758E4 R
(290904.001000) vcan0 00000001#3859E5 R
(290904.242000) vcan0 00000002#395AE6 R
(290904.478000) vcan0 00000001#3A5BE7 R
(290904.722000) vcan0 00000002#3B5CE8 R
(290904.958000) vcan0 00000001#3C5DE9 R
(290905.194000) vcan0 00000002#3D5EEA R
(290905.434000) vcan0 00000001#3E5FEB R
(290905.678000) vcan0 00000002#3F60EC R
(290905.914000) vcan0 00000001#4061ED R
(290906.150000) vcan0 00000002#4162EE R
(290906.391000) vcan0 00000001#4263EF R
(290906.627000) vcan0 00000002#4364F0 R
(290906.871000) vcan0 00000001#4465F1 R
(290907.107000) vcan0 00000002#4566F2 R
(290907.345000) vcan0 00000001#4667F3 R
(290907.581000) vcan0 00000002#4768F4 R
(290907.824000) vcan0 00000001#4869F5 R
(290908.060000) vcan0 00000002#496AF6 R
(290908.302000) vcan0 00000001#4A6BF7 R
(290908.537000) vcan0 00000002#4B6CF8 R
(290908.781000) vcan0 00000001#4C6DF9 R
(290909.017000) vcan0 00000002#4D6EFA R
(290909.259000) vcan0 00000001#4E6FFB R
(290909.494000) vcan0 00000002#4F70FC R
(290909.738000) vcan0 00000001#5071FD R
(290909.974000) vcan0 00000002#5172FE R
(290910.210000) vcan0 00000001#5273FF R
(290910.451000) vcan0 00000002#537400 R
(290910.695000) vcan0 00000001#547501 R
(290910.931000) vcan0 00000002#007602 R
(290911.166000) vcan0 00000001#017703 R
(290911.408000) vcan0 00000002#027804 R
(290911.652000) vcan0 00000001#037905 R
(290911.887000) vcan0 00000002#047A06 R
(290912.123000) vcan0 00000001#057B07 R
(290912.361000) vcan0 00000002#067C08 R
(290912.597000) vcan0 00000001#077D09 R
(290912.841000) vcan0 00000002#087E0A R
(290913.077000) vcan0 00000001#097F0B R
(290913.319000) vcan0 00000002#0A800C R
(290913.554000) vcan0 00000001#0B810D R
(290913.798000) vcan0 00000002#0C820E R
(290914.034000) vcan0 00000001#0D830F R
(290914.275000) vcan0 00000002#0E8410 R
(290914.510000) vcan0 00000001#0F8511 R
(290914.754000) vcan0 00000002#108612 R
(290914.990000) vcan0 00000001#118713 R
(290915.229000) vcan0 00000002#128814 R
(290915.464000) vcan0 00000001#138915 R
(290915.708000) vcan0 00000002#148A16 R
(290915.944000) vcan0 00000001#158B17 R
(290916.180000) vcan0 00000002#168C18 R
(290916.422000) vcan0 00000001#178D19 R
(290916.666000) vcan0 00000002#188E1A R
(290916.901000) vcan0 00000001#198F1B R
(290917.137000) vcan0 00000002#1A901C R
(290917.375000) vcan0 00000001#1B911D R
(290917.611000) vcan0 00000002#1C921E R
(290917.855000) vcan0 00000001#1D931F R
(290918.090000) vcan0 00000002#1E9420 R
(290918.329000) vcan0 00000001#1F9521 R
(290918.564000) vcan0 00000002#209622 R
(290918.808000) vcan0 00000001#219723 R
(290919.044000) vcan0 00000002#229824 R
(290919.285000) vcan0 00000001#239925 R
(290919.521000) vcan0 00000002#249A26 R
(290919.765000) vcan0 00000001#259B27 R
(290920.000000) vcan0 00000002#269C28 R
(290920.242000) vcan0 00000001#279D29 R
(290920.478000) vcan0 00000002#289E2A R
(290920.722000) vcan0 00000001#299F2B R
(290920.958000) vcan0 00000002#2AA02C R
(290921.193000) vcan0 00000001#2BA12D R
(290921.434000) vcan0 00000002#2CA22E R
(290921.678000) vcan0 00000001#2DA32F R
(290921.914000) vcan0 00000002#2EA430 R
(290922.150000) vcan0 00000001#2FA531 R
(290922.391000) vcan0 00000002#30A632 R
(290922.627000) vcan0 00000001#31A733 R
(290922.871000) vcan0 00000002#32A834 R
(290923.107000) vcan0 00000001#33A935 R
(290923.345000) vcan0 00000002#34AA36 R
(290923.581000) vcan0 00000001#355537 R
(290923.825000) vcan0 00000002#365638 R
(290924.061000) vcan0 00000001#375739 R
(290924.302000) vcan0 00000002#38583A R
(290924.537000) vcan0 00000001#39593B R
(290924.781000) vcan0 00000002#3A5A3C R
(290925.017000) vcan0 00000001#3B5B3D R
(290925.258000) vcan0 00000002#3C5C3E R
(290925.494000) vcan0 00000001#3D5D3F R
(290925.738000) vcan0 00000002#3E5E40 R
(290925.974000) vcan0 00000001#3F5F41 R
(290926.210000) vcan0 00000002#406042 R
(290926.451000) vcan0 00000001#416143 R
(290926.695000) vcan0 00000002#426244 R
(290926.931000) vcan0 00000001#436345 R
(290927.166000) vcan0 00000002#446446 R
(290927.408000) vcan0 00000001#456547 R
(290927.651000) vcan0 00000002#466648 R
(290927.887000) vcan0 00000001#476749 R
(290928.123000) vcan0 00000002#48684A R
(290928.361000) vcan0 00000001#49694B R
(290928.597000) vcan0 00000002#4A6A4C R
(290928.840000) vcan0 00000001#4B6B4D R
(290929.076000) vcan0 00000002#4C6C4E R
(290929.318000) vcan0 00000001#4D6D4F R
(290929.554000) vcan0 00000002#4E6E50 R
(290929.797000) vcan0 00000001#4F6F51 R
(290930.033000) vcan0 00000002#507052 R
(290930.275000) vcan0 00000001#517153 R
(290930.511000) vcan0 00000002#527254 R
(290930.755000) vcan0 00000001#537355 R
(290930.990000) vcan0 00000002#547456 R
(290931.229000) vcan0 00000001#007557 R
(290931.464000) vcan0 00000002#017658 R
(290931.708000) vcan0 00000001#027759 R
(290931.944000) vcan0 00000002#03785A R
(290932.180000) vcan0 00000001#04795B R
(290932.422000) vcan0 00000002#057A5C R
(290932.666000) vcan0 00000001#067B5D R
(290932.901000) vcan0 00000002#077C5E R
(290933.137000) vcan0 00000001#087D5F R
(290933.375000) vcan0 00000002#097E60 R
(290933.611000) vcan0 00000001#0A7F61 R
(290933.855000) vcan0 00000002#0B8062 R
(290934.090000) vcan0 00000001#0C8163 R
(290934.329000) vcan0 00000002#0D8264 R
(290934.564000) vcan0 00000001#0E8365 R
(290934.808000) vcan0 00000002#0F8466 R
(290935.044000) vcan0 00000001#108567 R
