(57065.066000) vcan0 00000001#3855E5 R
(57065.308000) vcan0 00000002#3956E6 R
(57065.543000) vcan0 00000001#3A57E7 R
(57065.787000) vcan0 00000002#3B58E8 R
(57066.023000) vcan0 00000001#3C59E9 R
(57073.183000) vcan0 00000001#057707 R
(57073.424000) vcan0 00000002#067808 R
(57073.668000) vcan0 00000001#077909 R
(57073.904000) vcan0 00000002#087A0A R
(57074.140000) vcan0 00000001#097B0B R
(57074.381000) vcan0 00000002#0A7C0C R
(57074.617000) vcan0 00000001#0B7D0D R
(57074.861000) vcan0 00000002#0C7E0E R
(57075.097000) vcan0 00000001#0D7F0F R
(57075.335000) vcan0 00000002#0E8010 R
(57075.570000) vcan0 00000001#0F8111 R
(57075.814000) vcan0 00000002#108212 R
(57076.050000) vcan0 00000001#118313 R
(57076.291000) vcan0 00000002#128414 R
(57076.527000) vcan0 00000001#138515 R
(57076.771000) vcan0 00000002#148616 R
(57077.007000) vcan0 00000001#158717 R
(57077.248000) vcan0 00000002#168818 R
(57077.484000) vcan0 00000001#178919 R
(57077.728000) vcan0 00000002#188A1A R
(57077.964000) vcan0 00000001#198B1B R
(57078.200000) vcan0 00000002#1A8C1C R
(57078.441000) vcan0 00000001#1B8D1D R
(57078.685000) vcan0 00000002#1C8E1E R
(57078.920000) vcan0 00000001#1D8F1F R
(57079.156000) vcan0 00000002#1E9020 R
(57079.397000) vcan0 00000001#1F9121 R
(57079.641000) vcan0 00000002#209222 R
(57079.877000) vcan0 00000001#219323 R
(57080.113000) vcan0 00000002#229424 R
(57080.351000) vcan0 00000001#239525 R
(57080.587000) vcan0 00000002#249626 R
(57080.831000) vcan0 00000001#259727 R
(57081.067000) vcan0 00000002#269828 R
(57081.308000) vcan0 00000001#279929 R
(57081.544000) vcan0 00000002#289A2A R
(57081.788000) vcan0 00000001#299B2B R
(57082.024000) vcan0 00000002#2A9C2C R
(57082.264000) vcan0 00000001#2B9D2D R
(57082.500000) vcan0 00000002#2C9E2E R
(57082.744000) vcan0 00000001#2D9F2F R
(57082.980000) vcan0 00000002#2EA030 R
(57083.218000) vcan0 00000001#2FA131 R
(57083.454000) vcan0 00000002#30A232 R
(57083.698000) vcan0 00000001#31A333 R
(57083.934000) vcan0 00000002#32A434 R
(57084.170000) vcan0 00000001#33A535 R
(57084.412000) vcan0 00000002#34A636 R
(57084.655000) vcan0 00000001#35A737 R
(57084.891000) vcan0 00000002#36A838 R
(57085.127000) vcan0 00000001#37A939 R
(57085.365000) vcan0 00000002#38AA3A R
(57085.600000) vcan0 00000001#39553B R
(57085.844000) vcan0 00000002#3A563C R
(57086.080000) vcan0 00000001#3B573D R
(57086.318000) vcan0 00000002#3C583E R
(57086.554000) vcan0 00000001#3D593F R
(57086.798000) vcan0 00000002#3E5A40 R
(57087.033000) vcan0 00000001#3F5B41 R
(57087.275000) vcan0 00000002#405C42 R
(57087.511000) vcan0 00000001#415D43 R
(57087.755000) vcan0 00000002#425E44 R
(57087.990000) vcan0 00000001#435F45 R
(57088.232000) vcan0 00000002#446046 R
(57088.468000) vcan0 00000001#456147 R
(57088.712000) vcan0 00000002#466248 R
(57088.948000) vcan0 00000001#476349 R
(57089.183000) vcan0 00000002#48644A R
(57089.424000) vcan0 00000001#49654B R
(57089.668000) vcan0 00000002#4A664C R
(57089.904000) vcan0 00000001#4B674D R
(57090.140000) vcan0 00000002#4C684E R
(57090.381000) vcan0 00000001#4D694F R
(57090.617000) vcan0 00000002#4E6A50 R
(57090.861000) vcan0 00000001#4F6B51 R
(57091.097000) vcan0 00000002#506C52 R
(57091.335000) vcan0 00000001#516D53 R
(57091.570000) vcan0 00000002#526E54 R
(57091.814000) vcan0 00000001#536F55 R
(57092.050000) vcan0 00000002#547056 R
(57092.291000) vcan0 00000001#007157 R
(57092.527000) vcan0 00000002#017258 R
(57092.771000) vcan0 00000001#027359 R
(57093.007000) vcan0 00000002#03745A R
(57093.248000) vcan0 00000001#04755B R
(57093.484000) vcan0 00000002#05765C R
(57093.728000) vcan0 00000001#06775D R
(57093.964000) vcan0 00000002#07785E R
(57094.200000) vcan0 00000001#08795F R
(57094.440000) vcan0 00000002#097A60 R
(57094.684000) vcan0 00000001#0A7B61 R
(57094.920000) vcan0 00000002#0B7C62 R
(57095.156000) vcan0 00000001#0C7D63 R
(57095.397000) vcan0 00000002#0D7E64 R
(57095.641000) vcan0 00000001#0E7F65 R
(57095.877000) vcan0 00000002#0F8066 R
(57096.113000) vcan0 00000001#108167 R
(57096.351000) vcan0 00000002#118268 R
(57096.587000) vcan0 00000001#128369 R
(57096.831000) vcan0 00000002#13846A R
(57097.067000) vcan0 00000001#14856B R
(57097.308000) vcan0 00000002#15866C R
(57097.544000) vcan0 00000001#16876D R
(57097.788000) vcan0 00000002#17886E R
(57098.024000) vcan0 00000001#18896F R
(57098.264000) vcan0 00000002#198A70 R
(57098.500000) vcan0 00000001#1A8B71 R
(57098.744000) vcan0 00000002#1B8C72 R
(57098.980000) vcan0 00000001#1C8D73 R
(57099.218000) vcan0 00000002#1D8E74 R
(57099.454000) vcan0 00000001#1E8F75 R
(57099.698000) vcan0 00000002#1F9076 R
(57099.934000) vcan0 00000001#209177 R
(57100.170000) vcan0 00000002#219278 R
(57100.411000) vcan0 00000001#229379 R
(57100.655000) vcan0 00000002#23947A R
(57100.891000) vcan0 00000001#24957B R
(57101.127000) vcan0 00000002#25967C R
(57101.365000) vcan0 00000001#26977D R
(57101.600000) vcan0 00000002#27987E R
(57101.844000) vcan0 00000001#28997F R
(57102.080000) vcan0 00000002#299A80 R
(57102.318000) vcan0 00000001#2A9B81 R
(57102.554000) vcan0 00000002#2B9C82 R
(57102.798000) vcan0 00000001#2C9D83 R
(57103.033000) vcan0 00000002#2D9E84 R
(57103.275000) vcan0 00000001#2E9F85 R
(57103.511000) vcan0 00000002#2FA086 R
(57103.754000) vcan0 00000001#30A187 R
(57103.990000) vcan0 00000002#31A288 R
(57104.232000) vcan0 00000001#32A389 R
(57104.468000) vcan0 00000002#33A48A R
(57104.712000) vcan0 00000001#34A58B R
(57104.948000) vcan0 00000002#35A68C R
(57105.183000) vcan0 00000001#36A78D R
(57105.424000) vcan0 00000002#37A88E R
(57105.668000) vcan0 00000001#38A98F R
(57105.904000) vcan0 00000002#39AA90 R
(57106.140000) vcan0 00000001#3A5591 R
(57106.381000) vcan0 00000002#3B5692 R
(57106.617000) vcan0 00000001#3C5793 R
(57106.861000) vcan0 00000002#3D5894 R
(57107.097000) vcan0 00000001#3E5995 R
(57107.335000) vcan0 00000002#3F5A96 R
(57107.571000) vcan0 00000001#405B97 R
(57107.815000) vcan0 00000002#415C98 R
(57108.050000) vcan0 00000001#425D99 R
(57108.291000) vcan0 00000002#435E9A R
(57108.527000) vcan0 00000001#445F9B R
(57108.771000) vcan0 00000002#45609C R
(57109.006000) vcan0 00000001#46619D R
(57109.248000) vcan0 00000002#47629E R
(57109.484000) vcan0 00000001#48639F R
(57109.728000) vcan0 00000002#4964A0 R
(57109.964000) vcan0 00000001#4A65A1 R
(57110.200000) vcan0 00000002#4B66A2 R
(57110.441000) vcan0 00000001#4C67A3 R
(57110.685000) vcan0 00000002#4D68A4 R
(57110.920000) vcan0 00000001#4E69A5 R
(57111.156000) vcan0 00000002#4F6AA6 R
(57111.397000) vcan0 00000001#506BA7 R
(57111.641000) vcan0 00000002#516CA8 R
(57111.877000) vcan0 00000001#526DA9 R
(57112.113000) vcan0 00000002#536EAA R
(57112.351000) vcan0 00000001#546FAB R
(57112.587000) vcan0 00000002#0070AC R
(57112.831000) vcan0 00000001#0171AD R
(57113.067000) vcan0 00000002#0272AE R
(57113.308000) vcan0 00000001#0373AF R
(57113.544000) vcan0 00000002#0474B0 R
(57113.788000) vcan0 00000001#0575B1 R
(57114.023000) vcan0 00000002#0676B2 R
(57114.265000) vcan0 00000001#0777B3 R
(57114.501000) vcan0 00000002#0878B4 R
(57114.745000) vcan0 00000001#0979B5 R
(57114.981000) vcan0 00000002#0A7AB6 R
(57115.219000) vcan0 00000001#0B7BB7 R
(57115.454000) vcan0 00000002#0C7CB8 R
(57115.698000) vcan0 00000001#0D7DB9 R
(57115.934000) vcan0 00000002#0E7EBA R
(57116.170000) vcan0 00000001#0F7FBB R
(57116.412000) vcan0 00000002#1080BC R
(57116.655000) vcan0 00000001#1181BD R
(57116.891000) vcan0 00000002#1282BE R
(57117.127000) vcan0 00000001#1383BF R
(57117.365000) vcan0 00000002#1484C0 R
(57117.600000) vcan0 00000001#1585C1 R
(57117.844000) vcan0 00000002#1686C2 R
(57118.080000) vcan0 00000001#1787C3 R
(57118.318000) vcan0 00000002#1888C4 R
(57118.554000) vcan0 00000001#1989C5 R
(57118.798000) vcan0 00000002#1A8AC6 R
(57119.033000) vcan0 00000001#1B8BC7 R
(57119.275000) vcan0 00000002#1C8CC8 R
(57119.511000) vcan0 00000001#1D8DC9 R
(57119.755000) vcan0 00000002#1E8ECA R
(57119.990000) vcan0 00000001#1F8FCB R
(57120.232000) vcan0 00000002#2090CC R
(57120.468000) vcan0 00000001#2191CD R
(57120.712000) vcan0 00000002#2292CE R
(57120.948000) vcan0 00000001#2393CF R
(57121.184000) vcan0 00000002#2494D0 R
(57121.424000) vcan0 00000001#2595D1 R
(57121.668000) vcan0 00000002#2696D2 R
(57121.904000) vcan0 00000001#2797D3 R
(57122.140000) vcan0 00000002#2898D4 R
(57122.381000) vcan0 00000001#2999D5 R
(57122.617000) vcan0 00000002#2A9AD6 R
(57122.861000) vcan0 00000001#2B9BD7 R
(57123.097000) vcan0 00000002#2C9CD8 R
(57123.335000) vcan0 00000001#2D9DD9 R
(57123.571000) vcan0 00000002#2E9EDA R
(57123.815000) vcan0 00000001#2F9FDB R
(57124.050000) vcan0 00000002#30A0DC R
(57124.292000) vcan0 00000001#31A1DD R
(57124.528000) vcan0 00000002#32A2DE R
(57124.771000) vcan0 00000001#33A3DF R
(57125.007000) vcan0 00000002#34A4E0 R
(57125.248000) vcan0 00000001#35A5E1 R
(57125.484000) vcan0 00000002#36A6E2 R
(57125.728000) vcan0 00000001#37A7E3 R
(57125.964000) vcan0 00000002#38A8E4 R
(57126.200000) vcan0 00000001#39A9E5 R
(57126.441000) vcan0 00000002#3AAAE6 R
(57126.685000) vcan0 00000001#3B55E7 R
(57126.920000) vcan0 00000002#3C56E8 R
(57127.156000) vcan0 00000001#3D57E9 R
(57127.397000) vcan0 00000002#3E58EA R
(57127.641000) vcan0 00000001#3F59EB R
(57127.877000) vcan0 00000002#405AEC R
(57128.113000) vcan0 00000001#415BED R
(57128.351000) vcan0 00000002#425CEE R
(57128.587000) vcan0 00000001#435DEF R
(57128.830000) vcan0 00000002#445EF0 R
(57129.066000) vcan0 00000001#455FF1 R
(57129.308000) vcan0 00000002#4660F2 R
(57129.543000) vcan0 00000001#4761F3 R
(57129.787000) vcan0 00000002#4862F4 R
(57130.023000) vcan0 00000001#4963F5 R
(57130.265000) vcan0 00000002#4A64F6 R
(57130.500000) vcan0 00000001#4B65F7 R
(57130.744000) vcan0 00000002#4C66F8 R
(57130.980000) vcan0 00000001#4D67F9 R
(57131.218000) vcan0 00000002#4E68FA R
(57131.454000) vcan0 00000001#4F69FB R
(57131.698000) vcan0 00000002#506AFC R
(57131.934000) vcan0 00000001#516BFD R
(57132.170000) vcan0 00000002#526CFE R
(57132.412000) vcan0 00000001#536DFF R
(57132.655000) vcan0 00000002#546E00 R
(57132.891000) vcan0 00000001#006F01 R
(57133.127000) vcan0 00000002#017002 R
(57133.365000) vcan0 00000001#027103 R
(57133.601000) vcan0 00000002#037204 R
(57133.845000) vcan0 00000001#047305 R
(57134.080000) vcan0 00000002#057406 R
(57134.318000) vcan0 00000001#067507 R
(57134.554000) vcan0 00000002#077608 R
(57134.798000) vcan0 00000001#087709 R
(57135.033000) vcan0 00000002#09780A R
(57135.275000) vcan0 00000001#0A790B R
(57135.511000) vcan0 00000002#0B7A0C R
(57135.754000) vcan0 00000001#0C7B0D R
(57135.990000) vcan0 00000002#0D7C0E R
(57136.232000) vcan0 00000001#0E7D0F R
(57136.468000) vcan0 00000002#0F7E10 R
(57136.712000) vcan0 00000001#107F11 R
(57136.948000) vcan0 00000002#118012 R
(57137.183000) vcan0 00000001#128113 R
(57137.424000) vcan0 00000002#138214 R
(57137.668000) vcan0 00000001#148315 R
(57137.904000) vcan0 00000002#158416 R
(57138.140000) vcan0 00000001#168517 R
(57138.381000) vcan0 00000002#178618 R
(57138.617000) vcan0 00000001#188719 R
(57138.861000) vcan0 00000002#19881A R
(57139.096000) vcan0 00000001#1A891B R
(57139.335000) vcan0 00000002#1B8A1C R
(57139.571000) vcan0 00000001#1C8B1D R
(57139.815000) vcan0 00000002#1D8C1E R
(57140.050000) vcan0 00000001#1E8D1F R
(57140.292000) vcan0 00000002#1F8E20 R
(57140.528000) vcan0 00000001#208F21 R
(57140.771000) vcan0 00000002#219022 R
(57141.007000) vcan0 00000001#229123 R
(57141.248000) vcan0 00000002#239224 R
(57141.484000) vcan0 00000001#249325 R
(57141.728000) vcan0 00000002#259426 R
(57141.964000) vcan0 00000001#269527 R
(57142.200000) vcan0 00000002#279628 R
(57142.441000) vcan0 00000001#289729 R
(57142.685000) vcan0 00000002#29982A R
(57142.920000) vcan0 00000001#2A992B R
(57143.156000) vcan0 00000002#2B9A2C R
(57143.397000) vcan0 00000001#2C9B2D R
(57143.641000) vcan0 00000002#2D9C2E R
(57143.877000) vcan0 00000001#2E9D2F R
(57144.113000) vcan0 00000002#2F9E30 R
(57144.351000) vcan0 00000001#309F31 R
(57144.587000) vcan0 00000002#31A032 R
(57144.830000) vcan0 00000001#32A133 R
(57145.066000) vcan0 00000002#33A234 R
(57145.308000) vcan0 00000001#34A335 R
(57145.543000) vcan0 00000002#35A436 R
(57145.787000) vcan0 00000001#36A537 R
(57146.023000) vcan0 00000002#37A638 R
(57146.265000) vcan0 00000001#38A739 R
(57146.500000) vcan0 00000002#39A83A R
(57146.744000) vcan0 00000001#3AA93B R
(57146.980000) vcan0 00000002#3BAA3C R
(57147.218000) vcan0 00000001#3C553D R
(57147.454000) vcan0 00000002#3D563E R
(57147.698000) vcan0 00000001#3E573F R
(57147.934000) vcan0 00000002#3F5840 R
(57148.170000) vcan0 00000001#405941 R
(57148.412000) vcan0 00000002#415A42 R
(57148.655000) vcan0 00000001#425B43 R
(57148.891000) vcan0 00000002#435C44 R
(57149.127000) vcan0 00000001#445D45 R
(57149.365000) vcan0 00000002#455E46 R
(57149.600000) vcan0 00000001#465F47 R
(57149.844000) vcan0 00000002#476048 R
(57150.080000) vcan0 00000001#486149 R
(57150.318000) vcan0 00000002#49624A R
(57150.554000) vcan0 00000001#4A634B R
(57150.798000) vcan0 00000002#4B644C R
(57151.033000) vcan0 00000001#4C654D R
(57151.275000) vcan0 00000002#4D664E R
(57151.511000) vcan0 00000001#4E674F R
(57151.755000) vcan0 00000002#4F6850 R
(57151.990000) vcan0 00000001#506951 R
(57152.232000) vcan0 00000002#516A52 R
(57152.468000) vcan0 00000001#526B53 R
(57152.712000) vcan0 00000002#536C54 R
(57152.948000) vcan0 00000001#546D55 R
(57153.184000) vcan0 00000002#006E56 R
(57153.424000) vcan0 00000001#016F57 R
(57153.668000) vcan0 00000002#027058 R
(57153.904000) vcan0 00000001#037159 R
(57154.140000) vcan0 00000002#04725A R
(57154.381000) vcan0 00000001#05735B R
(57154.617000) vcan0 00000002#06745C R
(57154.861000) vcan0 00000001#07755D R
(57155.097000) vcan0 00000002#08765E R
(57155.335000) vcan0 00000001#09775F R
(57155.571000) vcan0 00000002#0A7860 R
(57155.815000) vcan0 00000001#0B7961 R
(57156.050000) vcan0 00000002#0C7A62 R
(57156.292000) vcan0 00000001#0D7B63 R
(57156.528000) vcan0 00000002#0E7C64 R
(57156.771000) vcan0 00000001#0F7D65 R
(57157.007000) vcan0 00000002#107E66 R
(57157.248000) vcan0 00000001#117F67 R
(57157.484000) vcan0 00000002#128068 R
(57157.728000) vcan0 00000001#138169 R
(57157.964000) vcan0 00000002#14826A R
(57158.200000) vcan0 00000001#15836B R
(57158.441000) vcan0 00000002#16846C R
(57158.685000) vcan0 00000001#17856D R
(57158.920000) vcan0 00000002#18866E R
(57159.156000) vcan0 00000001#19876F R
(57159.397000) vcan0 00000002#1A8870 R
(57159.641000) vcan0 00000001#1B8971 R
(57159.877000) vcan0 00000002#1C8A72 R
(57160.113000) vcan0 00000001#1D8B73 R
(57160.351000) vcan0 00000002#1E8C74 R
(57160.587000) vcan0 00000001#1F8D75 R
(57160.830000) vcan0 00000002#208E76 R
(57161.066000) vcan0 00000001#218F77 R
(57161.308000) vcan0 00000002#229078 R
(57161.543000) vcan0 00000001#239179 R
(57161.787000) vcan0 00000002#24927A R
(57162.023000) vcan0 00000001#25937B R
(57162.265000) vcan0 00000002#26947C R
(57162.500000) vcan0 00000001#27957D R
(57162.744000) vcan0 00000002#28967E R
(57162.980000) vcan0 00000001#29977F R
(57163.218000) vcan0 00000002#2A9880 R
(57163.454000) vcan0 00000001#2B9981 R
(57163.698000) vcan0 00000002#2C9A82 R
(57163.934000) vcan0 00000001#2D9B83 R
(57164.170000) vcan0 00000002#2E9C84 R
(57164.411000) vcan0 00000001#2F9D85 R
(57164.655000) vcan0 00000002#309E86 R
(57164.891000) vcan0 00000001#319F87 R
(57165.127000) vcan0 00000002#32A088 R
(57165.365000) vcan0 00000001#33A189 R
(57165.600000) vcan0 00000002#34A28A R
(57165.844000) vcan0 00000001#35A38B R
(57166.080000) vcan0 00000002#36A48C R
(57166.318000) vcan0 00000001#37A58D R
(57166.554000) vcan0 00000002#38A68E R
(57166.798000) vcan0 00000001#39A78F R
(57167.033000) vcan0 00000002#3AA890 R
(57167.275000) vcan0 00000001#3BA991 R
(57167.511000) vcan0 00000002#3CAA92 R
(57167.754000) vcan0 00000001#3D5593 R
(57167.990000) vcan0 00000002#3E5694 R
(57168.232000) vcan0 00000001#3F5795 R
(57168.468000) vcan0 00000002#405896 R
(57168.712000) vcan0 00000001#415997 R
(57168.947000) vcan0 00000002#425A98 R
(57169.183000) vcan0 00000001#435B99 R
(57169.424000) vcan0 00000002#445C9A R
(57169.668000) vcan0 00000001#455D9B R
(57169.904000) vcan0 00000002#465E9C R
(57170.140000) vcan0 00000001#475F9D R
(57170.381000) vcan0 00000002#48609E R
(57170.617000) vcan0 00000001#49619F R
(57170.861000) vcan0 00000002#4A62A0 R
(57171.097000) vcan0 00000001#4B63A1 R
(57171.335000) vcan0 00000002#4C64A2 R
(57171.571000) vcan0 00000001#4D65A3 R
(57171.815000) vcan0 00000002#4E66A4 R
(57172.050000) vcan0 00000001#4F67A5 R
(57172.291000) vcan0 00000002#5068A6 R
(57172.527000) vcan0 00000001#5169A7 R
(57172.771000) vcan0 00000002#526AA8 R
(57173.006000) vcan0 00000001#536BA9 R
(57173.248000) vcan0 00000002#546CAA R
(57173.484000) vcan0 00000001#006DAB R
(57173.728000) vcan0 00000002#016EAC R
(57173.964000) vcan0 00000001#026FAD R
(57174.200000) vcan0 00000002#0370AE R
(57174.441000) vcan0 00000001#0471AF R
(57174.685000) vcan0 00000002#0572B0 R
(57174.920000) vcan0 00000001#0673B1 R
(57175.156000) vcan0 00000002#0774B2 R
(57175.397000) vcan0 00000001#0875B3 R
(57175.641000) vcan0 00000002#0976B4 R
(57175.877000) vcan0 00000001#0A77B5 R
(57176.113000) vcan0 00000002#0B78B6 R
(57176.351000) vcan0 00000001#0C79B7 R
(57176.586000) vcan0 00000002#0D7AB8 R
(57176.830000) vcan0 00000001#0E7BB9 R
(57177.066000) vcan0 00000002#0F7CBA R
(57177.308000) vcan0 00000001#107DBB R
(57177.544000) vcan0 00000002#117EBC R
(57177.787000) vcan0 00000001#127FBD R
(57178.023000) vcan0 00000002#1380BE R
(57178.265000) vcan0 00000001#1481BF R
(57178.501000) vcan0 00000002#1582C0 R
(57178.745000) vcan0 00000001#1683C1 R
(57178.980000) vcan0 00000002#1784C2 R
(57179.218000) vcan0 00000001#1885C3 R
(57179.454000) vcan0 00000002#1986C4 R
(57179.698000) vcan0 00000001#1A87C5 R
(57179.934000) vcan0 00000002#1B88C6 R
(57180.169000) vcan0 00000001#1C89C7 R
(57180.411000) vcan0 00000002#1D8AC8 R
(57180.655000) vcan0 00000001#1E8BC9 R
(57180.891000) vcan0 00000002#1F8CCA R
(57181.126000) vcan0 00000001#208DCB R
(57181.365000) vcan0 00000002#218ECC R
(57181.601000) vcan0 00000001#228FCD R
(57181.844000) vcan0 00000002#2390CE R
(57182.080000) vcan0 00000001#2491CF R
(57182.318000) vcan0 00000002#2592D0 R
(57182.554000) vcan0 00000001#2693D1 R
(57182.798000) vcan0 00000002#2794D2 R
(57183.033000) vcan0 00000001#2895D3 R
(57183.275000) vcan0 00000002#2996D4 R
(57183.511000) vcan0 00000001#2A97D5 R
(57183.754000) vcan0 00000002#2B98D6 R
(57183.990000) vcan0 00000001#2C99D7 R
(57184.232000) vcan0 00000002#2D9AD8 R
(57184.468000) vcan0 00000001#2E9BD9 R
(57184.712000) vcan0 00000002#2F9CDA R
(57184.947000) vcan0 00000001#309DDB R
(57185.183000) vcan0 00000002#319EDC R
(57185.424000) vcan0 00000001#329FDD R
(57185.668000) vcan0 00000002#33A0DE R
(57185.904000) vcan0 00000001#34A1DF R
(57186.140000) vcan0 00000002#35A2E0 R
(57186.381000) vcan0 00000001#36A3E1 R
(57186.617000) vcan0 00000002#37A4E2 R
(57186.861000) vcan0 00000001#38A5E3 R
(57187.097000) vcan0 00000002#39A6E4 R
(57187.335000) vcan0 00000001#3AA7E5 R
(57187.570000) vcan0 00000002#3BA8E6 R
(57187.814000) vcan0 00000001#3CA9E7 R
(57188.050000) vcan0 00000002#3DAAE8 R
(57188.291000) vcan0 00000001#3E55E9 R
(57188.527000) vcan0 00000002#3F56EA R
(57188.771000) vcan0 00000001#4057EB R
(57189.007000) vcan0 00000002#4158EC R
(57189.248000) vcan0 00000001#4259ED R
(57189.484000) vcan0 00000002#435AEE R
(57189.728000) vcan0 00000001#445BEF R
(57189.964000) vcan0 00000002#455CF0 R
(57190.200000) vcan0 00000001#465DF1 R
(57190.440000) vcan0 00000002#475EF2 R
(57190.684000) vcan0 00000001#485FF3 R
(57190.920000) vcan0 00000002#4960F4 R
(57191.156000) vcan0 00000001#4A61F5 R
(57191.397000) vcan0 00000002#4B62F6 R
(57191.641000) vcan0 00000001#4C63F7 R
(57191.877000) vcan0 00000002#4D64F8 R
(57192.113000) vcan0 00000001#4E65F9 R
(57192.351000) vcan0 00000002#4F66FA R
(57192.587000) vcan0 00000001#5067FB R
(57192.831000) vcan0 00000002#5168FC R
(57193.067000) vcan0 00000001#5269FD R
(57193.308000) vcan0 00000002#536AFE R
(57193.544000) vcan0 00000001#546BFF R
(57193.788000) vcan0 00000002#006C00 R
(57194.024000) vcan0 00000001#016D01 R
(57194.264000) vcan0 00000002#026E02 R
(57194.500000) vcan0 00000001#036F03 R
(57194.744000) vcan0 00000002#047004 R
(57194.980000) vcan0 00000001#057105 R
(57195.218000) vcan0 00000002#067206 R
(57195.454000) vcan0 00000001#077307 R
(57195.698000) vcan0 00000002#087408 R
(57195.934000) vcan0 00000001#097509 R
(57196.170000) vcan0 00000002#0A760A R
(57196.411000) vcan0 00000001#0B770B R
(57196.655000) vcan0 00000002#0C780C R
(57196.891000) vcan0 00000001#0D790D R
(57197.127000) vcan0 00000002#0E7A0E R
(57197.365000) vcan0 00000001#0F7B0F R
(57197.600000) vcan0 00000002#107C10 R
(57197.844000) vcan0 00000001#117D11 R
(57198.080000) vcan0 00000002#127E12 R
(57198.318000) vcan0 00000001#137F13 R
(57198.554000) vcan0 00000002#148014 R
(57198.798000) vcan0 00000001#158115 R
(57199.033000) vcan0 00000002#168216 R
(57199.275000) vcan0 00000001#178317 R
(57199.511000) vcan0 00000002#188418 R
(57199.754000) vcan0 00000001#198519 R
(57199.990000) vcan0 00000002#1A861A R
(57200.232000) vcan0 00000001#1B871B R
(57200.468000) vcan0 00000002#1C881C R
(57200.712000) vcan0 00000001#1D891D R
(57200.948000) vcan0 00000002#1E8A1E R
(57201.183000) vcan0 00000001#1F8B1F R
(57201.424000) vcan0 00000002#208C20 R
(57201.668000) vcan0 00000001#218D21 R
(57201.904000) vcan0 00000002#228E22 R
(57202.140000) vcan0 00000001#238F23 R
(57202.381000) vcan0 00000002#249024 R
(57202.617000) vcan0 00000001#259125 R
(57202.861000) vcan0 00000002#269226 R
(57203.097000) vcan0 00000001#279327 R
(57203.335000) vcan0 00000002#289428 R
(57203.570000) vcan0 00000001#299529 R
(57203.814000) vcan0 00000002#2A962A R
(57204.050000) vcan0 00000001#2B972B R
(57204.291000) vcan0 00000002#2C982C R
(57204.527000) vcan0 00000001#2D992D R
(57204.771000) vcan0 00000002#2E9A2E R
(57205.007000) vcan0 00000001#2F9B2F R
(57205.248000) vcan0 00000002#309C30 R
(57205.484000) vcan0 00000001#319D31 R
(57205.728000) vcan0 00000002#329E32 R
(57205.964000) vcan0 00000001#339F33 R
(57206.200000) vcan0 00000002#34A034 R
(57206.441000) vcan0 00000001#35A135 R
(57206.685000) vcan0 00000002#36A236 R
(57206.920000) vcan0 00000001#37A337 R
(57207.156000) vcan0 00000002#38A438 R
(57207.397000) vcan0 00000001#39A539 R
(57207.641000) vcan0 00000002#3AA63A R
(57207.877000) vcan0 00000001#3BA73B R
(57208.113000) vcan0 00000002#3CA83C R
(57208.351000) vcan0 00000001#3DA93D R
(57208.587000) vcan0 00000002#3EAA3E R
(57208.831000) vcan0 00000001#3F553F R
(57209.067000) vcan0 00000002#405640 R
(57209.308000) vcan0 00000001#415741 R
(57209.544000) vcan0 00000002#425842 R
(57209.788000) vcan0 00000001#435943 R
(57210.023000) vcan0 00000002#445A44 R
(57210.265000) vcan0 00000001#455B45 R
(57210.501000) vcan0 00000002#465C46 R
(57210.745000) vcan0 00000001#475D47 R
(57210.981000) vcan0 00000002#485E48 R
(57211.219000) vcan0 00000001#495F49 R
(57211.454000) vcan0 00000002#4A604A R
(57211.698000) vcan0 00000001#4B614B R
(57211.934000) vcan0 00000002#4C624C R
(57212.170000) vcan0 00000001#4D634D R
(57212.412000) vcan0 00000002#4E644E R
(57212.655000) vcan0 00000001#4F654F R
(57212.891000) vcan0 00000002#506650 R
(57213.127000) vcan0 00000001#516751 R
(57213.365000) vcan0 00000002#526852 R
(57213.600000) vcan0 00000001#536953 R
(57213.844000) vcan0 00000002#546A54 R
(57214.080000) vcan0 00000001#006B55 R
(57214.318000) vcan0 00000002#016C56 R
(57214.554000) vcan0 00000001#026D57 R
(57214.798000) vcan0 00000002#036E58 R
(57215.033000) vcan0 00000001#046F59 R
(57215.275000) vcan0 00000002#05705A R
(57215.511000) vcan0 00000001#06715B R
(57215.755000) vcan0 00000002#07725C R
(57215.990000) vcan0 00000001#08735D R
(57216.232000) vcan0 00000002#09745E R
(57216.468000) vcan0 00000001#0A755F R
(57216.712000) vcan0 00000002#0B7660 R
(57216.948000) vcan0 00000001#0C7761 R
(57217.183000) vcan0 00000002#0D7862 R
(57217.424000) vcan0 00000001#0E7963 R
(57217.668000) vcan0 00000002#0F7A64 R
(57217.904000) vcan0 00000001#107B65 R
(57218.140000) vcan0 00000002#117C66 R
(57218.381000) vcan0 00000001#127D67 R
(57218.617000) vcan0 00000002#137E68 R
(57218.861000) vcan0 00000001#147F69 R
(57219.097000) vcan0 00000002#15806A R
(57219.335000) vcan0 00000001#16816B R
(57219.570000) vcan0 00000002#17826C R
(57219.814000) vcan0 00000001#18836D R
(57220.050000) vcan0 00000002#19846E R
(57220.291000) vcan0 00000001#1A856F R
(57220.527000) vcan0 00000002#1B8670 R
(57220.771000) vcan0 00000001#1C8771 R
(57221.007000) vcan0 00000002#1D8872 R
(57221.248000) vcan0 00000001#1E8973 R
(57221.484000) vcan0 00000002#1F8A74 R
(57221.728000) vcan0 00000001#208B75 R
(57221.964000) vcan0 00000002#218C76 R
(57222.200000) vcan0 00000001#228D77 R
(57222.441000) vcan0 00000002#238E78 R
(57222.685000) vcan0 00000001#248F79 R
(57222.920000) vcan0 00000002#25907A R
(57223.156000) vcan0 00000001#26917B R
(57223.397000) vcan0 00000002#27927C R
(57223.641000) vcan0 00000001#28937D R
(57223.877000) vcan0 00000002#29947E R
(57224.113000) vcan0 00000001#2A957F R
(57224.351000) vcan0 00000002#2B9680 R
(57224.587000) vcan0 00000001#2C9781 R
(57224.830000) vcan0 00000002#2D9882 R
(57225.066000) vcan0 00000001#2E9983 R
(57225.308000) vcan0 00000002#2F9A84 R
(57225.543000) vcan0 00000001#309B85 R
(57225.787000) vcan0 00000002#319C86 R
(57226.023000) vcan0 00000001#329D87 R
(57226.265000) vcan0 00000002#339E88 R
(57226.500000) vcan0 00000001#349F89 R
(57226.744000) vcan0 00000002#35A08A R
(57226.980000) vcan0 00000001#36A18B R
(57227.218000) vcan0 00000002#37A28C R
(57227.454000) vcan0 00000001#38A38D R
(57227.698000) vcan0 00000002#39A48E R
(57227.934000) vcan0 00000001#3AA58F R
(57228.170000) vcan0 00000002#3BA690 R
(57228.412000) vcan0 00000001#3CA791 R
(57228.655000) vcan0 00000002#3DA892 R
(57228.891000) vcan0 00000001#3EA993 R
(57229.127000) vcan0 00000002#3FAA94 R
(57229.365000) vcan0 00000001#405595 R
(57229.601000) vcan0 00000002#415696 R
(57229.845000) vcan0 00000001#425797 R
(57230.080000) vcan0 00000002#435898 R
(57230.318000) vcan0 00000001#445999 R
(57230.554000) vcan0 00000002#455A9A R
(57230.798000) vcan0 00000001#465B9B R
(57231.033000) vcan0 00000002#475C9C R
(57231.275000) vcan0 00000001#485D9D R
(57231.511000) vcan0 00000002#495E9E R
(57231.754000) vcan0 00000001#4A5F9F R
(57231.990000) vcan0 00000002#4B60A0 R
(57232.232000) vcan0 00000001#4C61A1 R
(57232.468000) vcan0 00000002#4D62A2 R
(57232.712000) vcan0 00000001#4E63A3 R
(57232.948000) vcan0 00000002#4F64A4 R
(57233.183000) vcan0 00000001#5065A5 R
(57233.424000) vcan0 00000002#5166A6 R
(57233.668000) vcan0 00000001#5267A7 R
(57233.904000) vcan0 00000002#5368A8 R
(57234.140000) vcan0 00000001#5469A9 R
(57234.381000) vcan0 00000002#006AAA R
(57234.617000) vcan0 00000001#016BAB R
(57234.861000) vcan0 00000002#026CAC R
(57235.096000) vcan0 00000001#036DAD R
(57235.334000) vcan0 00000002#046EAE R
(57235.570000) vcan0 00000001#056FAF R
(57235.814000) vcan0 00000002#0670B0 R
(57236.050000) vcan0 00000001#0771B1 R
(57236.292000) vcan0 00000002#0872B2 R
(57236.527000) vcan0 00000001#0973B3 R
(57236.771000) vcan0 00000002#0A74B4 R
(57237.007000) vcan0 00000001#0B75B5 R
(57237.249000) vcan0 00000002#0C76B6 R
(57237.484000) vcan0 00000001#0D77B7 R
(57237.728000) vcan0 00000002#0E78B8 R
(57237.964000) vcan0 00000001#0F79B9 R
(57238.201000) vcan0 00000002#107ABA R
(57238.441000) vcan0 00000001#117BBB R
(57238.685000) vcan0 00000002#127CBC R
(57238.921000) vcan0 00000001#137DBD R
(57239.156000) vcan0 00000002#147EBE R
(57239.397000) vcan0 00000001#157FBF R
(57239.641000) vcan0 00000002#1680C0 R
(57239.877000) vcan0 00000001#1781C1 R
(57240.113000) vcan0 00000002#1882C2 R
(57240.351000) vcan0 00000001#1983C3 R
(57240.586000) vcan0 00000002#1A84C4 R
(57240.830000) vcan0 00000001#1B85C5 R
(57241.066000) vcan0 00000002#1C86C6 R
(57241.308000) vcan0 00000001#1D87C7 R
(57241.544000) vcan0 00000002#1E88C8 R
(57241.787000) vcan0 00000001#1F89C9 R
(57242.023000) vcan0 00000002#208ACA R
(57242.265000) vcan0 00000001#218BCB R
(57242.501000) vcan0 00000002#228CCC R
(57242.745000) vcan0 00000001#238DCD R
(57242.980000) vcan0 00000002#248ECE R
(57243.218000) vcan0 00000001#258FCF R
(57243.454000) vcan0 00000002#2690D0 R
(57243.698000) vcan0 00000001#2791D1 R
(57243.934000) vcan0 00000002#2892D2 R
(57244.169000) vcan0 00000001#2993D3 R
(57244.411000) vcan0 00000002#2A94D4 R
(57244.655000) vcan0 00000001#2B95D5 R
(57244.891000) vcan0 00000002#2C96D6 R
(57245.126000) vcan0 00000001#2D97D7 R
(57245.365000) vcan0 00000002#2E98D8 R
(57245.601000) vcan0 00000001#2F99D9 R
(57245.844000) vcan0 00000002#309ADA R
(57246.080000) vcan0 00000001#319BDB R
(57246.318000) vcan0 00000002#329CDC R
(57246.554000) vcan0 00000001#339DDD R
(57246.798000) vcan0 00000002#349EDE R
(57247.033000) vcan0 00000001#359FDF R
(57247.275000) vcan0 00000002#36A0E0 R
(57247.511000) vcan0 00000001#37A1E1 R
(57247.754000) vcan0 00000002#38A2E2 R
(57247.990000) vcan0 00000001#39A3E3 R
(57248.232000) vcan0 00000002#3AA4E4 R
(57248.468000) vcan0 00000001#3BA5E5 R
(57248.712000) vcan0 00000002#3CA6E6 R
(57248.947000) vcan0 00000001#3DA7E7 R
(57249.183000) vcan0 00000002#3EA8E8 R
(57249.424000) vcan0 00000001#3FA9E9 R
(57249.668000) vcan0 00000002#40AAEA R
(57249.904000) vcan0 00000001#4155EB R
(57250.140000) vcan0 00000002#4256EC R
(57250.381000) vcan0 00000001#4357ED R
(57250.617000) vcan0 00000002#4458EE R
(57250.861000) vcan0 00000001#4559EF R
(57251.097000) vcan0 00000002#465AF0 R
(57251.335000) vcan0 00000001#475BF1 R
(57251.571000) vcan0 00000002#485CF2 R
(57251.815000) vcan0 00000001#495DF3 R
(57252.050000) vcan0 00000002#4A5EF4 R
(57252.292000) vcan0 00000001#4B5FF5 R
(57252.528000) vcan0 00000002#4C60F6 R
(57252.771000) vcan0 00000001#4D61F7 R
(57253.007000) vcan0 00000002#4E62F8 R
(57253.248000) vcan0 00000001#4F63F9 R
(57253.484000) vcan0 00000002#5064FA R
(57253.728000) vcan0 00000001#5165FB R
(57253.964000) vcan0 00000002#5266FC R
(57254.200000) vcan0 00000001#5367FD R
(57254.441000) vcan0 00000002#5468FE R
(57254.685000) vcan0 00000001#0069FF R
(57254.920000) vcan0 00000002#016A00 R
(57255.156000) vcan0 00000001#026B01 R
(57255.397000) vcan0 00000002#036C02 R
(57255.641000) vcan0 00000001#046D03 R
(57255.877000) vcan0 00000002#056E04 R
(57256.113000) vcan0 00000001#066F05 R
(57256.351000) vcan0 00000002#077006 R
(57256.587000) vcan0 00000001#087107 R
(57256.830000) vcan0 00000002#097208 R
(57257.066000) vcan0 00000001#0A7309 R
(57257.308000) vcan0 00000002#0B740A R
(57257.543000) vcan0 00000001#0C750B R
(57257.787000) vcan0 00000002#0D760C R
(57258.023000) vcan0 00000001#0E770D R
(57258.265000) vcan0 00000002#0F780E R
(57258.500000) vcan0 00000001#10790F R
(57258.744000) vcan0 00000002#117A10 R
(57258.980000) vcan0 00000001#127B11 R
(57259.218000) vcan0 00000002#137C12 R
(57259.454000) vcan0 00000001#147D13 R
(57259.698000) vcan0 00000002#157E14 R
(57259.934000) vcan0 00000001#167F15 R
(57260.170000) vcan0 00000002#178016 R
(57260.412000) vcan0 00000001#188117 R
(57260.655000) vcan0 00000002#198218 R
(57260.891000) vcan0 00000001#1A8319 R
(57261.127000) vcan0 00000002#1B841A R
(57261.365000) vcan0 00000001#1C851B R
(57261.601000) vcan0 00000002#1D861C R
(57261.845000) vcan0 00000001#1E871D R
(57262.080000) vcan0 00000002#1F881E R
(57262.318000) vcan0 00000001#20891F R
(57262.554000) vcan0 00000002#218A20 R
(57262.798000) vcan0 00000001#228B21 R
(57263.033000) vcan0 00000002#238C22 R
(57263.275000) vcan0 00000001#248D23 R
(57263.511000) vcan0 00000002#258E24 R
(57263.754000) vcan0 00000001#268F25 R
(57263.990000) vcan0 00000002#279026 R
(57264.232000) vcan0 00000001#289127 R
(57264.468000) vcan0 00000002#299228 R
(57264.712000) vcan0 00000001#2A9329 R
(57264.948000) vcan0 00000002#2B942A R
(57265.183000) vcan0 00000001#2C952B R
(57265.424000) vcan0 00000002#2D962C R
(57265.668000) vcan0 00000001#2E972D R
(57265.904000) vcan0 00000002#2F982E R
(57266.140000) vcan0 00000001#30992F R
(57266.381000) vcan0 00000002#319A30 R
(57266.617000) vcan0 00000001#329B31 R
(57266.861000) vcan0 00000002#339C32 R
(57267.096000) vcan0 00000001#349D33 R
(57267.335000) vcan0 00000002#359E34 R
(57267.571000) vcan0 00000001#369F35 R
(57267.815000) vcan0 00000002#37A036 R
(57268.050000) vcan0 00000001#38A137 R
(57268.292000) vcan0 00000002#39A238 R
(57268.528000) vcan0 00000001#3AA339 R
(57268.771000) vcan0 00000002#3BA43A R
(57269.007000) vcan0 00000001#3CA53B R
(57269.248000) vcan0 00000002#3DA63C R
(57269.484000) vcan0 00000001#3EA73D R
(57269.728000) vcan0 00000002#3FA83E R
(57269.964000) vcan0 00000001#40A93F R
(57270.200000) vcan0 00000002#41AA40 R
(57270.441000) vcan0 00000001#425541 R
(57270.685000) vcan0 00000002#435642 R
(57270.920000) vcan0 00000001#445743 R
(57271.156000) vcan0 00000002#455844 R
(57271.397000) vcan0 00000001#465945 R
(57271.641000) vcan0 00000002#475A46 R
(57271.877000) vcan0 00000001#485B47 R
(57272.113000) vcan0 00000002#495C48 R
(57272.351000) vcan0 00000001#4A5D49 R
(57272.587000) vcan0 00000002#4B5E4A R
(57272.830000) vcan0 00000001#4C5F4B R
(57273.066000) vcan0 00000002#4D604C R
(57273.308000) vcan0 00000001#4E614D R
(57273.543000) vcan0 00000002#4F624E R
(57273.787000) vcan0 00000001#50634F R
(57274.023000) vcan0 00000002#516450 R
(57274.265000) vcan0 00000001#526551 R
(57274.500000) vcan0 00000002#536652 R
(57274.744000) vcan0 00000001#546753 R
(57274.980000) vcan0 00000002#006854 R
(57275.218000) vcan0 00000001#016955 R
(57275.454000) vcan0 00000002#026A56 R
(57275.698000) vcan0 00000001#036B57 R
(57275.934000) vcan0 00000002#046C58 R
(57276.170000) vcan0 00000001#056D59 R
(57276.412000) vcan0 00000002#066E5A R
(57276.655000) vcan0 00000001#076F5B R
(57276.891000) vcan0 00000002#08705C R
(57277.127000) vcan0 00000001#09715D R
(57277.365000) vcan0 00000002#0A725E R
(57277.601000) vcan0 00000001#0B735F R
(57277.845000) vcan0 00000002#0C7460 R
(57278.080000) vcan0 00000001#0D7561 R
(57278.318000) vcan0 00000002#0E7662 R
(57278.554000) vcan0 00000001#0F7763 R
(57278.798000) vcan0 00000002#107864 R
(57279.033000) vcan0 00000001#117965 R
(57279.275000) vcan0 00000002#127A66 R
(57279.511000) vcan0 00000001#137B67 R
(57279.754000) vcan0 00000002#147C68 R
(57279.990000) vcan0 00000001#157D69 R
(57280.232000) vcan0 00000002#167E6A R
(57280.468000) vcan0 00000001#177F6B R
(57280.712000) vcan0 00000002#18806C R
(57280.947000) vcan0 00000001#19816D R
(57281.183000) vcan0 00000002#1A826E R
(57281.424000) vcan0 00000001#1B836F R
(57281.668000) vcan0 00000002#1C8470 R
(57281.904000) vcan0 00000001#1D8571 R
(57282.140000) vcan0 00000002#1E8672 R
(57282.381000) vcan0 00000001#1F8773 R
(57282.617000) vcan0 00000002#208874 R
(57282.861000) vcan0 00000001#218975 R
(57283.097000) vcan0 00000002#228A76 R
(57283.335000) vcan0 00000001#238B77 R
(57283.570000) vcan0 00000002#248C78 R
(57283.814000) vcan0 00000001#258D79 R
(57284.050000) vcan0 00000002#268E7A R
(57284.291000) vcan0 00000001#278F7B R
(57284.527000) vcan0 00000002#28907C R
(57284.771000) vcan0 00000001#29917D R
(57285.007000) vcan0 00000002#2A927E R
(57285.248000) vcan0 00000001#2B937F R
(57285.484000) vcan0 00000002#2C9480 R
(57285.728000) vcan0 00000001#2D9581 R
(57285.964000) vcan0 00000002#2E9682 R
(57286.200000) vcan0 00000001#2F9783 R
(57286.441000) vcan0 00000002#309884 R
(57286.685000) vcan0 00000001#319985 R
(57286.920000) vcan0 00000002#329A86 R
(57287.156000) vcan0 00000001#339B87 R
(57287.397000) vcan0 00000002#349C88 R
(57287.641000) vcan0 00000001#359D89 R
(57287.877000) vcan0 00000002#369E8A R
(57288.113000) vcan0 00000001#379F8B R
(57288.351000) vcan0 00000002#38A08C R
(57288.587000) vcan0 00000001#39A18D R
(57288.830000) vcan0 00000002#3AA28E R
(57289.066000) vcan0 00000001#3BA38F R
(57289.308000) vcan0 00000002#3CA490 R
(57289.543000) vcan0 00000001#3DA591 R
(57289.787000) vcan0 00000002#3EA692 R
(57290.023000) vcan0 00000001#3FA793 R
(57290.265000) vcan0 00000002#40A894 R
(57290.500000) vcan0 00000001#41A995 R
(57290.744000) vcan0 00000002#42AA96 R
(57290.980000) vcan0 00000001#435597 R
(57291.218000) vcan0 00000002#445698 R
(57291.454000) vcan0 00000001#455799 R
(57291.698000) vcan0 00000002#46589A R
(57291.934000) vcan0 00000001#47599B R
(57292.169000) vcan0 00000002#485A9C R
(57292.411000) vcan0 00000001#495B9D R
(57292.655000) vcan0 00000002#4A5C9E R
(57292.891000) vcan0 00000001#4B5D9F R
(57293.127000) vcan0 00000002#4C5EA0 R
(57293.365000) vcan0 00000001#4D5FA1 R
(57293.601000) vcan0 00000002#4E60A2 R
(57293.844000) vcan0 00000001#4F61A3 R
(57294.080000) vcan0 00000002#5062A4 R
(57294.318000) vcan0 00000001#5163A5 R
(57294.554000) vcan0 00000002#5264A6 R
(57294.798000) vcan0 00000001#5365A7 R
(57295.033000) vcan0 00000002#5466A8 R
(57295.275000) vcan0 00000001#0067A9 R
(57295.511000) vcan0 00000002#0168AA R
(57295.754000) vcan0 00000001#0269AB R
(57295.990000) vcan0 00000002#036AAC R
(57296.232000) vcan0 00000001#046BAD R
(57296.468000) vcan0 00000002#056CAE R
(57296.712000) vcan0 00000001#066DAF R
(57296.948000) vcan0 00000002#076EB0 R
(57297.183000) vcan0 00000001#086FB1 R
(57297.424000) vcan0 00000002#0970B2 R
(57297.668000) vcan0 00000001#0A71B3 R
(57297.904000) vcan0 00000002#0B72B4 R
(57298.140000) vcan0 00000001#0C73B5 R
(57298.381000) vcan0 00000002#0D74B6 R
(57298.617000) vcan0 00000001#0E75B7 R
(57298.861000) vcan0 00000002#0F76B8 R
(57299.097000) vcan0 00000001#1077B9 R
(57299.335000) vcan0 00000002#1178BA R
(57299.570000) vcan0 00000001#1279BB R
(57299.814000) vcan0 00000002#137ABC R
(57300.050000) vcan0 00000001#147BBD R
(57300.291000) vcan0 00000002#157CBE R
(57300.527000) vcan0 00000001#167DBF R
(57300.771000) vcan0 00000002#177EC0 R
(57301.007000) vcan0 00000001#187FC1 R
(57301.248000) vcan0 00000002#1980C2 R
(57301.484000) vcan0 00000001#1A81C3 R
(57301.728000) vcan0 00000002#1B82C4 R
(57301.964000) vcan0 00000001#1C83C5 R
(57302.200000) vcan0 00000002#1D84C6 R
(57302.441000) vcan0 00000001#1E85C7 R
(57302.685000) vcan0 00000002#1F86C8 R
(57302.920000) vcan0 00000001#2087C9 R
(57303.156000) vcan0 00000002#2188CA R
(57303.397000) vcan0 00000001#2289CB R
(57303.641000) vcan0 00000002#238ACC R
(57303.877000) vcan0 00000001#248BCD R
(57304.113000) vcan0 00000002#258CCE R
(57304.351000) vcan0 00000001#268DCF R
(57304.587000) vcan0 00000002#278ED0 R
(57304.831000) vcan0 00000001#288FD1 R
(57305.067000) vcan0 00000002#2990D2 R
(57305.308000) vcan0 00000001#2A91D3 R
(57305.544000) vcan0 00000002#2B92D4 R
(57305.788000) vcan0 00000001#2C93D5 R
(57306.024000) vcan0 00000002#2D94D6 R
(57306.264000) vcan0 00000001#2E95D7 R
(57306.500000) vcan0 00000002#2F96D8 R
(57306.744000) vcan0 00000001#3097D9 R
(57306.980000) vcan0 00000002#3198DA R
(57307.218000) vcan0 00000001#3299DB R
(57307.454000) vcan0 00000002#339ADC R
(57307.698000) vcan0 00000001#349BDD R
(57307.934000) vcan0 00000002#359CDE R
(57308.170000) vcan0 00000001#369DDF R
(57308.412000) vcan0 00000002#379EE0 R
(57308.655000) vcan0 00000001#389FE1 R
(57308.891000) vcan0 00000002#39A0E2 R
(57309.127000) vcan0 00000001#3AA1E3 R
(57309.365000) vcan0 00000002#3BA2E4 R
(57309.600000) vcan0 00000001#3CA3E5 R
(57309.844000) vcan0 00000002#3DA4E6 R
(57310.080000) vcan0 00000001#3EA5E7 R
(57310.318000) vcan0 00000002#3FA6E8 R
(57310.554000) vcan0 00000001#40A7E9 R
(57310.798000) vcan0 00000002#41A8EA R
(57311.033000) vcan0 00000001#42A9EB R
(57311.275000) vcan0 00000002#43AAEC R
(57311.511000) vcan0 00000001#4455ED R
(57311.755000) vcan0 00000002#4556EE R
(57311.990000) vcan0 00000001#4657EF R
(57312.232000) vcan0 00000002#4758F0 R
(57312.468000) vcan0 00000001#4859F1 R
(57312.712000) vcan0 00000002#495AF2 R
(57312.948000) vcan0 00000001#4A5BF3 R
(57313.183000) vcan0 00000002#4B5CF4 R
(57313.424000) vcan0 00000001#4C5DF5 R
(57313.668000) vcan0 00000002#4D5EF6 R
(57313.904000) vcan0 00000001#4E5FF7 R
(57314.140000) vcan0 00000002#4F60F8 R
(57314.381000) vcan0 00000001#5061F9 R
(57314.617000) vcan0 00000002#5162FA R
(57314.861000) vcan0 00000001#5263FB R
(57315.097000) vcan0 00000002#5364FC R
(57315.335000) vcan0 00000001#5465FD R
(57315.571000) vcan0 00000002#0066FE R
(57315.815000) vcan0 00000001#0167FF R
(57316.050000) vcan0 00000002#026800 R
(57316.292000) vcan0 00000001#036901 R
(57316.528000) vcan0 00000002#046A02 R
(57316.771000) vcan0 00000001#056B03 R
(57317.007000) vcan0 00000002#066C04 R
(57317.248000) vcan0 00000001#076D05 R
(57317.484000) vcan0 00000002#086E06 R
(57317.728000) vcan0 00000001#096F07 R
(57317.964000) vcan0 00000002#0A7008 R
(57318.200000) vcan0 00000001#0B7109 R
(57318.441000) vcan0 00000002#0C720A R
(57318.685000) vcan0 00000001#0D730B R
(57318.920000) vcan0 00000002#0E740C R
(57319.156000) vcan0 00000001#0F750D R
(57319.397000) vcan0 00000002#10760E R
(57319.641000) vcan0 00000001#11770F R
(57319.877000) vcan0 00000002#127810 R
(57320.113000) vcan0 00000001#137911 R
(57320.351000) vcan0 00000002#147A12 R
(57320.587000) vcan0 00000001#157B13 R
(57320.830000) vcan0 00000002#167C14 R
(57321.066000) vcan0 00000001#177D15 R
(57321.308000) vcan0 00000002#187E16 R
(57321.543000) vcan0 00000001#197F17 R
(57321.787000) vcan0 00000002#1A8018 R
(57322.023000) vcan0 00000001#1B8119 R
(57322.265000) vcan0 00000002#1C821A R
(57322.500000) vcan0 00000001#1D831B R
(57322.744000) vcan0 00000002#1E841C R
(57322.980000) vcan0 00000001#1F851D R
(57323.218000) vcan0 00000002#20861E R
(57323.454000) vcan0 00000001#21871F R
(57323.698000) vcan0 00000002#228820 R
(57323.934000) vcan0 00000001#238921 R
(57324.170000) vcan0 00000002#248A22 R
(57324.411000) vcan0 00000001#258B23 R
(57324.655000) vcan0 00000002#268C24 R
(57324.891000) vcan0 00000001#278D25 R
(57325.127000) vcan0 00000002#288E26 R
(57325.365000) vcan0 00000001#298F27 R
(57325.600000) vcan0 00000002#2A9028 R
(57325.844000) vcan0 00000001#2B9129 R
(57326.080000) vcan0 00000002#2C922A R
(57326.318000) vcan0 00000001#2D932B R
(57326.554000) vcan0 00000002#2E942C R
(57326.798000) vcan0 00000001#2F952D R
(57327.033000) vcan0 00000002#30962E R
(57327.275000) vcan0 00000001#31972F R
(57327.511000) vcan0 00000002#329830 R
(57327.754000) vcan0 00000001#339931 R
(57327.990000) vcan0 00000002#349A32 R
(57328.232000) vcan0 00000001#359B33 R
(57328.468000) vcan0 00000002#369C34 R
(57328.712000) vcan0 00000001#379D35 R
(57328.948000) vcan0 00000002#389E36 R
(57329.183000) vcan0 00000001#399F37 R
(57329.424000) vcan0 00000002#3AA038 R
(57329.668000) vcan0 00000001#3BA139 R
(57329.904000) vcan0 00000002#3CA23A R
(57330.140000) vcan0 00000001#3DA33B R
(57330.381000) vcan0 00000002#3EA43C R
(57330.617000) vcan0 00000001#3FA53D R
(57330.861000) vcan0 00000002#40A63E R
(57331.097000) vcan0 00000001#41A73F R
(57331.335000) vcan0 00000002#42A840 R
(57331.570000) vcan0 00000001#43A941 R
(57331.814000) vcan0 00000002#44AA42 R
(57332.050000) vcan0 00000001#455543 R
(57332.291000) vcan0 00000002#465644 R
(57332.527000) vcan0 00000001#475745 R
(57332.771000) vcan0 00000002#485846 R
(57333.006000) vcan0 00000001#495947 R
(57333.248000) vcan0 00000002#4A5A48 R
(57333.484000) vcan0 00000001#4B5B49 R
(57333.728000) vcan0 00000002#4C5C4A R
(57333.964000) vcan0 00000001#4D5D4B R
(57334.200000) vcan0 00000002#4E5E4C R
(57334.441000) vcan0 00000001#4F5F4D R
(57334.685000) vcan0 00000002#50604E R
(57334.920000) vcan0 00000001#51614F R
(57335.156000) vcan0 00000002#526250 R
(57335.397000) vcan0 00000001#536351 R
(57335.641000) vcan0 00000002#546452 R
(57335.877000) vcan0 00000001#006553 R
(57336.113000) vcan0 00000002#016654 R
(57336.351000) vcan0 00000001#026755 R
(57336.587000) vcan0 00000002#036856 R
(57336.831000) vcan0 00000001#046957 R
(57337.067000) vcan0 00000002#056A58 R
(57337.308000) vcan0 00000001#066B59 R
(57337.544000) vcan0 00000002#076C5A R
(57337.788000) vcan0 00000001#086D5B R
(57338.023000) vcan0 00000002#096E5C R
(57338.265000) vcan0 00000001#0A6F5D R
(57338.501000) vcan0 00000002#0B705E R
(57338.745000) vcan0 00000001#0C715F R
(57338.981000) vcan0 00000002#0D7260 R
(57339.219000) vcan0 00000001#0E7361 R
(57339.454000) vcan0 00000002#0F7462 R
(57339.698000) vcan0 00000001#107563 R
(57339.934000) vcan0 00000002#117664 R
(57340.170000) vcan0 00000001#127765 R
(57340.412000) vcan0 00000002#137866 R
(57340.655000) vcan0 00000001#147967 R
(57340.891000) vcan0 00000002#157A68 R
(57341.127000) vcan0 00000001#167B69 R
(57341.365000) vcan0 00000002#177C6A R
(57341.600000) vcan0 00000001#187D6B R
(57341.844000) vcan0 00000002#197E6C R
(57342.080000) vcan0 00000001#1A7F6D R
(57342.318000) vcan0 00000002#1B806E R
(57342.554000) vcan0 00000001#1C816F R
(57342.798000) vcan0 00000002#1D8270 R
(57343.033000) vcan0 00000001#1E8371 R
(57343.275000) vcan0 00000002#1F8472 R
(57343.511000) vcan0 00000001#208573 R
(57343.755000) vcan0 00000002#218674 R
(57343.990000) vcan0 00000001#228775 R
(57344.232000) vcan0 00000002#238876 R
(57344.468000) vcan0 00000001#248977 R
(57344.712000) vcan0 00000002#258A78 R
(57344.948000) vcan0 00000001#268B79 R
(57345.184000) vcan0 00000002#278C7A R
(57345.424000) vcan0 00000001#288D7B R
(57345.668000) vcan0 00000002#298E7C R
(57345.904000) vcan0 00000001#2A8F7D R
(57346.140000) vcan0 00000002#2B907E R
(57346.381000) vcan0 00000001#2C917F R
(57346.617000) vcan0 00000002#2D9280 R
(57346.861000) vcan0 00000001#2E9381 R
(57347.097000) vcan0 00000002#2F9482 R
(57347.335000) vcan0 00000001#309583 R
(57347.571000) vcan0 00000002#319684 R
(57347.815000) vcan0 00000001#329785 R
(57348.050000) vcan0 00000002#339886 R
(57348.292000) vcan0 00000001#349987 R
(57348.528000) vcan0 00000002#359A88 R
(57348.771000) vcan0 00000001#369B89 R
(57349.007000) vcan0 00000002#379C8A R
(57349.248000) vcan0 00000001#389D8B R
(57349.484000) vcan0 00000002#399E8C R
(57349.728000) vcan0 00000001#3A9F8D R
(57349.964000) vcan0 00000002#3BA08E R
(57350.200000) vcan0 00000001#3CA18F R
(57350.441000) vcan0 00000002#3DA290 R
(57350.685000) vcan0 00000001#3EA391 R
(57350.920000) vcan0 00000002#3FA492 R
(57351.156000) vcan0 00000001#40A593 R
(57351.397000) vcan0 00000002#41A694 R
(57351.641000) vcan0 00000001#42A795 R
(57351.877000) vcan0 00000002#43A896 R
(57352.113000) vcan0 00000001#44A997 R
(57352.351000) vcan0 00000002#45AA98 R
(57352.587000) vcan0 00000001#465599 R
(57352.830000) vcan0 00000002#47569A R
(57353.066000) vcan0 00000001#48579B R
(57353.308000) vcan0 00000002#49589C R
(57353.543000) vcan0 00000001#4A599D R
(57353.787000) vcan0 00000002#4B5A9E R
(57354.023000) vcan0 00000001#4C5B9F R
(57354.265000) vcan0 00000002#4D5CA0 R
(57354.500000) vcan0 00000001#4E5DA1 R
(57354.744000) vcan0 00000002#4F5EA2 R
(57354.980000) vcan0 00000001#505FA3 R
(57355.218000) vcan0 00000002#5160A4 R
(57355.454000) vcan0 00000001#5261A5 R
(57355.698000) vcan0 00000002#5362A6 R
(57355.934000) vcan0 00000001#5463A7 R
(57356.170000) vcan0 00000002#0064A8 R
(57356.411000) vcan0 00000001#0165A9 R
(57356.655000) vcan0 00000002#0266AA R
(57356.891000) vcan0 00000001#0367AB R
(57357.127000) vcan0 00000002#0468AC R
(57357.365000) vcan0 00000001#0569AD R
(57357.600000) vcan0 00000002#066AAE R
(57357.844000) vcan0 00000001#076BAF R
(57358.080000) vcan0 00000002#086CB0 R
(57358.318000) vcan0 00000001#096DB1 R
(57358.554000) vcan0 00000002#0A6EB2 R
(57358.798000) vcan0 00000001#0B6FB3 R
(57359.033000) vcan0 00000002#0C70B4 R
(57359.275000) vcan0 00000001#0D71B5 R
(57359.511000) vcan0 00000002#0E72B6 R
(57359.754000) vcan0 00000001#0F73B7 R
(57359.990000) vcan0 00000002#1074B8 R
(57360.232000) vcan0 00000001#1175B9 R
(57360.468000) vcan0 00000002#1276BA R
(57360.712000) vcan0 00000001#1377BB R
(57360.948000) vcan0 00000002#1478BC R
(57361.183000) vcan0 00000001#1579BD R
(57361.424000) vcan0 00000002#167ABE R
(57361.668000) vcan0 00000001#177BBF R
(57361.904000) vcan0 00000002#187CC0 R
(57362.140000) vcan0 00000001#197DC1 R
(57362.381000) vcan0 00000002#1A7EC2 R
(57362.617000) vcan0 00000001#1B7FC3 R
(57362.861000) vcan0 00000002#1C80C4 R
(57363.097000) vcan0 00000001#1D81C5 R
(57363.335000) vcan0 00000002#1E82C6 R
(57363.570000) vcan0 00000001#1F83C7 R
(57363.814000) vcan0 00000002#2084C8 R
(57364.050000) vcan0 00000001#2185C9 R
(57364.291000) vcan0 00000002#2286CA R
(57364.527000) vcan0 00000001#2387CB R
(57364.771000) vcan0 00000002#2488CC R
(57365.007000) vcan0 00000001#2589CD R
(57365.248000) vcan0 00000002#268ACE R
(57365.484000) vcan0 00000001#278BCF R
(57365.728000) vcan0 00000002#288CD0 R
(57365.964000) vcan0 00000001#298DD1 R
(57366.200000) vcan0 00000002#2A8ED2 R
(57366.441000) vcan0 00000001#2B8FD3 R
(57366.685000) vcan0 00000002#2C90D4 R
(57366.920000) vcan0 00000001#2D91D5 R
(57367.156000) vcan0 00000002#2E92D6 R
(57367.397000) vcan0 00000001#2F93D7 R
(57367.641000) vcan0 00000002#3094D8 R
(57367.877000) vcan0 00000001#3195D9 R
(57368.113000) vcan0 00000002#3296DA R
(57368.351000) vcan0 00000001#3397DB R
(57368.587000) vcan0 00000002#3498DC R
(57368.831000) vcan0 00000001#3599DD R
(57369.067000) vcan0 00000002#369ADE R
(57369.308000) vcan0 00000001#379BDF R
(57369.544000) vcan0 00000002#389CE0 R
(57369.788000) vcan0 00000001#399DE1 R
(57370.024000) vcan0 00000002#3A9EE2 R
(57370.264000) vcan0 00000001#3B9FE3 R
(57370.500000) vcan0 00000002#3CA0E4 R
(57370.744000) vcan0 00000001#3DA1E5 R
(57370.980000) vcan0 00000002#3EA2E6 R
(57371.218000) vcan0 00000001#3FA3E7 R
(57371.454000) vcan0 00000002#40A4E8 R
(57371.698000) vcan0 00000001#41A5E9 R
(57371.934000) vcan0 00000002#42A6EA R
(57372.170000) vcan0 00000001#43A7EB R
(57372.412000) vcan0 00000002#44A8EC R
(57372.655000) vcan0 00000001#45A9ED R
(57372.891000) vcan0 00000002#46AAEE R
(57373.127000) vcan0 00000001#4755EF R
(57373.365000) vcan0 00000002#4856F0 R
(57373.600000) vcan0 00000001#4957F1 R
(57373.844000) vcan0 00000002#4A58F2 R
(57374.080000) vcan0 00000001#4B59F3 R
(57374.318000) vcan0 00000002#4C5AF4 R
(57374.554000) vcan0 00000001#4D5BF5 R
(57374.798000) vcan0 00000002#4E5CF6 R
(57375.033000) vcan0 00000001#4F5DF7 R
(57375.275000) vcan0 00000002#505EF8 R
(57375.511000) vcan0 00000001#515FF9 R
(57375.755000) vcan0 00000002#5260FA R
(57375.990000) vcan0 00000001#5361FB R
(57376.232000) vcan0 00000002#5462FC R
(57376.468000) vcan0 00000001#0063FD R
(57376.712000) vcan0 00000002#0164FE R
(57376.948000) vcan0 00000001#0265FF R
(57377.183000) vcan0 00000002#036600 R
(57377.424000) vcan0 00000001#046701 R
(57377.668000) vcan0 00000002#056802 R
(57377.904000) vcan0 00000001#066903 R
(57378.140000) vcan0 00000002#076A04 R
(57378.381000) vcan0 00000001#086B05 R
(57378.617000) vcan0 00000002#096C06 R
(57378.861000) vcan0 00000001#0A6D07 R
(57379.097000) vcan0 00000002#0B6E08 R
(57379.335000) vcan0 00000001#0C6F09 R
(57379.570000) vcan0 00000002#0D700A R
(57379.814000) vcan0 00000001#0E710B R
(57380.050000) vcan0 00000002#0F720C R
(57380.291000) vcan0 00000001#10730D R
(57380.527000) vcan0 00000002#11740E R
(57380.771000) vcan0 00000001#12750F R
(57381.007000) vcan0 00000002#137610 R
(57381.248000) vcan0 00000001#147711 R
(57381.484000) vcan0 00000002#157812 R
(57381.728000) vcan0 00000001#167913 R
(57381.964000) vcan0 00000002#177A14 R
(57382.200000) vcan0 00000001#187B15 R
(57382.441000) vcan0 00000002#197C16 R
(57382.685000) vcan0 00000001#1A7D17 R
(57382.920000) vcan0 00000002#1B7E18 R
(57383.156000) vcan0 00000001#1C7F19 R
(57383.397000) vcan0 00000002#1D801A R
(57383.641000) vcan0 00000001#1E811B R
(57383.877000) vcan0 00000002#1F821C R
(57384.113000) vcan0 00000001#20831D R
(57384.351000) vcan0 00000002#21841E R
(57384.587000) vcan0 00000001#22851F R
(57384.830000) vcan0 00000002#238620 R
(57385.066000) vcan0 00000001#248721 R
(57385.308000) vcan0 00000002#258822 R
(57385.543000) vcan0 00000001#268923 R
(57385.787000) vcan0 00000002#278A24 R
(57386.023000) vcan0 00000001#288B25 R
(57386.265000) vcan0 00000002#298C26 R
(57386.500000) vcan0 00000001#2A8D27 R
(57386.744000) vcan0 00000002#2B8E28 R
(57386.980000) vcan0 00000001#2C8F29 R
(57387.218000) vcan0 00000002#2D902A R
(57387.454000) vcan0 00000001#2E912B R
(57387.698000) vcan0 00000002#2F922C R
(57387.934000) vcan0 00000001#30932D R
(57388.170000) vcan0 00000002#31942E R
(57388.412000) vcan0 00000001#32952F R
(57388.655000) vcan0 00000002#339630 R
(57388.891000) vcan0 00000001#349731 R
(57389.127000) vcan0 00000002#359832 R
(57389.365000) vcan0 00000001#369933 R
(57389.601000) vcan0 00000002#379A34 R
(57389.845000) vcan0 00000001#389B35 R
(57390.080000) vcan0 00000002#399C36 R
(57390.318000) vcan0 00000001#3A9D37 R
(57390.554000) vcan0 00000002#3B9E38 R
(57390.798000) vcan0 00000001#3C9F39 R
(57391.033000) vcan0 00000002#3DA03A R
(57391.275000) vcan0 00000001#3EA13B R
(57391.511000) vcan0 00000002#3FA23C R
(57391.754000) vcan0 00000001#40A33D R
(57391.990000) vcan0 00000002#41A43E R
(57392.232000) vcan0 00000001#42A53F R
(57392.468000) vcan0 00000002#43A640 R
(57392.712000) vcan0 00000001#44A741 R
(57392.948000) vcan0 00000002#45A842 R
(57393.183000) vcan0 00000001#46A943 R
(57393.424000) vcan0 00000002#47AA44 R
(57393.668000) vcan0 00000001#485545 R
(57393.904000) vcan0 00000002#495646 R
(57394.140000) vcan0 00000001#4A5747 R
(57394.381000) vcan0 00000002#4B5848 R
(57394.617000) vcan0 00000001#4C5949 R
(57394.861000) vcan0 00000002#4D5A4A R
(57395.097000) vcan0 00000001#4E5B4B R
(57395.335000) vcan0 00000002#4F5C4C R
(57395.570000) vcan0 00000001#505D4D R
(57395.814000) vcan0 00000002#515E4E R
(57396.050000) vcan0 00000001#525F4F R
(57396.291000) vcan0 00000002#536050 R
(57396.527000) vcan0 00000001#546151 R
(57396.771000) vcan0 00000002#006252 R
(57397.006000) vcan0 00000001#016353 R
(57397.248000) vcan0 00000002#026454 R
(57397.484000) vcan0 00000001#036555 R
(57397.728000) vcan0 00000002#046656 R
(57397.964000) vcan0 00000001#056757 R
(57398.200000) vcan0 00000002#066858 R
(57398.441000) vcan0 00000001#076959 R
(57398.685000) vcan0 00000002#086A5A R
(57398.920000) vcan0 00000001#096B5B R
(57399.156000) vcan0 00000002#0A6C5C R
(57399.397000) vcan0 00000001#0B6D5D R
(57399.641000) vcan0 00000002#0C6E5E R
(57399.877000) vcan0 00000001#0D6F5F R
(57400.113000) vcan0 00000002#0E7060 R
(57400.351000) vcan0 00000001#0F7161 R
(57400.587000) vcan0 00000002#107262 R
(57400.831000) vcan0 00000001#117363 R
(57401.067000) vcan0 00000002#127464 R
(57401.308000) vcan0 00000001#137565 R
(57401.544000) vcan0 00000002#147666 R
(57401.788000) vcan0 00000001#157767 R
(57402.024000) vcan0 00000002#167868 R
(57402.264000) vcan0 00000001#177969 R
(57402.500000) vcan0 00000002#187A6A R
(57402.744000) vcan0 00000001#197B6B R
(57402.980000) vcan0 00000002#1A7C6C R
(57403.218000) vcan0 00000001#1B7D6D R
(57403.454000) vcan0 00000002#1C7E6E R
(57403.698000) vcan0 00000001#1D7F6F R
(57403.934000) vcan0 00000002#1E8070 R
(57404.170000) vcan0 00000001#1F8171 R
(57404.412000) vcan0 00000002#208272 R
(57404.655000) vcan0 00000001#218373 R
(57404.891000) vcan0 00000002#228474 R
(57405.127000) vcan0 00000001#238575 R
(57405.365000) vcan0 00000002#248676 R
(57405.600000) vcan0 00000001#258777 R
(57405.844000) vcan0 00000002#268878 R
(57406.080000) vcan0 00000001#278979 R
(57406.318000) vcan0 00000002#288A7A R
(57406.554000) vcan0 00000001#298B7B R
(57406.798000) vcan0 00000002#2A8C7C R
(57407.033000) vcan0 00000001#2B8D7D R
(57407.275000) vcan0 00000002#2C8E7E R
(57407.511000) vcan0 00000001#2D8F7F R
(57407.755000) vcan0 00000002#2E9080 R
(57407.990000) vcan0 00000001#2F9181 R
(57408.232000) vcan0 00000002#309282 R
(57408.468000) vcan0 00000001#319383 R
(57408.712000) vcan0 00000002#329484 R
(57408.948000) vcan0 00000001#339585 R
(57409.184000) vcan0 00000002#349686 R
(57409.424000) vcan0 00000001#359787 R
(57409.668000) vcan0 00000002#369888 R
(57409.904000) vcan0 00000001#379989 R
(57410.140000) vcan0 00000002#389A8A R
(57410.381000) vcan0 00000001#399B8B R
(57410.617000) vcan0 00000002#3A9C8C R
(57410.861000) vcan0 00000001#3B9D8D R
(57411.097000) vcan0 00000002#3C9E8E R
(57411.335000) vcan0 00000001#3D9F8F R
(57411.571000) vcan0 00000002#3EA090 R
(57411.815000) vcan0 00000001#3FA191 R
(57412.050000) vcan0 00000002#40A292 R
(57412.292000) vcan0 00000001#41A393 R
(57412.528000) vcan0 00000002#42A494 R
(57412.771000) vcan0 00000001#43A595 R
(57413.007000) vcan0 00000002#44A696 R
(57413.248000) vcan0 00000001#45A797 R
(57413.484000) vcan0 00000002#46A898 R
(57413.728000) vcan0 00000001#47A999 R
(57413.964000) vcan0 00000002#48AA9A R
(57414.200000) vcan0 00000001#49559B R
(57414.441000) vcan0 00000002#4A569C R
(57414.685000) vcan0 00000001#4B579D R
(57414.920000) vcan0 00000002#4C589E R
(57415.156000) vcan0 00000001#4D599F R
(57415.397000) vcan0 00000002#4E5AA0 R
(57415.641000) vcan0 00000001#4F5BA1 R
(57415.877000) vcan0 00000002#505CA2 R
(57416.113000) vcan0 00000001#515DA3 R
(57416.351000) vcan0 00000002#525EA4 R
(57416.587000) vcan0 00000001#535FA5 R
(57416.830000) vcan0 00000002#5460A6 R
(57417.066000) vcan0 00000001#0061A7 R
(57417.308000) vcan0 00000002#0162A8 R
(57417.543000) vcan0 00000001#0263A9 R
(57417.787000) vcan0 00000002#0364AA R
(57418.023000) vcan0 00000001#0465AB R
(57418.265000) vcan0 00000002#0566AC R
(57418.500000) vcan0 00000001#0667AD R
(57418.744000) vcan0 00000002#0768AE R
(57418.980000) vcan0 00000001#0869AF R
(57419.218000) vcan0 00000002#096AB0 R
(57419.454000) vcan0 00000001#0A6BB1 R
(57419.698000) vcan0 00000002#0B6CB2 R
(57419.934000) vcan0 00000001#0C6DB3 R
(57420.170000) vcan0 00000002#0D6EB4 R
(57420.411000) vcan0 00000001#0E6FB5 R
(57420.655000) vcan0 00000002#0F70B6 R
(57420.891000) vcan0 00000001#1071B7 R
(57421.127000) vcan0 00000002#1172B8 R
(57421.365000) vcan0 00000001#1273B9 R
(57421.600000) vcan0 00000002#1374BA R
(57421.844000) vcan0 00000001#1475BB R
(57422.080000) vcan0 00000002#1576BC R
(57422.318000) vcan0 00000001#1677BD R
(57422.554000) vcan0 00000002#1778BE R
(57422.798000) vcan0 00000001#1879BF R
(57423.033000) vcan0 00000002#197AC0 R
(57423.275000) vcan0 00000001#1A7BC1 R
(57423.511000) vcan0 00000002#1B7CC2 R
(57423.754000) vcan0 00000001#1C7DC3 R
(57423.990000) vcan0 00000002#1D7EC4 R
(57424.232000) vcan0 00000001#1E7FC5 R
(57424.468000) vcan0 00000002#1F80C6 R
(57424.712000) vcan0 00000001#2081C7 R
(57424.948000) vcan0 00000002#2182C8 R
(57425.183000) vcan0 00000001#2283C9 R
(57425.424000) vcan0 00000002#2384CA R
(57425.668000) vcan0 00000001#2485CB R
(57425.904000) vcan0 00000002#2586CC R
(57426.140000) vcan0 00000001#2687CD R
(57426.381000) vcan0 00000002#2788CE R
(57426.617000) vcan0 00000001#2889CF R
(57426.861000) vcan0 00000002#298AD0 R
(57427.097000) vcan0 00000001#2A8BD1 R
(57427.335000) vcan0 00000002#2B8CD2 R
(57427.570000) vcan0 00000001#2C8DD3 R
(57427.814000) vcan0 00000002#2D8ED4 R
(57428.050000) vcan0 00000001#2E8FD5 R
(57428.291000) vcan0 00000002#2F90D6 R
(57428.527000) vcan0 00000001#3091D7 R
(57428.771000) vcan0 00000002#3192D8 R
(57429.007000) vcan0 00000001#3293D9 R
(57429.248000) vcan0 00000002#3394DA R
(57429.484000) vcan0 00000001#3495DB R
(57429.728000) vcan0 00000002#3596DC R
(57429.964000) vcan0 00000001#3697DD R
(57430.200000) vcan0 00000002#3798DE R
(57430.441000) vcan0 00000001#3899DF R
(57430.685000) vcan0 00000002#399AE0 R
(57430.920000) vcan0 00000001#3A9BE1 R
(57431.156000) vcan0 00000002#3B9CE2 R
(57431.397000) vcan0 00000001#3C9DE3 R
(57431.641000) vcan0 00000002#3D9EE4 R
(57431.877000) vcan0 00000001#3E9FE5 R
(57432.113000) vcan0 00000002#3FA0E6 R
(57432.351000) vcan0 00000001#40A1E7 R
(57432.587000) vcan0 00000002#41A2E8 R
(57432.831000) vcan0 00000001#42A3E9 R
(57433.067000) vcan0 00000002#43A4EA R
(57433.308000) vcan0 00000001#44A5EB R
(57433.544000) vcan0 00000002#45A6EC R
(57433.788000) vcan0 00000001#46A7ED R
(57434.024000) vcan0 00000002#47A8EE R
(57434.264000) vcan0 00000001#48A9EF R
(57434.500000) vcan0 00000002#49AAF0 R
(57434.744000) vcan0 00000001#4A55F1 R
(57434.980000) vcan0 00000002#4B56F2 R
(57435.218000) vcan0 00000001#4C57F3 R
(57435.454000) vcan0 00000002#4D58F4 R
(57435.698000) vcan0 00000001#4E59F5 R
(57435.934000) vcan0 00000002#4F5AF6 R
(57436.170000) vcan0 00000001#505BF7 R
(57436.411000) vcan0 00000002#515CF8 R
(57436.655000) vcan0 00000001#525DF9 R
(57436.891000) vcan0 00000002#535EFA R
(57437.127000) vcan0 00000001#545FFB R
(57437.365000) vcan0 00000002#0060FC R
(57437.600000) vcan0 00000001#0161FD R
(57437.844000) vcan0 00000002#0262FE R
(57438.080000) vcan0 00000001#0363FF R
(57438.318000) vcan0 00000002#046400 R
(57438.554000) vcan0 00000001#056501 R
(57438.798000) vcan0 00000002#066602 R
(57439.033000) vcan0 00000001#076703 R
(57439.275000) vcan0 00000002#086804 R
(57439.511000) vcan0 00000001#096905 R
(57439.754000) vcan0 00000002#0A6A06 R
(57439.990000) vcan0 00000001#0B6B07 R
(57440.232000) vcan0 00000002#0C6C08 R
(57440.468000) vcan0 00000001#0D6D09 R
(57440.712000) vcan0 00000002#0E6E0A R
(57440.947000) vcan0 00000001#0F6F0B R
(57441.183000) vcan0 00000002#10700C R
(57441.424000) vcan0 00000001#11710D R
(57441.668000) vcan0 00000002#12720E R
(57441.904000) vcan0 00000001#13730F R
(57442.140000) vcan0 00000002#147410 R
(57442.381000) vcan0 00000001#157511 R
(57442.617000) vcan0 00000002#167612 R
(57442.861000) vcan0 00000001#177713 R
(57443.097000) vcan0 00000002#187814 R
(57443.335000) vcan0 00000001#197915 R
(57443.570000) vcan0 00000002#1A7A16 R
(57443.814000) vcan0 00000001#1B7B17 R
(57444.050000) vcan0 00000002#1C7C18 R
(57444.291000) vcan0 00000001#1D7D19 R
(57444.527000) vcan0 00000002#1E7E1A R
(57444.771000) vcan0 00000001#1F7F1B R
(57445.007000) vcan0 00000002#20801C R
(57445.248000) vcan0 00000001#21811D R
(57445.484000) vcan0 00000002#22821E R
(57445.728000) vcan0 00000001#23831F R
(57445.964000) vcan0 00000002#248420 R
(57446.200000) vcan0 00000001#258521 R
(57446.441000) vcan0 00000002#268622 R
(57446.685000) vcan0 00000001#278723 R
(57446.920000) vcan0 00000002#288824 R
(57447.156000) vcan0 00000001#298925 R
(57447.397000) vcan0 00000002#2A8A26 R
(57447.641000) vcan0 00000001#2B8B27 R
(57447.877000) vcan0 00000002#2C8C28 R
(57448.113000) vcan0 00000001#2D8D29 R
(57448.351000) vcan0 00000002#2E8E2A R
(57448.587000) vcan0 00000001#2F8F2B R
(57448.830000) vcan0 00000002#30902C R
(57449.066000) vcan0 00000001#31912D R
(57449.308000) vcan0 00000002#32922E R
(57449.543000) vcan0 00000001#33932F R
(57449.787000) vcan0 00000002#349430 R
(57450.023000) vcan0 00000001#359531 R
(57450.265000) vcan0 00000002#369632 R
(57450.500000) vcan0 00000001#379733 R
(57450.744000) vcan0 00000002#389834 R
(57450.980000) vcan0 00000001#399935 R
(57451.218000) vcan0 00000002#3A9A36 R
(57451.454000) vcan0 00000001#3B9B37 R
(57451.698000) vcan0 00000002#3C9C38 R
(57451.934000) vcan0 00000001#3D9D39 R
(57452.170000) vcan0 00000002#3E9E3A R
(57452.412000) vcan0 00000001#3F9F3B R
(57452.655000) vcan0 00000002#40A03C R
(57452.891000) vcan0 00000001#41A13D R
(57453.127000) vcan0 00000002#42A23E R
(57453.365000) vcan0 00000001#43A33F R
(57453.601000) vcan0 00000002#44A440 R
(57453.845000) vcan0 00000001#45A541 R
(57454.080000) vcan0 00000002#46A642 R
(57454.318000) vcan0 00000001#47A743 R
(57454.554000) vcan0 00000002#48A844 R
(57454.798000) vcan0 00000001#49A945 R
(57455.033000) vcan0 00000002#4AAA46 R
(57455.275000) vcan0 00000001#4B5547 R
(57455.511000) vcan0 00000002#4C5648 R
(57455.754000) vcan0 00000001#4D5749 R
(57455.990000) vcan0 00000002#4E584A R
(57456.232000) vcan0 00000001#4F594B R
(57456.468000) vcan0 00000002#505A4C R
(57456.712000) vcan0 00000001#515B4D R
(57456.948000) vcan0 00000002#525C4E R
(57457.183000) vcan0 00000001#535D4F R
(57457.424000) vcan0 00000002#545E50 R
(57457.668000) vcan0 00000001#005F51 R
(57457.904000) vcan0 00000002#016052 R
(57458.140000) vcan0 00000001#026153 R
(57458.381000) vcan0 00000002#036254 R
(57458.617000) vcan0 00000001#046355 R
(57458.861000) vcan0 00000002#056456 R
(57459.097000) vcan0 00000001#066557 R
(57459.335000) vcan0 00000002#076658 R
(57459.571000) vcan0 00000001#086759 R
(57459.815000) vcan0 00000002#09685A R
(57460.050000) vcan0 00000001#0A695B R
(57460.291000) vcan0 00000002#0B6A5C R
(57460.527000) vcan0 00000001#0C6B5D R
(57460.771000) vcan0 00000002#0D6C5E R
(57461.006000) vcan0 00000001#0E6D5F R
(57461.248000) vcan0 00000002#0F6E60 R
(57461.484000) vcan0 00000001#106F61 R
(57461.728000) vcan0 00000002#117062 R
(57461.964000) vcan0 00000001#127163 R
(57462.200000) vcan0 00000002#137264 R
(57462.441000) vcan0 00000001#147365 R
(57462.685000) vcan0 00000002#157466 R
(57462.920000) vcan0 00000001#167567 R
(57463.156000) vcan0 00000002#177668 R
(57463.397000) vcan0 00000001#187769 R
(57463.641000) vcan0 00000002#19786A R
(57463.877000) vcan0 00000001#1A796B R
(57464.113000) vcan0 00000002#1B7A6C R
(57464.351000) vcan0 00000001#1C7B6D R
(57464.587000) vcan0 00000002#1D7C6E R
(57464.831000) vcan0 00000001#1E7D6F R
(57465.067000) vcan0 00000002#1F7E70 R
(57465.308000) vcan0 00000001#207F71 R
(57465.544000) vcan0 00000002#218072 R
(57465.788000) vcan0 00000001#228173 R
(57466.024000) vcan0 00000002#238274 R
(57466.264000) vcan0 00000001#248375 R
(57466.500000) vcan0 00000002#258476 R
(57466.744000) vcan0 00000001#268577 R
(57466.980000) vcan0 00000002#278678 R
(57467.218000) vcan0 00000001#288779 R
(57467.454000) vcan0 00000002#29887A R
(57467.698000) vcan0 00000001#2A897B R
(57467.934000) vcan0 00000002#2B8A7C R
(57468.170000) vcan0 00000001#2C8B7D R
(57468.412000) vcan0 00000002#2D8C7E R
(57468.655000) vcan0 00000001#2E8D7F R
(57468.891000) vcan0 00000002#2F8E80 R
(57469.127000) vcan0 00000001#308F81 R
(57469.365000) vcan0 00000002#319082 R
(57469.600000) vcan0 00000001#329183 R
(57469.844000) vcan0 00000002#339284 R
(57470.080000) vcan0 00000001#349385 R
(57470.318000) vcan0 00000002#359486 R
(57470.554000) vcan0 00000001#369587 R
(57470.798000) vcan0 00000002#379688 R
(57471.033000) vcan0 00000001#389789 R
(57471.275000) vcan0 00000002#39988A R
(57471.511000) vcan0 00000001#3A998B R
(57471.755000) vcan0 00000002#3B9A8C R
(57471.990000) vcan0 00000001#3C9B8D R
(57472.232000) vcan0 00000002#3D9C8E R
(57472.468000) vcan0 00000001#3E9D8F R
(57472.712000) vcan0 00000002#3F9E90 R
(57472.948000) vcan0 00000001#409F91 R
(57473.184000) vcan0 00000002#41A092 R
(57473.424000) vcan0 00000001#42A193 R
(57473.668000) vcan0 00000002#43A294 R
(57473.904000) vcan0 00000001#44A395 R
(57474.140000) vcan0 00000002#45A496 R
(57474.381000) vcan0 00000001#46A597 R
(57474.617000) vcan0 00000002#47A698 R
(57474.861000) vcan0 00000001#48A799 R
(57475.097000) vcan0 00000002#49A89A R
(57475.335000) vcan0 00000001#4AA99B R
(57475.571000) vcan0 00000002#4BAA9C R
(57475.815000) vcan0 00000001#4C559D R
(57476.050000) vcan0 00000002#4D569E R
(57476.292000) vcan0 00000001#4E579F R
(57476.528000) vcan0 00000002#4F58A0 R
(57476.771000) vcan0 00000001#5059A1 R
(57477.007000) vcan0 00000002#515AA2 R
(57477.248000) vcan0 00000001#525BA3 R
(57477.484000) vcan0 00000002#535CA4 R
(57477.728000) vcan0 00000001#545DA5 R
(57477.964000) vcan0 00000002#005EA6 R
(57478.200000) vcan0 00000001#015FA7 R
(57478.441000) vcan0 00000002#0260A8 R
(57478.685000) vcan0 00000001#0361A9 R
(57478.920000) vcan0 00000002#0462AA R
(57479.156000) vcan0 00000001#0563AB R
(57479.397000) vcan0 00000002#0664AC R
(57479.641000) vcan0 00000001#0765AD R
(57479.877000) vcan0 00000002#0866AE R
(57480.113000) vcan0 00000001#0967AF R
(57480.351000) vcan0 00000002#0A68B0 R
(57480.587000) vcan0 00000001#0B69B1 R
(57480.830000) vcan0 00000002#0C6AB2 R
(57481.066000) vcan0 00000001#0D6BB3 R
(57481.308000) vcan0 00000002#0E6CB4 R
(57481.543000) vcan0 00000001#0F6DB5 R
(57481.787000) vcan0 00000002#106EB6 R
(57482.023000) vcan0 00000001#116FB7 R
(57482.265000) vcan0 00000002#1270B8 R
(57482.500000) vcan0 00000001#1371B9 R
(57482.744000) vcan0 00000002#1472BA R
(57482.980000) vcan0 00000001#1573BB R
(57483.218000) vcan0 00000002#1674BC R
(57483.454000) vcan0 00000001#1775BD R
(57483.698000) vcan0 00000002#1876BE R
(57483.934000) vcan0 00000001#1977BF R
(57484.170000) vcan0 00000002#1A78C0 R
(57484.412000) vcan0 00000001#1B79C1 R
(57484.655000) vcan0 00000002#1C7AC2 R
(57484.891000) vcan0 00000001#1D7BC3 R
(57485.127000) vcan0 00000002#1E7CC4 R
(57485.365000) vcan0 00000001#1F7DC5 R
(57485.601000) vcan0 00000002#207EC6 R
(57485.845000) vcan0 00000001#217FC7 R
(57486.080000) vcan0 00000002#2280C8 R
(57486.318000) vcan0 00000001#2381C9 R
(57486.554000) vcan0 00000002#2482CA R
(57486.798000) vcan0 00000001#2583CB R
(57487.033000) vcan0 00000002#2684CC R
(57487.275000) vcan0 00000001#2785CD R
(57487.511000) vcan0 00000002#2886CE R
(57487.754000) vcan0 00000001#2987CF R
(57487.990000) vcan0 00000002#2A88D0 R
(57488.232000) vcan0 00000001#2B89D1 R
(57488.468000) vcan0 00000002#2C8AD2 R
(57488.712000) vcan0 00000001#2D8BD3 R
(57488.948000) vcan0 00000002#2E8CD4 R
(57489.183000) vcan0 00000001#2F8DD5 R
(57489.424000) vcan0 00000002#308ED6 R
(57489.668000) vcan0 00000001#318FD7 R
(57489.904000) vcan0 00000002#3290D8 R
(57490.140000) vcan0 00000001#3391D9 R
(57490.381000) vcan0 00000002#3492DA R
(57490.617000) vcan0 00000001#3593DB R
(57490.861000) vcan0 00000002#3694DC R
(57491.096000) vcan0 00000001#3795DD R
(57491.335000) vcan0 00000002#3896DE R
(57491.571000) vcan0 00000001#3997DF R
(57491.815000) vcan0 00000002#3A98E0 R
(57492.050000) vcan0 00000001#3B99E1 R
(57492.292000) vcan0 00000002#3C9AE2 R
(57492.528000) vcan0 00000001#3D9BE3 R
(57492.771000) vcan0 00000002#3E9CE4 R
(57493.007000) vcan0 00000001#3F9DE5 R
(57493.248000) vcan0 00000002#409EE6 R
(57493.484000) vcan0 00000001#419FE7 R
(57493.728000) vcan0 00000002#42A0E8 R
(57493.964000) vcan0 00000001#43A1E9 R
(57494.200000) vcan0 00000002#44A2EA R
(57494.441000) vcan0 00000001#45A3EB R
(57494.685000) vcan0 00000002#46A4EC R
(57494.920000) vcan0 00000001#47A5ED R
(57495.156000) vcan0 00000002#48A6EE R
(57495.397000) vcan0 00000001#49A7EF R
(57495.641000) vcan0 00000002#4AA8F0 R
(57495.877000) vcan0 00000001#4BA9F1 R
(57496.113000) vcan0 00000002#4CAAF2 R
(57496.351000) vcan0 00000001#4D55F3 R
(57496.587000) vcan0 00000002#4E56F4 R
(57496.830000) vcan0 00000001#4F57F5 R
(57497.066000) vcan0 00000002#5058F6 R
(57497.308000) vcan0 00000001#5159F7 R
(57497.543000) vcan0 00000002#525AF8 R
(57497.787000) vcan0 00000001#535BF9 R
(57498.023000) vcan0 00000002#545CFA R
(57498.265000) vcan0 00000001#005DFB R
(57498.500000) vcan0 00000002#015EFC R
(57498.744000) vcan0 00000001#025FFD R
(57498.980000) vcan0 00000002#0360FE R
(57499.218000) vcan0 00000001#0461FF R
(57499.454000) vcan0 00000002#056200 R
(57499.698000) vcan0 00000001#066301 R
(57499.934000) vcan0 00000002#076402 R
(57500.170000) vcan0 00000001#086503 R
(57500.411000) vcan0 00000002#096604 R
(57500.655000) vcan0 00000001#0A6705 R
(57500.891000) vcan0 00000002#0B6806 R
(57501.127000) vcan0 00000001#0C6907 R
(57501.365000) vcan0 00000002#0D6A08 R
(57501.600000) vcan0 00000001#0E6B09 R
(57501.844000) vcan0 00000002#0F6C0A R
(57502.080000) vcan0 00000001#106D0B R
(57502.318000) vcan0 00000002#116E0C R
(57502.554000) vcan0 00000001#126F0D R
(57502.798000) vcan0 00000002#13700E R
(57503.033000) vcan0 00000001#14710F R
(57503.275000) vcan0 00000002#157210 R
(57503.511000) vcan0 00000001#167311 R
(57503.754000) vcan0 00000002#177412 R
(57503.990000) vcan0 00000001#187513 R
(57504.232000) vcan0 00000002#197614 R
(57504.468000) vcan0 00000001#1A7715 R
(57504.712000) vcan0 00000002#1B7816 R
(57504.947000) vcan0 00000001#1C7917 R
(57505.183000) vcan0 00000002#1D7A18 R
(57505.424000) vcan0 00000001#1E7B19 R
(57505.668000) vcan0 00000002#1F7C1A R
(57505.904000) vcan0 00000001#207D1B R
(57506.140000) vcan0 00000002#217E1C R
(57506.381000) vcan0 00000001#227F1D R
(57506.617000) vcan0 00000002#23801E R
(57506.861000) vcan0 00000001#24811F R
(57507.097000) vcan0 00000002#258220 R
(57507.335000) vcan0 00000001#268321 R
(57507.570000) vcan0 00000002#278422 R
(57507.814000) vcan0 00000001#288523 R
(57508.050000) vcan0 00000002#298624 R
(57508.291000) vcan0 00000001#2A8725 R
(57508.527000) vcan0 00000002#2B8826 R
(57508.771000) vcan0 00000001#2C8927 R
(57509.007000) vcan0 00000002#2D8A28 R
(57509.248000) vcan0 00000001#2E8B29 R
(57509.484000) vcan0 00000002#2F8C2A R
(57509.728000) vcan0 00000001#308D2B R
(57509.964000) vcan0 00000002#318E2C R
(57510.200000) vcan0 00000001#328F2D R
(57510.441000) vcan0 00000002#33902E R
(57510.685000) vcan0 00000001#34912F R
(57510.920000) vcan0 00000002#359230 R
(57511.156000) vcan0 00000001#369331 R
(57511.397000) vcan0 00000002#379432 R
(57511.641000) vcan0 00000001#389533 R
(57511.877000) vcan0 00000002#399634 R
(57512.113000) vcan0 00000001#3A9735 R
(57512.351000) vcan0 00000002#3B9836 R
(57512.587000) vcan0 00000001#3C9937 R
(57512.830000) vcan0 00000002#3D9A38 R
(57513.066000) vcan0 00000001#3E9B39 R
(57513.308000) vcan0 00000002#3F9C3A R
(57513.543000) vcan0 00000001#409D3B R
(57513.787000) vcan0 00000002#419E3C R
(57514.023000) vcan0 00000001#429F3D R
(57514.265000) vcan0 00000002#43A03E R
(57514.500000) vcan0 00000001#44A13F R
(57514.744000) vcan0 00000002#45A240 R
(57514.980000) vcan0 00000001#46A341 R
(57515.218000) vcan0 00000002#47A442 R
(57515.454000) vcan0 00000001#48A543 R
(57515.698000) vcan0 00000002#49A644 R
(57515.934000) vcan0 00000001#4AA745 R
(57516.170000) vcan0 00000002#4BA846 R
(57516.412000) vcan0 00000001#4CA947 R
(57516.655000) vcan0 00000002#4DAA48 R
(57516.891000) vcan0 00000001#4E5549 R
(57517.127000) vcan0 00000002#4F564A R
(57517.365000) vcan0 00000001#50574B R
(57517.601000) vcan0 00000002#51584C R
(57517.845000) vcan0 00000001#52594D R
(57518.080000) vcan0 00000002#535A4E R
(57518.318000) vcan0 00000001#545B4F R
(57518.554000) vcan0 00000002#005C50 R
(57518.798000) vcan0 00000001#015D51 R
(57519.033000) vcan0 00000002#025E52 R
(57519.275000) vcan0 00000001#035F53 R
(57519.511000) vcan0 00000002#046054 R
(57519.754000) vcan0 00000001#056155 R
(57519.990000) vcan0 00000002#066256 R
(57520.232000) vcan0 00000001#076357 R
(57520.468000) vcan0 00000002#086458 R
(57520.712000) vcan0 00000001#096559 R
(57520.948000) vcan0 00000002#0A665A R
(57521.183000) vcan0 00000001#0B675B R
(57521.424000) vcan0 00000002#0C685C R
(57521.668000) vcan0 00000001#0D695D R
(57521.904000) vcan0 00000002#0E6A5E R
(57522.140000) vcan0 00000001#0F6B5F R
(57522.381000) vcan0 00000002#106C60 R
(57522.617000) vcan0 00000001#116D61 R
(57522.861000) vcan0 00000002#126E62 R
(57523.096000) vcan0 00000001#136F63 R
(57523.335000) vcan0 00000002#147064 R
(57523.571000) vcan0 00000001#157165 R
(57523.815000) vcan0 00000002#167266 R
(57524.050000) vcan0 00000001#177367 R
(57524.292000) vcan0 00000002#187468 R
(57524.528000) vcan0 00000001#197569 R
(57524.771000) vcan0 00000002#1A766A R
(57525.007000) vcan0 00000001#1B776B R
(57525.248000) vcan0 00000002#1C786C R
(57525.484000) vcan0 00000001#1D796D R
(57525.728000) vcan0 00000002#1E7A6E R
(57525.964000) vcan0 00000001#1F7B6F R
(57526.200000) vcan0 00000002#207C70 R
(57526.441000) vcan0 00000001#217D71 R
(57526.685000) vcan0 00000002#227E72 R
(57526.920000) vcan0 00000001#237F73 R
(57527.156000) vcan0 00000002#248074 R
(57527.397000) vcan0 00000001#258175 R
(57527.641000) vcan0 00000002#268276 R
(57527.877000) vcan0 00000001#278377 R
(57528.113000) vcan0 00000002#288478 R
(57528.351000) vcan0 00000001#298579 R
(57528.587000) vcan0 00000002#2A867A R
(57528.830000) vcan0 00000001#2B877B R
(57529.066000) vcan0 00000002#2C887C R
(57529.308000) vcan0 00000001#2D897D R
(57529.543000) vcan0 00000002#2E8A7E R
(57529.787000) vcan0 00000001#2F8B7F R
(57530.023000) vcan0 00000002#308C80 R
(57530.265000) vcan0 00000001#318D81 R
(57530.500000) vcan0 00000002#328E82 R
(57530.744000) vcan0 00000001#338F83 R
(57530.980000) vcan0 00000002#349084 R
(57531.218000) vcan0 00000001#359185 R
(57531.454000) vcan0 00000002#369286 R
(57531.698000) vcan0 00000001#379387 R
(57531.934000) vcan0 00000002#389488 R
(57532.170000) vcan0 00000001#399589 R
(57532.412000) vcan0 00000002#3A968A R
(57532.655000) vcan0 00000001#3B978B R
(57532.891000) vcan0 00000002#3C988C R
(57533.127000) vcan0 00000001#3D998D R
(57533.365000) vcan0 00000002#3E9A8E R
(57533.601000) vcan0 00000001#3F9B8F R
(57533.845000) vcan0 00000002#409C90 R
(57534.080000) vcan0 00000001#419D91 R
(57534.318000) vcan0 00000002#429E92 R
(57534.554000) vcan0 00000001#439F93 R
(57534.798000) vcan0 00000002#44A094 R
(57535.033000) vcan0 00000001#45A195 R
(57535.275000) vcan0 00000002#46A296 R
(57535.511000) vcan0 00000001#47A397 R
(57535.754000) vcan0 00000002#48A498 R
(57535.990000) vcan0 00000001#49A599 R
(57536.232000) vcan0 00000002#4AA69A R
(57536.468000) vcan0 00000001#4BA79B R
(57536.712000) vcan0 00000002#4CA89C R
(57536.947000) vcan0 00000001#4DA99D R
(57537.183000) vcan0 00000002#4EAA9E R
(57537.424000) vcan0 00000001#4F559F R
(57537.668000) vcan0 00000002#5056A0 R
(57537.904000) vcan0 00000001#5157A1 R
(57538.140000) vcan0 00000002#5258A2 R
(57538.381000) vcan0 00000001#5359A3 R
(57538.617000) vcan0 00000002#545AA4 R
(57538.861000) vcan0 00000001#005BA5 R
(57539.097000) vcan0 00000002#015CA6 R
(57539.335000) vcan0 00000001#025DA7 R
(57539.571000) vcan0 00000002#035EA8 R
(57539.815000) vcan0 00000001#045FA9 R
(57540.050000) vcan0 00000002#0560AA R
(57540.292000) vcan0 00000001#0661AB R
(57540.528000) vcan0 00000002#0762AC R
(57540.771000) vcan0 00000001#0863AD R
(57541.007000) vcan0 00000002#0964AE R
(57541.248000) vcan0 00000001#0A65AF R
(57541.484000) vcan0 00000002#0B66B0 R
(57541.728000) vcan0 00000001#0C67B1 R
(57541.964000) vcan0 00000002#0D68B2 R
(57542.200000) vcan0 00000001#0E69B3 R
(57542.441000) vcan0 00000002#0F6AB4 R
(57542.685000) vcan0 00000001#106BB5 R
(57542.920000) vcan0 00000002#116CB6 R
(57543.156000) vcan0 00000001#126DB7 R
(57543.397000) vcan0 00000002#136EB8 R
(57543.641000) vcan0 00000001#146FB9 R
(57543.877000) vcan0 00000002#1570BA R
(57544.113000) vcan0 00000001#1671BB R
(57544.351000) vcan0 00000002#1772BC R
(57544.587000) vcan0 00000001#1873BD R
(57544.830000) vcan0 00000002#1974BE R
(57545.066000) vcan0 00000001#1A75BF R
(57545.308000) vcan0 00000002#1B76C0 R
(57545.543000) vcan0 00000001#1C77C1 R
(57545.787000) vcan0 00000002#1D78C2 R
(57546.023000) vcan0 00000001#1E79C3 R
(57546.265000) vcan0 00000002#1F7AC4 R
(57546.500000) vcan0 00000001#207BC5 R
(57546.744000) vcan0 00000002#217CC6 R
(57546.980000) vcan0 00000001#227DC7 R
(57547.218000) vcan0 00000002#237EC8 R
(57547.454000) vcan0 00000001#247FC9 R
(57547.698000) vcan0 00000002#2580CA R
(57547.934000) vcan0 00000001#2681CB R
(57548.170000) vcan0 00000002#2782CC R
(57548.411000) vcan0 00000001#2883CD R
(57548.655000) vcan0 00000002#2984CE R
(57548.891000) vcan0 00000001#2A85CF R
(57549.127000) vcan0 00000002#2B86D0 R
(57549.365000) vcan0 00000001#2C87D1 R
(57549.600000) vcan0 00000002#2D88D2 R
(57549.844000) vcan0 00000001#2E89D3 R
(57550.080000) vcan0 00000002#2F8AD4 R
(57550.318000) vcan0 00000001#308BD5 R
(57550.554000) vcan0 00000002#318CD6 R
(57550.798000) vcan0 00000001#328DD7 R
(57551.033000) vcan0 00000002#338ED8 R
(57551.275000) vcan0 00000001#348FD9 R
(57551.511000) vcan0 00000002#3590DA R
(57551.754000) vcan0 00000001#3691DB R
(57551.990000) vcan0 00000002#3792DC R
(57552.232000) vcan0 00000001#3893DD R
(57552.468000) vcan0 00000002#3994DE R
(57552.712000) vcan0 00000001#3A95DF R
(57552.948000) vcan0 00000002#3B96E0 R
(57553.183000) vcan0 00000001#3C97E1 R
(57553.424000) vcan0 00000002#3D98E2 R
(57553.668000) vcan0 00000001#3E99E3 R
(57553.904000) vcan0 00000002#3F9AE4 R
(57554.140000) vcan0 00000001#409BE5 R
(57554.381000) vcan0 00000002#419CE6 R
(57554.617000) vcan0 00000001#429DE7 R
(57554.861000) vcan0 00000002#439EE8 R
(57555.097000) vcan0 00000001#449FE9 R
(57555.335000) vcan0 00000002#45A0EA R
(57555.570000) vcan0 00000001#46A1EB R
(57555.814000) vcan0 00000002#47A2EC R
(57556.050000) vcan0 00000001#48A3ED R
(57556.291000) vcan0 00000002#49A4EE R
(57556.527000) vcan0 00000001#4AA5EF R
(57556.771000) vcan0 00000002#4BA6F0 R
(57557.007000) vcan0 00000001#4CA7F1 R
(57557.248000) vcan0 00000002#4DA8F2 R
(57557.484000) vcan0 00000001#4EA9F3 R
(57557.728000) vcan0 00000002#4FAAF4 R
(57557.964000) vcan0 00000001#5055F5 R
(57558.200000) vcan0 00000002#5156F6 R
(57558.441000) vcan0 00000001#5257F7 R
(57558.685000) vcan0 00000002#5358F8 R
(57558.920000) vcan0 00000001#5459F9 R
(57559.156000) vcan0 00000002#005AFA R
(57559.397000) vcan0 00000001#015BFB R
(57559.641000) vcan0 00000002#025CFC R
(57559.877000) vcan0 00000001#035DFD R
(57560.113000) vcan0 00000002#045EFE R
(57560.351000) vcan0 00000001#055FFF R
(57560.586000) vcan0 00000002#066000 R
(57560.830000) vcan0 00000001#076101 R
(57561.066000) vcan0 00000002#086202 R
(57561.308000) vcan0 00000001#096303 R
(57561.544000) vcan0 00000002#0A6404 R
(57561.787000) vcan0 00000001#0B6505 R
(57562.023000) vcan0 00000002#0C6606 R
(57562.265000) vcan0 00000001#0D6707 R
(57562.501000) vcan0 00000002#0E6808 R
(57562.745000) vcan0 00000001#0F6909 R
(57562.980000) vcan0 00000002#106A0A R
(57563.218000) vcan0 00000001#116B0B R
(57563.454000) vcan0 00000002#126C0C R
(57563.698000) vcan0 00000001#136D0D R
(57563.934000) vcan0 00000002#146E0E R
(57564.169000) vcan0 00000001#156F0F R
(57564.411000) vcan0 00000002#167010 R
(57564.655000) vcan0 00000001#177111 R
(57564.891000) vcan0 00000002#187212 R
(57565.126000) vcan0 00000001#197313 R
(57565.365000) vcan0 00000002#1A7414 R
(57565.601000) vcan0 00000001#1B7515 R
(57565.844000) vcan0 00000002#1C7616 R
(57566.080000) vcan0 00000001#1D7717 R
(57566.318000) vcan0 00000002#1E7818 R
(57566.554000) vcan0 00000001#1F7919 R
(57566.798000) vcan0 00000002#207A1A R
(57567.033000) vcan0 00000001#217B1B R
(57567.275000) vcan0 00000002#227C1C R
(57567.511000) vcan0 00000001#237D1D R
(57567.754000) vcan0 00000002#247E1E R
(57567.990000) vcan0 00000001#257F1F R
(57568.232000) vcan0 00000002#268020 R
(57568.468000) vcan0 00000001#278121 R
(57568.712000) vcan0 00000002#288222 R
(57568.947000) vcan0 00000001#298323 R
(57569.183000) vcan0 00000002#2A8424 R
(57569.424000) vcan0 00000001#2B8525 R
(57569.668000) vcan0 00000002#2C8626 R
(57569.904000) vcan0 00000001#2D8727 R
(57570.140000) vcan0 00000002#2E8828 R
(57570.381000) vcan0 00000001#2F8929 R
(57570.617000) vcan0 00000002#308A2A R
(57570.861000) vcan0 00000001#318B2B R
(57571.097000) vcan0 00000002#328C2C R
(57571.335000) vcan0 00000001#338D2D R
(57571.570000) vcan0 00000002#348E2E R
(57571.814000) vcan0 00000001#358F2F R
(57572.050000) vcan0 00000002#369030 R
(57572.291000) vcan0 00000001#379131 R
(57572.527000) vcan0 00000002#389232 R
(57572.771000) vcan0 00000001#399333 R
(57573.007000) vcan0 00000002#3A9434 R
(57573.248000) vcan0 00000001#3B9535 R
(57573.484000) vcan0 00000002#3C9636 R
(57573.728000) vcan0 00000001#3D9737 R
(57573.964000) vcan0 00000002#3E9838 R
(57574.200000) vcan0 00000001#3F9939 R
(57574.441000) vcan0 00000002#409A3A R
(57574.685000) vcan0 00000001#419B3B R
(57574.920000) vcan0 00000002#429C3C R
(57575.156000) vcan0 00000001#439D3D R
(57575.397000) vcan0 00000002#449E3E R
(57575.641000) vcan0 00000001#459F3F R
(57575.877000) vcan0 00000002#46A040 R
(57576.113000) vcan0 00000001#47A141 R
(57576.351000) vcan0 00000002#48A242 R
(57576.587000) vcan0 00000001#49A343 R
(57576.830000) vcan0 00000002#4AA444 R
(57577.066000) vcan0 00000001#4BA545 R
(57577.308000) vcan0 00000002#4CA646 R
(57577.543000) vcan0 00000001#4DA747 R
(57577.787000) vcan0 00000002#4EA848 R
(57578.023000) vcan0 00000001#4FA949 R
(57578.265000) vcan0 00000002#50AA4A R
(57578.500000) vcan0 00000001#51554B R
(57578.744000) vcan0 00000002#52564C R
(57578.980000) vcan0 00000001#53574D R
(57579.218000) vcan0 00000002#54584E R
(57579.454000) vcan0 00000001#00594F R
(57579.698000) vcan0 00000002#015A50 R
(57579.934000) vcan0 00000001#025B51 R
(57580.169000) vcan0 00000002#035C52 R
(57580.411000) vcan0 00000001#045D53 R
(57580.655000) vcan0 00000002#055E54 R
(57580.891000) vcan0 00000001#065F55 R
(57581.127000) vcan0 00000002#076056 R
(57581.365000) vcan0 00000001#086157 R
(57581.601000) vcan0 00000002#096258 R
(57581.844000) vcan0 00000001#0A6359 R
(57582.080000) vcan0 00000002#0B645A R
(57582.318000) vcan0 00000001#0C655B R
(57582.554000) vcan0 00000002#0D665C R
(57582.798000) vcan0 00000001#0E675D R
(57583.033000) vcan0 00000002#0F685E R
(57583.275000) vcan0 00000001#10695F R
(57583.511000) vcan0 00000002#116A60 R
(57583.754000) vcan0 00000001#126B61 R
(57583.990000) vcan0 00000002#136C62 R
(57584.232000) vcan0 00000001#146D63 R
(57584.468000) vcan0 00000002#156E64 R
(57584.712000) vcan0 00000001#166F65 R
(57584.948000) vcan0 00000002#177066 R
(57585.183000) vcan0 00000001#187167 R
(57585.424000) vcan0 00000002#197268 R
(57585.668000) vcan0 00000001#1A7369 R
(57585.904000) vcan0 00000002#1B746A R
(57586.140000) vcan0 00000001#1C756B R
(57586.381000) vcan0 00000002#1D766C R
(57586.617000) vcan0 00000001#1E776D R
(57586.861000) vcan0 00000002#1F786E R
(57587.097000) vcan0 00000001#20796F R
(57587.335000) vcan0 00000002#217A70 R
(57587.570000) vcan0 00000001#227B71 R
(57587.814000) vcan0 00000002#237C72 R
(57588.050000) vcan0 00000001#247D73 R
(57588.291000) vcan0 00000002#257E74 R
(57588.527000) vcan0 00000001#267F75 R
(57588.771000) vcan0 00000002#278076 R
(57589.007000) vcan0 00000001#288177 R
(57589.248000) vcan0 00000002#298278 R
(57589.484000) vcan0 00000001#2A8379 R
(57589.728000) vcan0 00000002#2B847A R
(57589.964000) vcan0 00000001#2C857B R
(57590.200000) vcan0 00000002#2D867C R
(57590.441000) vcan0 00000001#2E877D R
(57590.685000) vcan0 00000002#2F887E R
(57590.920000) vcan0 00000001#30897F R
(57591.156000) vcan0 00000002#318A80 R
(57591.397000) vcan0 00000001#328B81 R
(57591.641000) vcan0 00000002#338C82 R
(57591.877000) vcan0 00000001#348D83 R
(57592.113000) vcan0 00000002#358E84 R
(57592.351000) vcan0 00000001#368F85 R
(57592.587000) vcan0 00000002#379086 R
(57592.831000) vcan0 00000001#389187 R
(57593.067000) vcan0 00000002#399288 R
(57593.308000) vcan0 00000001#3A9389 R
(57593.544000) vcan0 00000002#3B948A R
(57593.788000) vcan0 00000001#3C958B R
(57594.024000) vcan0 00000002#3D968C R
(57594.264000) vcan0 00000001#3E978D R
(57594.500000) vcan0 00000002#3F988E R
(57594.744000) vcan0 00000001#40998F R
(57594.980000) vcan0 00000002#419A90 R
(57595.218000) vcan0 00000001#429B91 R
(57595.454000) vcan0 00000002#439C92 R
(57595.698000) vcan0 00000001#449D93 R
(57595.934000) vcan0 00000002#459E94 R
(57596.170000) vcan0 00000001#469F95 R
(57596.412000) vcan0 00000002#47A096 R
(57596.655000) vcan0 00000001#48A197 R
(57596.891000) vcan0 00000002#49A298 R
(57597.127000) vcan0 00000001#4AA399 R
(57597.365000) vcan0 00000002#4BA49A R
(57597.600000) vcan0 00000001#4CA59B R
(57597.844000) vcan0 00000002#4DA69C R
(57598.080000) vcan0 00000001#4EA79D R
(57598.318000) vcan0 00000002#4FA89E R
(57598.554000) vcan0 00000001#50A99F R
(57598.798000) vcan0 00000002#51AAA0 R
(57599.033000) vcan0 00000001#5255A1 R
(57599.275000) vcan0 00000002#5356A2 R
(57599.511000) vcan0 00000001#5457A3 R
(57599.755000) vcan0 00000002#0058A4 R
(57599.990000) vcan0 00000001#0159A5 R
(57600.232000) vcan0 00000002#025AA6 R
(57600.468000) vcan0 00000001#035BA7 R
(57600.712000) vcan0 00000002#045CA8 R
(57600.948000) vcan0 00000001#055DA9 R
(57601.183000) vcan0 00000002#065EAA R
(57601.424000) vcan0 00000001#075FAB R
(57601.668000) vcan0 00000002#0860AC R
(57601.904000) vcan0 00000001#0961AD R
(57602.140000) vcan0 00000002#0A62AE R
(57602.381000) vcan0 00000001#0B63AF R
(57602.617000) vcan0 00000002#0C64B0 R
(57602.861000) vcan0 00000001#0D65B1 R
(57603.097000) vcan0 00000002#0E66B2 R
(57603.335000) vcan0 00000001#0F67B3 R
(57603.570000) vcan0 00000002#1068B4 R
(57603.814000) vcan0 00000001#1169B5 R
(57604.050000) vcan0 00000002#126AB6 R
(57604.291000) vcan0 00000001#136BB7 R
(57604.527000) vcan0 00000002#146CB8 R
(57604.771000) vcan0 00000001#156DB9 R
(57605.007000) vcan0 00000002#166EBA R
(57605.248000) vcan0 00000001#176FBB R
(57605.484000) vcan0 00000002#1870BC R
(57605.728000) vcan0 00000001#1971BD R
(57605.964000) vcan0 00000002#1A72BE R
(57606.200000) vcan0 00000001#1B73BF R
(57606.441000) vcan0 00000002#1C74C0 R
(57606.685000) vcan0 00000001#1D75C1 R
(57606.920000) vcan0 00000002#1E76C2 R
(57607.156000) vcan0 00000001#1F77C3 R
(57607.397000) vcan0 00000002#2078C4 R
(57607.641000) vcan0 00000001#2179C5 R
(57607.877000) vcan0 00000002#227AC6 R
(57608.113000) vcan0 00000001#237BC7 R
(57608.351000) vcan0 00000002#247CC8 R
(57608.587000) vcan0 00000001#257DC9 R
(57608.830000) vcan0 00000002#267ECA R
(57609.066000) vcan0 00000001#277FCB R
(57609.308000) vcan0 00000002#2880CC R
(57609.543000) vcan0 00000001#2981CD R
(57609.787000) vcan0 00000002#2A82CE R
(57610.023000) vcan0 00000001#2B83CF R
(57610.265000) vcan0 00000002#2C84D0 R
(57610.500000) vcan0 00000001#2D85D1 R
(57610.744000) vcan0 00000002#2E86D2 R
(57610.980000) vcan0 00000001#2F87D3 R
(57611.218000) vcan0 00000002#3088D4 R
(57611.454000) vcan0 00000001#3189D5 R
(57611.698000) vcan0 00000002#328AD6 R
(57611.934000) vcan0 00000001#338BD7 R
(57612.170000) vcan0 00000002#348CD8 R
(57612.412000) vcan0 00000001#358DD9 R
(57612.655000) vcan0 00000002#368EDA R
(57612.891000) vcan0 00000001#378FDB R
(57613.127000) vcan0 00000002#3890DC R
(57613.365000) vcan0 00000001#3991DD R
(57613.601000) vcan0 00000002#3A92DE R
(57613.845000) vcan0 00000001#3B93DF R
(57614.080000) vcan0 00000002#3C94E0 R
(57614.318000) vcan0 00000001#3D95E1 R
(57614.554000) vcan0 00000002#3E96E2 R
(57614.798000) vcan0 00000001#3F97E3 R
(57615.033000) vcan0 00000002#4098E4 R
(57615.275000) vcan0 00000001#4199E5 R
(57615.511000) vcan0 00000002#429AE6 R
(57615.754000) vcan0 00000001#439BE7 R
(57615.990000) vcan0 00000002#449CE8 R
(57616.232000) vcan0 00000001#459DE9 R
(57616.468000) vcan0 00000002#469EEA R
(57616.712000) vcan0 00000001#479FEB R
(57616.948000) vcan0 00000002#48A0EC R
(57617.183000) vcan0 00000001#49A1ED R
(57617.424000) vcan0 00000002#4AA2EE R
(57617.668000) vcan0 00000001#4BA3EF R
(57617.904000) vcan0 00000002#4CA4F0 R
(57618.140000) vcan0 00000001#4DA5F1 R
(57618.381000) vcan0 00000002#4EA6F2 R
(57618.617000) vcan0 00000001#4FA7F3 R
(57618.861000) vcan0 00000002#50A8F4 R
(57619.096000) vcan0 00000001#51A9F5 R
(57619.335000) vcan0 00000002#52AAF6 R
(57619.571000) vcan0 00000001#5355F7 R
(57619.815000) vcan0 00000002#5456F8 R
(57620.050000) vcan0 00000001#0057F9 R
(57620.291000) vcan0 00000002#0158FA R
(57620.527000) vcan0 00000001#0259FB R
(57620.771000) vcan0 00000002#035AFC R
(57621.006000) vcan0 00000001#045BFD R
(57621.248000) vcan0 00000002#055CFE R
(57621.484000) vcan0 00000001#065DFF R
(57621.728000) vcan0 00000002#075E00 R
(57621.964000) vcan0 00000001#085F01 R
(57622.200000) vcan0 00000002#096002 R
(57622.441000) vcan0 00000001#0A6103 R
(57622.685000) vcan0 00000002#0B6204 R
(57622.920000) vcan0 00000001#0C6305 R
(57623.156000) vcan0 00000002#0D6406 R
(57623.397000) vcan0 00000001#0E6507 R
(57623.641000) vcan0 00000002#0F6608 R
(57623.877000) vcan0 00000001#106709 R
(57624.113000) vcan0 00000002#11680A R
(57624.351000) vcan0 00000001#12690B R
(57624.587000) vcan0 00000002#136A0C R
(57624.831000) vcan0 00000001#146B0D R
(57625.067000) vcan0 00000002#156C0E R
(57625.308000) vcan0 00000001#166D0F R
(57625.544000) vcan0 00000002#176E10 R
(57625.788000) vcan0 00000001#186F11 R
(57626.024000) vcan0 00000002#197012 R
(57626.264000) vcan0 00000001#1A7113 R
(57626.500000) vcan0 00000002#1B7214 R
(57626.744000) vcan0 00000001#1C7315 R
(57626.980000) vcan0 00000002#1D7416 R
(57627.218000) vcan0 00000001#1E7517 R
(57627.454000) vcan0 00000002#1F7618 R
(57627.698000) vcan0 00000001#207719 R
(57627.934000) vcan0 00000002#21781A R
(57628.170000) vcan0 00000001#22791B R
(57628.412000) vcan0 00000002#237A1C R
(57628.655000) vcan0 00000001#247B1D R
(57628.891000) vcan0 00000002#257C1E R
(57629.127000) vcan0 00000001#267D1F R
(57629.365000) vcan0 00000002#277E20 R
(57629.600000) vcan0 00000001#287F21 R
(57629.844000) vcan0 00000002#298022 R
(57630.080000) vcan0 00000001#2A8123 R
(57630.318000) vcan0 00000002#2B8224 R
(57630.554000) vcan0 00000001#2C8325 R
(57630.798000) vcan0 00000002#2D8426 R
(57631.033000) vcan0 00000001#2E8527 R
(57631.275000) vcan0 00000002#2F8628 R
(57631.511000) vcan0 00000001#308729 R
(57631.755000) vcan0 00000002#31882A R
(57631.990000) vcan0 00000001#32892B R
(57632.232000) vcan0 00000002#338A2C R
(57632.468000) vcan0 00000001#348B2D R
(57632.712000) vcan0 00000002#358C2E R
(57632.948000) vcan0 00000001#368D2F R
(57633.184000) vcan0 00000002#378E30 R
(57633.424000) vcan0 00000001#388F31 R
(57633.668000) vcan0 00000002#399032 R
(57633.904000) vcan0 00000001#3A9133 R
(57634.140000) vcan0 00000002#3B9234 R
(57634.381000) vcan0 00000001#3C9335 R
(57634.617000) vcan0 00000002#3D9436 R
(57634.861000) vcan0 00000001#3E9537 R
(57635.097000) vcan0 00000002#3F9638 R
(57635.335000) vcan0 00000001#409739 R
(57635.571000) vcan0 00000002#41983A R
(57635.815000) vcan0 00000001#42993B R
(57636.050000) vcan0 00000002#439A3C R
(57636.292000) vcan0 00000001#449B3D R
(57636.528000) vcan0 00000002#459C3E R
(57636.771000) vcan0 00000001#469D3F R
(57637.007000) vcan0 00000002#479E40 R
(57637.248000) vcan0 00000001#489F41 R
(57637.484000) vcan0 00000002#49A042 R
(57637.728000) vcan0 00000001#4AA143 R
(57637.964000) vcan0 00000002#4BA244 R
(57638.200000) vcan0 00000001#4CA345 R
(57638.441000) vcan0 00000002#4DA446 R
(57638.685000) vcan0 00000001#4EA547 R
(57638.920000) vcan0 00000002#4FA648 R
(57639.156000) vcan0 00000001#50A749 R
(57639.397000) vcan0 00000002#51A84A R
(57639.641000) vcan0 00000001#52A94B R
(57639.877000) vcan0 00000002#53AA4C R
(57640.113000) vcan0 00000001#54554D R
(57640.351000) vcan0 00000002#00564E R
(57640.587000) vcan0 00000001#01574F R
(57640.830000) vcan0 00000002#025850 R
(57641.066000) vcan0 00000001#035951 R
(57641.308000) vcan0 00000002#045A52 R
(57641.543000) vcan0 00000001#055B53 R
(57641.787000) vcan0 00000002#065C54 R
(57642.023000) vcan0 00000001#075D55 R
(57642.265000) vcan0 00000002#085E56 R
(57642.500000) vcan0 00000001#095F57 R
(57642.744000) vcan0 00000002#0A6058 R
(57642.980000) vcan0 00000001#0B6159 R
(57643.218000) vcan0 00000002#0C625A R
(57643.454000) vcan0 00000001#0D635B R
(57643.698000) vcan0 00000002#0E645C R
(57643.934000) vcan0 00000001#0F655D R
(57644.170000) vcan0 00000002#10665E R
(57644.411000) vcan0 00000001#11675F R
(57644.655000) vcan0 00000002#126860 R
(57644.891000) vcan0 00000001#136961 R
(57645.127000) vcan0 00000002#146A62 R
(57645.365000) vcan0 00000001#156B63 R
(57645.600000) vcan0 00000002#166C64 R
(57645.844000) vcan0 00000001#176D65 R
(57646.080000) vcan0 00000002#186E66 R
(57646.318000) vcan0 00000001#196F67 R
(57646.554000) vcan0 00000002#1A7068 R
(57646.798000) vcan0 00000001#1B7169 R
(57647.033000) vcan0 00000002#1C726A R
(57647.275000) vcan0 00000001#1D736B R
(57647.511000) vcan0 00000002#1E746C R
(57647.754000) vcan0 00000001#1F756D R
(57647.990000) vcan0 00000002#20766E R
(57648.232000) vcan0 00000001#21776F R
(57648.468000) vcan0 00000002#227870 R
(57648.712000) vcan0 00000001#237971 R
(57648.948000) vcan0 00000002#247A72 R
(57649.183000) vcan0 00000001#257B73 R
(57649.424000) vcan0 00000002#267C74 R
(57649.668000) vcan0 00000001#277D75 R
(57649.904000) vcan0 00000002#287E76 R
(57650.140000) vcan0 00000001#297F77 R
(57650.381000) vcan0 00000002#2A8078 R
(57650.617000) vcan0 00000001#2B8179 R
(57650.861000) vcan0 00000002#2C827A R
(57651.097000) vcan0 00000001#2D837B R
(57651.335000) vcan0 00000002#2E847C R
(57651.570000) vcan0 00000001#2F857D R
(57651.814000) vcan0 00000002#30867E R
(57652.050000) vcan0 00000001#31877F R
(57652.291000) vcan0 00000002#328880 R
(57652.527000) vcan0 00000001#338981 R
(57652.771000) vcan0 00000002#348A82 R
(57653.007000) vcan0 00000001#358B83 R
(57653.248000) vcan0 00000002#368C84 R
(57653.484000) vcan0 00000001#378D85 R
(57653.728000) vcan0 00000002#388E86 R
(57653.964000) vcan0 00000001#398F87 R
(57654.200000) vcan0 00000002#3A9088 R
(57654.441000) vcan0 00000001#3B9189 R
(57654.685000) vcan0 00000002#3C928A R
(57654.920000) vcan0 00000001#3D938B R
(57655.156000) vcan0 00000002#3E948C R
(57655.397000) vcan0 00000001#3F958D R
(57655.641000) vcan0 00000002#40968E R
(57655.877000) vcan0 00000001#41978F R
(57656.113000) vcan0 00000002#429890 R
(57656.351000) vcan0 00000001#439991 R
(57656.587000) vcan0 00000002#449A92 R
(57656.831000) vcan0 00000001#459B93 R
(57657.067000) vcan0 00000002#469C94 R
(57657.308000) vcan0 00000001#479D95 R
(57657.544000) vcan0 00000002#489E96 R
(57657.788000) vcan0 00000001#499F97 R
(57658.024000) vcan0 00000002#4AA098 R
(57658.264000) vcan0 00000001#4BA199 R
(57658.500000) vcan0 00000002#4CA29A R
(57658.744000) vcan0 00000001#4DA39B R
(57658.980000) vcan0 00000002#4EA49C R
(57659.218000) vcan0 00000001#4FA59D R
(57659.454000) vcan0 00000002#50A69E R
(57659.698000) vcan0 00000001#51A79F R
(57659.934000) vcan0 00000002#52A8A0 R
(57660.170000) vcan0 00000001#53A9A1 R
(57660.412000) vcan0 00000002#54AAA2 R
(57660.655000) vcan0 00000001#0055A3 R
(57660.891000) vcan0 00000002#0156A4 R
(57661.127000) vcan0 00000001#0257A5 R
(57661.365000) vcan0 00000002#0358A6 R
(57661.600000) vcan0 00000001#0459A7 R
(57661.844000) vcan0 00000002#055AA8 R
(57662.080000) vcan0 00000001#065BA9 R
(57662.318000) vcan0 00000002#075CAA R
(57662.554000) vcan0 00000001#085DAB R
(57662.798000) vcan0 00000002#095EAC R
(57663.033000) vcan0 00000001#0A5FAD R
(57663.275000) vcan0 00000002#0B60AE R
(57663.511000) vcan0 00000001#0C61AF R
(57663.755000) vcan0 00000002#0D62B0 R
(57663.990000) vcan0 00000001#0E63B1 R
(57664.232000) vcan0 00000002#0F64B2 R
(57664.468000) vcan0 00000001#1065B3 R
(57664.712000) vcan0 00000002#1166B4 R
(57664.948000) vcan0 00000001#1267B5 R
(57665.183000) vcan0 00000002#1368B6 R
(57665.424000) vcan0 00000001#1469B7 R
(57665.668000) vcan0 00000002#156AB8 R
(57665.904000) vcan0 00000001#166BB9 R
(57666.140000) vcan0 00000002#176CBA R
(57666.381000) vcan0 00000001#186DBB R
(57666.617000) vcan0 00000002#196EBC R
(57666.861000) vcan0 00000001#1A6FBD R
(57667.097000) vcan0 00000002#1B70BE R
(57667.335000) vcan0 00000001#1C71BF R
(57667.570000) vcan0 00000002#1D72C0 R
(57667.814000) vcan0 00000001#1E73C1 R
(57668.050000) vcan0 00000002#1F74C2 R
(57668.291000) vcan0 00000001#2075C3 R
(57668.527000) vcan0 00000002#2176C4 R
(57668.771000) vcan0 00000001#2277C5 R
(57669.007000) vcan0 00000002#2378C6 R
(57669.248000) vcan0 00000001#2479C7 R
(57669.484000) vcan0 00000002#257AC8 R
(57669.728000) vcan0 00000001#267BC9 R
(57669.964000) vcan0 00000002#277CCA R
(57670.200000) vcan0 00000001#287DCB R
(57670.441000) vcan0 00000002#297ECC R
(57670.685000) vcan0 00000001#2A7FCD R
(57670.920000) vcan0 00000002#2B80CE R
(57671.156000) vcan0 00000001#2C81CF R
(57671.397000) vcan0 00000002#2D82D0 R
(57671.641000) vcan0 00000001#2E83D1 R
(57671.877000) vcan0 00000002#2F84D2 R
(57672.113000) vcan0 00000001#3085D3 R
(57672.351000) vcan0 00000002#3186D4 R
(57672.587000) vcan0 00000001#3287D5 R
(57672.830000) vcan0 00000002#3388D6 R
(57673.066000) vcan0 00000001#3489D7 R
(57673.308000) vcan0 00000002#358AD8 R
(57673.543000) vcan0 00000001#368BD9 R
(57673.787000) vcan0 00000002#378CDA R
(57674.023000) vcan0 00000001#388DDB R
(57674.265000) vcan0 00000002#398EDC R
(57674.500000) vcan0 00000001#3A8FDD R
(57674.744000) vcan0 00000002#3B90DE R
(57674.980000) vcan0 00000001#3C91DF R
(57675.218000) vcan0 00000002#3D92E0 R
(57675.454000) vcan0 00000001#3E93E1 R
(57675.698000) vcan0 00000002#3F94E2 R
(57675.934000) vcan0 00000001#4095E3 R
(57676.170000) vcan0 00000002#4196E4 R
(57676.412000) vcan0 00000001#4297E5 R
(57676.655000) vcan0 00000002#4398E6 R
(57676.891000) vcan0 00000001#4499E7 R
(57677.127000) vcan0 00000002#459AE8 R
(57677.365000) vcan0 00000001#469BE9 R
(57677.601000) vcan0 00000002#479CEA R
(57677.845000) vcan0 00000001#489DEB R
(57678.080000) vcan0 00000002#499EEC R
(57678.318000) vcan0 00000001#4A9FED R
(57678.554000) vcan0 00000002#4BA0EE R
(57678.798000) vcan0 00000001#4CA1EF R
(57679.033000) vcan0 00000002#4DA2F0 R
(57679.275000) vcan0 00000001#4EA3F1 R
(57679.511000) vcan0 00000002#4FA4F2 R
(57679.754000) vcan0 00000001#50A5F3 R
(57679.990000) vcan0 00000002#51A6F4 R
(57680.232000) vcan0 00000001#52A7F5 R
(57680.468000) vcan0 00000002#53A8F6 R
(57680.712000) vcan0 00000001#54A9F7 R
(57680.948000) vcan0 00000002#00AAF8 R
(57681.183000) vcan0 00000001#0155F9 R
(57681.424000) vcan0 00000002#0256FA R
(57681.668000) vcan0 00000001#0357FB R
(57681.904000) vcan0 00000002#0458FC R
(57682.140000) vcan0 00000001#0559FD R
(57682.381000) vcan0 00000002#065AFE R
(57682.617000) vcan0 00000001#075BFF R
(57682.861000) vcan0 00000002#085C00 R
(57683.096000) vcan0 00000001#095D01 R
(57683.335000) vcan0 00000002#0A5E02 R
(57683.571000) vcan0 00000001#0B5F03 R
(57683.815000) vcan0 00000002#0C6004 R
(57684.050000) vcan0 00000001#0D6105 R
