(17.932000) vcan0 00000001#5155AA R
(17.933000) vcan0 00000001#5255AA R
(17.934000) vcan0 00000001#5355AA R
(17.938000) vcan0 00000001#0255AA R
(17.939000) vcan0 00000001#0355AA R
(17.940000) vcan0 00000001#0455AA R
(17.941000) vcan0 00000001#0555AA R
(17.942000) vcan0 00000001#0655AA R
(17.943000) vcan0 00000001#0755AA R
(17.944000) vcan0 00000001#0855AA R
(17.945000) vcan0 00000001#0955AA R
(17.946000) vcan0 00000001#0A55AA R
(17.947000) vcan0 00000001#0B55AA R
(17.948000) vcan0 00000001#0C55AA R
(17.949000) vcan0 00000001#0D55AA R
(17.950000) vcan0 00000001#0E55AA R
(17.951000) vcan0 00000001#0F55AA R
(17.952000) vcan0 00000001#1055AA R
(17.953000) vcan0 00000001#1155AA R
(17.954000) vcan0 00000001#1255AA R
(17.955000) vcan0 00000001#1355AA R
(17.956000) vcan0 00000001#1455AA R
(17.957000) vcan0 00000001#1555AA R
(17.958000) vcan0 00000001#1655AA R
(17.959000) vcan0 00000001#1755AA R
(17.960000) vcan0 00000001#1855AA R
(17.961000) vcan0 00000001#1955AA R
(17.962000) vcan0 00000001#1A55AA R
(17.963000) vcan0 00000001#1B55AA R
(17.964000) vcan0 00000001#1C55AA R
(17.965000) vcan0 00000001#1D55AA R
(17.966000) vcan0 00000001#1E55AA R
(17.967000) vcan0 00000001#1F55AA R
(17.968000) vcan0 00000001#2055AA R
(17.969000) vcan0 00000001#2155AA R
(17.970000) vcan0 00000001#2255AA R
(17.971000) vcan0 00000001#2355AA R
(17.972000) vcan0 00000001#2455AA R
(17.973000) vcan0 00000001#2555AA R
(17.974000) vcan0 00000001#2655AA R
(17.975000) vcan0 00000001#2755AA R
(17.976000) vcan0 00000001#2855AA R
(17.977000) vcan0 00000001#2955AA R
(17.978000) vcan0 00000001#2A55AA R
(17.979000) vcan0 00000001#2B55AA R
(17.980000) vcan0 00000001#2C55AA R
(17.981000) vcan0 00000001#2D55AA R
(17.982000) vcan0 00000001#2E55AA R
(17.983000) vcan0 00000001#2F55AA R
(17.984000) vcan0 00000001#3055AA R
(17.985000) vcan0 00000001#3155AA R
(17.986000) vcan0 00000001#3255AA R
(17.987000) vcan0 00000001#3355AA R
(17.988000) vcan0 00000001#3455AA R
(17.989000) vcan0 00000001#3555AA R
(17.990000) vcan0 00000001#3655AA R
(17.991000) vcan0 00000001#3755AA R
(17.992000) vcan0 00000001#3855AA R
(17.993000) vcan0 00000001#3955AA R
(17.994000) vcan0 00000001#3A55AA R
(17.995000) vcan0 00000001#3B55AA R
(17.996000) vcan0 00000001#3C55AA R
(17.997000) vcan0 00000001#3D55AA R
(17.998000) vcan0 00000001#3E55AA R
(17.999000) vcan0 00000001#3F55AA R
(18.000000) vcan0 00000001#4055AA R
(18.001000) vcan0 00000001#4155AA R
(18.002000) vcan0 00000001#4255AA R
(18.003000) vcan0 00000001#4355AA R
(18.004000) vcan0 00000001#4455AA R
(18.005000) vcan0 00000001#4555AA R
(18.006000) vcan0 00000001#4655AA R
(18.007000) vcan0 00000001#4755AA R
(18.008000) vcan0 00000001#4855AA R
(18.009000) vcan0 00000001#4955AA R
(18.010000) vcan0 00000001#4A55AA R
(18.011000) vcan0 00000001#4B55AA R
(18.012000) vcan0 00000001#4C55AA R
(18.013000) vcan0 00000001#4D55AA R
(18.014000) vcan0 00000001#4E55AA R
(18.015000) vcan0 00000001#4F55AA R
(18.016000) vcan0 00000001#5055AA R
(18.017000) vcan0 00000001#5155AA R
(18.018000) vcan0 00000001#5255AA R
(18.019000) vcan0 00000001#5355AA R
(18.020000) vcan0 00000001#5455AA R
(18.021000) vcan0 00000001#0055AA R
(18.022000) vcan0 00000001#0155AA R
(18.023000) vcan0 00000001#0255AA R
(18.024000) vcan0 00000001#0355AA R
(18.025000) vcan0 00000001#0455AA R
(18.026000) vcan0 00000001#0555AA R
(18.027000) vcan0 00000001#0655AA R
(18.028000) vcan0 00000001#0755AA R
(18.029000) vcan0 00000001#0855AA R
(18.030000) vcan0 00000001#0955AA R
(18.031000) vcan0 00000001#0A55AA R
(18.032000) vcan0 00000001#0B55AA R
(18.033000) vcan0 00000001#0C55AA R
(18.034000) vcan0 00000001#0D55AA R
(18.035000) vcan0 00000001#0E55AA R
(18.036000) vcan0 00000001#0F55AA R
(18.037000) vcan0 00000001#1055AA R
(18.038000) vcan0 00000001#1155AA R
(18.039000) vcan0 00000001#1255AA R
(18.040000) vcan0 00000001#1355AA R
(18.041000) vcan0 00000001#1455AA R
(18.042000) vcan0 00000001#1555AA R
(18.043000) vcan0 00000001#1655AA R
(18.044000) vcan0 00000001#1755AA R
(18.045000) vcan0 00000001#1855AA R
(18.046000) vcan0 00000001#1955AA R
(18.047000) vcan0 00000001#1A55AA R
(18.048000) vcan0 00000001#1B55AA R
(18.049000) vcan0 00000001#1C55AA R
(18.050000) vcan0 00000001#1D55AA R
(18.051000) vcan0 00000001#1E55AA R
(18.052000) vcan0 00000001#1F55AA R
(18.053000) vcan0 00000001#2055AA R
(18.054000) vcan0 00000001#2155AA R
(18.055000) vcan0 00000001#2255AA R
(18.056000) vcan0 00000001#2355AA R
(18.057000) vcan0 00000001#2455AA R
(18.058000) vcan0 00000001#2555AA R
(18.059000) vcan0 00000001#2655AA R
(18.060000) vcan0 00000001#2755AA R
(18.061000) vcan0 00000001#2855AA R
(18.062000) vcan0 00000001#2955AA R
(18.063000) vcan0 00000001#2A55AA R
(18.064000) vcan0 00000001#2B55AA R
(18.065000) vcan0 00000001#2C55AA R
(18.066000) vcan0 00000001#2D55AA R
(18.067000) vcan0 00000001#2E55AA R
(18.068000) vcan0 00000001#2F55AA R
(18.069000) vcan0 00000001#3055AA R
(18.070000) vcan0 00000001#3155AA R
(18.071000) vcan0 00000001#3255AA R
(18.072000) vcan0 00000001#3355AA R
(18.073000) vcan0 00000001#3455AA R
(18.074000) vcan0 00000001#3555AA R
(18.075000) vcan0 00000001#3655AA R
(18.076000) vcan0 00000001#3755AA R
(18.077000) vcan0 00000001#3855AA R
(18.078000) vcan0 00000001#3955AA R
(18.079000) vcan0 00000001#3A55AA R
(18.080000) vcan0 00000001#3B55AA R
(18.081000) vcan0 00000001#3C55AA R
(18.082000) vcan0 00000001#3D55AA R
(18.083000) vcan0 00000001#3E55AA R
(18.084000) vcan0 00000001#3F55AA R
(18.085000) vcan0 00000001#4055AA R
(18.086000) vcan0 00000001#4155AA R
(18.087000) vcan0 00000001#4255AA R
(18.088000) vcan0 00000001#4355AA R
(18.089000) vcan0 00000001#4455AA R
(18.090000) vcan0 00000001#4555AA R
(18.091000) vcan0 00000001#4655AA R
(18.092000) vcan0 00000001#4755AA R
(18.093000) vcan0 00000001#4855AA R
(18.094000) vcan0 00000001#4955AA R
(18.095000) vcan0 00000001#4A55AA R
(18.096000) vcan0 00000001#4B55AA R
(18.097000) vcan0 00000001#4C55AA R
(18.098000) vcan0 00000001#4D55AA R
(18.099000) vcan0 00000001#4E55AA R
(18.100000) vcan0 00000001#4F55AA R
(18.101000) vcan0 00000001#5055AA R
(18.102000) vcan0 00000001#5155AA R
(18.103000) vcan0 00000001#5255AA R
(18.104000) vcan0 00000001#5355AA R
(18.105000) vcan0 00000001#5455AA R
(18.106000) vcan0 00000001#0055AA R
(18.107000) vcan0 00000001#0155AA R
(18.108000) vcan0 00000001#0255AA R
(18.109000) vcan0 00000001#0355AA R
(18.110000) vcan0 00000001#0455AA R
(18.111000) vcan0 00000001#0555AA R
(18.112000) vcan0 00000001#0655AA R
(18.113000) vcan0 00000001#0755AA R
(18.114000) vcan0 00000001#0855AA R
(18.115000) vcan0 00000001#0955AA R
(18.116000) vcan0 00000001#0A55AA R
(18.117000) vcan0 00000001#0B55AA R
(18.118000) vcan0 00000001#0C55AA R
(18.119000) vcan0 00000001#0D55AA R
(18.120000) vcan0 00000001#0E55AA R
(18.121000) vcan0 00000001#0F55AA R
(18.122000) vcan0 00000001#1055AA R
(18.123000) vcan0 00000001#1155AA R
(18.124000) vcan0 00000001#1255AA R
(18.125000) vcan0 00000001#1355AA R
(18.126000) vcan0 00000001#1455AA R
(18.127000) vcan0 00000001#1555AA R
(18.128000) vcan0 00000001#1655AA R
(18.129000) vcan0 00000001#1755AA R
(18.130000) vcan0 00000001#1855AA R
(18.131000) vcan0 00000001#1955AA R
(18.132000) vcan0 00000001#1A55AA R
(18.133000) vcan0 00000001#1B55AA R
(18.134000) vcan0 00000001#1C55AA R
(18.135000) vcan0 00000001#1D55AA R
(18.136000) vcan0 00000001#1E55AA R
(18.137000) vcan0 00000001#1F55AA R
(18.138000) vcan0 00000001#2055AA R
(18.139000) vcan0 00000001#2155AA R
(18.140000) vcan0 00000001#2255AA R
(18.141000) vcan0 00000001#2355AA R
(18.142000) vcan0 00000001#2455AA R
(18.143000) vcan0 00000001#2555AA R
(18.144000) vcan0 00000001#2655AA R
(18.145000) vcan0 00000001#2755AA R
(18.146000) vcan0 00000001#2855AA R
(18.147000) vcan0 00000001#2955AA R
(18.148000) vcan0 00000001#2A55AA R
(18.149000) vcan0 00000001#2B55AA R
(18.150000) vcan0 00000001#2C55AA R
(18.151000) vcan0 00000001#2D55AA R
(18.152000) vcan0 00000001#2E55AA R
(18.153000) vcan0 00000001#2F55AA R
(18.154000) vcan0 00000001#3055AA R
(18.155000) vcan0 00000001#3155AA R
(18.156000) vcan0 00000001#3255AA R
(18.157000) vcan0 00000001#3355AA R
(18.158000) vcan0 00000001#3455AA R
(18.159000) vcan0 00000001#3555AA R
(18.160000) vcan0 00000001#3655AA R
(18.161000) vcan0 00000001#3755AA R
(18.162000) vcan0 00000001#3855AA R
(18.163000) vcan0 00000001#3955AA R
(18.164000) vcan0 00000001#3A55AA R
(18.165000) vcan0 00000001#3B55AA R
(18.166000) vcan0 00000001#3C55AA R
(18.167000) vcan0 00000001#3D55AA R
(18.168000) vcan0 00000001#3E55AA R
(18.169000) vcan0 00000001#3F55AA R
(18.170000) vcan0 00000001#4055AA R
(18.171000) vcan0 00000001#4155AA R
(18.172000) vcan0 00000001#4255AA R
(18.173000) vcan0 00000001#4355AA R
(18.174000) vcan0 00000001#4455AA R
(18.175000) vcan0 00000001#4555AA R
(18.176000) vcan0 00000001#4655AA R
(18.177000) vcan0 00000001#4755AA R
(18.178000) vcan0 00000001#4855AA R
(18.179000) vcan0 00000001#4955AA R
(18.180000) vcan0 00000001#4A55AA R
(18.181000) vcan0 00000001#4B55AA R
(18.182000) vcan0 00000001#4C55AA R
(18.183000) vcan0 00000001#4D55AA R
(18.184000) vcan0 00000001#4E55AA R
(18.185000) vcan0 00000001#4F55AA R
(18.186000) vcan0 00000001#5055AA R
(18.187000) vcan0 00000001#5155AA R
(18.188000) vcan0 00000001#5255AA R
(18.189000) vcan0 00000001#5355AA R
(18.190000) vcan0 00000001#5455AA R
(18.191000) vcan0 00000001#0055AA R
(18.192000) vcan0 00000001#0155AA R
(18.193000) vcan0 00000001#0255AA R
(18.194000) vcan0 00000001#0355AA R
(18.195000) vcan0 00000001#0455AA R
(18.196000) vcan0 00000001#0555AA R
(18.197000) vcan0 00000001#0655AA R
(18.198000) vcan0 00000001#0755AA R
(18.199000) vcan0 00000001#0855AA R
(18.200000) vcan0 00000001#0955AA R
(18.201000) vcan0 00000001#0A55AA R
(18.202000) vcan0 00000001#0B55AA R
(18.203000) vcan0 00000001#0C55AA R
(18.204000) vcan0 00000001#0D55AA R
(18.205000) vcan0 00000001#0E55AA R
(18.206000) vcan0 00000001#0F55AA R
(18.207000) vcan0 00000001#1055AA R
(18.208000) vcan0 00000001#1155AA R
(18.209000) vcan0 00000001#1255AA R
(18.210000) vcan0 00000001#1355AA R
(18.211000) vcan0 00000001#1455AA R
(18.212000) vcan0 00000001#1555AA R
(18.213000) vcan0 00000001#1655AA R
(18.214000) vcan0 00000001#1755AA R
(18.215000) vcan0 00000001#1855AA R
(18.216000) vcan0 00000001#1955AA R
(18.217000) vcan0 00000001#1A55AA R
(18.218000) vcan0 00000001#1B55AA R
(18.219000) vcan0 00000001#1C55AA R
(18.220000) vcan0 00000001#1D55AA R
(18.221000) vcan0 00000001#1E55AA R
(18.222000) vcan0 00000001#1F55AA R
(18.223000) vcan0 00000001#2055AA R
(18.224000) vcan0 00000001#2155AA R
(18.225000) vcan0 00000001#2255AA R
(18.226000) vcan0 00000001#2355AA R
(18.227000) vcan0 00000001#2455AA R
(18.228000) vcan0 00000001#2555AA R
(18.229000) vcan0 00000001#2655AA R
(18.230000) vcan0 00000001#2755AA R
(18.231000) vcan0 00000001#2855AA R
(18.232000) vcan0 00000001#2955AA R
(18.233000) vcan0 00000001#2A55AA R
(18.234000) vcan0 00000001#2B55AA R
(18.235000) vcan0 00000001#2C55AA R
(18.236000) vcan0 00000001#2D55AA R
(18.237000) vcan0 00000001#2E55AA R
(18.238000) vcan0 00000001#2F55AA R
(18.239000) vcan0 00000001#3055AA R
(18.240000) vcan0 00000001#3155AA R
(18.241000) vcan0 00000001#3255AA R
(18.242000) vcan0 00000001#3355AA R
(18.243000) vcan0 00000001#3455AA R
(18.244000) vcan0 00000001#3555AA R
(18.245000) vcan0 00000001#3655AA R
(18.246000) vcan0 00000001#3755AA R
(18.247000) vcan0 00000001#3855AA R
(18.248000) vcan0 00000001#3955AA R
(18.249000) vcan0 00000001#3A55AA R
(18.250000) vcan0 00000001#3B55AA R
(18.251000) vcan0 00000001#3C55AA R
(18.252000) vcan0 00000001#3D55AA R
(18.253000) vcan0 00000001#3E55AA R
(18.254000) vcan0 00000001#3F55AA R
(18.255000) vcan0 00000001#4055AA R
(18.256000) vcan0 00000001#4155AA R
(18.257000) vcan0 00000001#4255AA R
(18.258000) vcan0 00000001#4355AA R
(18.259000) vcan0 00000001#4455AA R
(18.260000) vcan0 00000001#4555AA R
(18.261000) vcan0 00000001#4655AA R
(18.262000) vcan0 00000001#4755AA R
(18.263000) vcan0 00000001#4855AA R
(18.264000) vcan0 00000001#4955AA R
(18.265000) vcan0 00000001#4A55AA R
(18.266000) vcan0 00000001#4B55AA R
(18.267000) vcan0 00000001#4C55AA R
(18.268000) vcan0 00000001#4D55AA R
(18.269000) vcan0 00000001#4E55AA R
(18.270000) vcan0 00000001#4F55AA R
(18.271000) vcan0 00000001#5055AA R
(18.272000) vcan0 00000001#5155AA R
(18.273000) vcan0 00000001#5255AA R
(18.274000) vcan0 00000001#5355AA R
(18.275000) vcan0 00000001#5455AA R
(18.276000) vcan0 00000001#0055AA R
(18.277000) vcan0 00000001#0155AA R
(18.278000) vcan0 00000001#0255AA R
(18.279000) vcan0 00000001#0355AA R
(18.280000) vcan0 00000001#0455AA R
(18.281000) vcan0 00000001#0555AA R
(18.282000) vcan0 00000001#0655AA R
(18.283000) vcan0 00000001#0755AA R
(18.284000) vcan0 00000001#0855AA R
(18.285000) vcan0 00000001#0955AA R
(18.286000) vcan0 00000001#0A55AA R
(18.287000) vcan0 00000001#0B55AA R
(18.288000) vcan0 00000001#0C55AA R
(18.289000) vcan0 00000001#0D55AA R
(18.290000) vcan0 00000001#0E55AA R
(18.291000) vcan0 00000001#0F55AA R
(18.292000) vcan0 00000001#1055AA R
(18.293000) vcan0 00000001#1155AA R
(18.294000) vcan0 00000001#1255AA R
(18.295000) vcan0 00000001#1355AA R
(18.296000) vcan0 00000001#1455AA R
(18.297000) vcan0 00000001#1555AA R
(18.298000) vcan0 00000001#1655AA R
(18.299000) vcan0 00000001#1755AA R
(18.300000) vcan0 00000001#1855AA R
(18.301000) vcan0 00000001#1955AA R
(18.302000) vcan0 00000001#1A55AA R
(18.303000) vcan0 00000001#1B55AA R
(18.304000) vcan0 00000001#1C55AA R
(18.305000) vcan0 00000001#1D55AA R
(18.306000) vcan0 00000001#1E55AA R
(18.307000) vcan0 00000001#1F55AA R
(18.308000) vcan0 00000001#2055AA R
(18.309000) vcan0 00000001#2155AA R
(18.310000) vcan0 00000001#2255AA R
(18.311000) vcan0 00000001#2355AA R
(18.312000) vcan0 00000001#2455AA R
(18.313000) vcan0 00000001#2555AA R
(18.314000) vcan0 00000001#2655AA R
(18.315000) vcan0 00000001#2755AA R
(18.316000) vcan0 00000001#2855AA R
(18.317000) vcan0 00000001#2955AA R
(18.318000) vcan0 00000001#2A55AA R
(18.319000) vcan0 00000001#2B55AA R
(18.320000) vcan0 00000001#2C55AA R
(18.321000) vcan0 00000001#2D55AA R
(18.322000) vcan0 00000001#2E55AA R
(18.323000) vcan0 00000001#2F55AA R
(18.324000) vcan0 00000001#3055AA R
(18.325000) vcan0 00000001#3155AA R
(18.326000) vcan0 00000001#3255AA R
(18.327000) vcan0 00000001#3355AA R
(18.328000) vcan0 00000001#3455AA R
(18.329000) vcan0 00000001#3555AA R
(18.330000) vcan0 00000001#3655AA R
(18.331000) vcan0 00000001#3755AA R
(18.332000) vcan0 00000001#3855AA R
(18.333000) vcan0 00000001#3955AA R
(18.334000) vcan0 00000001#3A55AA R
(18.335000) vcan0 00000001#3B55AA R
(18.336000) vcan0 00000001#3C55AA R
(18.337000) vcan0 00000001#3D55AA R
(18.338000) vcan0 00000001#3E55AA R
(18.339000) vcan0 00000001#3F55AA R
(18.340000) vcan0 00000001#4055AA R
(18.341000) vcan0 00000001#4155AA R
(18.342000) vcan0 00000001#4255AA R
(18.343000) vcan0 00000001#4355AA R
(18.344000) vcan0 00000001#4455AA R
(18.345000) vcan0 00000001#4555AA R
(18.346000) vcan0 00000001#4655AA R
(18.347000) vcan0 00000001#4755AA R
(18.348000) vcan0 00000001#4855AA R
(18.349000) vcan0 00000001#4955AA R
(18.350000) vcan0 00000001#4A55AA R
(18.351000) vcan0 00000001#4B55AA R
(18.352000) vcan0 00000001#4C55AA R
(18.353000) vcan0 00000001#4D55AA R
(18.354000) vcan0 00000001#4E55AA R
(18.355000) vcan0 00000001#4F55AA R
(18.356000) vcan0 00000001#5055AA R
(18.357000) vcan0 00000001#5155AA R
(18.358000) vcan0 00000001#5255AA R
(18.359000) vcan0 00000001#5355AA R
(18.360000) vcan0 00000001#5455AA R
(18.361000) vcan0 00000001#0055AA R
(18.362000) vcan0 00000001#0155AA R
(18.363000) vcan0 00000001#0255AA R
(18.364000) vcan0 00000001#0355AA R
(18.365000) vcan0 00000001#0455AA R
(18.366000) vcan0 00000001#0555AA R
(18.367000) vcan0 00000001#0655AA R
(18.368000) vcan0 00000001#0755AA R
(18.369000) vcan0 00000001#0855AA R
(18.370000) vcan0 00000001#0955AA R
(18.371000) vcan0 00000001#0A55AA R
(18.372000) vcan0 00000001#0B55AA R
(18.373000) vcan0 00000001#0C55AA R
(18.374000) vcan0 00000001#0D55AA R
(18.375000) vcan0 00000001#0E55AA R
(18.376000) vcan0 00000001#0F55AA R
(18.377000) vcan0 00000001#1055AA R
(18.378000) vcan0 00000001#1155AA R
(18.379000) vcan0 00000001#1255AA R
(18.380000) vcan0 00000001#1355AA R
(18.381000) vcan0 00000001#1455AA R
(18.382000) vcan0 00000001#1555AA R
(18.383000) vcan0 00000001#1655AA R
(18.384000) vcan0 00000001#1755AA R
(18.385000) vcan0 00000001#1855AA R
(18.386000) vcan0 00000001#1955AA R
(18.387000) vcan0 00000001#1A55AA R
(18.388000) vcan0 00000001#1B55AA R
(18.389000) vcan0 00000001#1C55AA R
(18.390000) vcan0 00000001#1D55AA R
(18.391000) vcan0 00000001#1E55AA R
(18.392000) vcan0 00000001#1F55AA R
(18.393000) vcan0 00000001#2055AA R
(18.394000) vcan0 00000001#2155AA R
(18.395000) vcan0 00000001#2255AA R
(18.396000) vcan0 00000001#2355AA R
(18.397000) vcan0 00000001#2455AA R
(18.398000) vcan0 00000001#2555AA R
(18.399000) vcan0 00000001#2655AA R
(18.400000) vcan0 00000001#2755AA R
(18.401000) vcan0 00000001#2855AA R
(18.402000) vcan0 00000001#2955AA R
(18.403000) vcan0 00000001#2A55AA R
(18.404000) vcan0 00000001#2B55AA R
(18.405000) vcan0 00000001#2C55AA R
(18.406000) vcan0 00000001#2D55AA R
(18.407000) vcan0 00000001#2E55AA R
(18.408000) vcan0 00000001#2F55AA R
(18.409000) vcan0 00000001#3055AA R
(18.410000) vcan0 00000001#3155AA R
(18.411000) vcan0 00000001#3255AA R
(18.412000) vcan0 00000001#3355AA R
(18.413000) vcan0 00000001#3455AA R
(18.414000) vcan0 00000001#3555AA R
(18.415000) vcan0 00000001#3655AA R
(18.416000) vcan0 00000001#3755AA R
(18.417000) vcan0 00000001#3855AA R
(18.418000) vcan0 00000001#3955AA R
(18.419000) vcan0 00000001#3A55AA R
(18.420000) vcan0 00000001#3B55AA R
(18.421000) vcan0 00000001#3C55AA R
(18.422000) vcan0 00000001#3D55AA R
(18.423000) vcan0 00000001#3E55AA R
(18.424000) vcan0 00000001#3F55AA R
(18.425000) vcan0 00000001#4055AA R
(18.426000) vcan0 00000001#4155AA R
(18.427000) vcan0 00000001#4255AA R
(18.428000) vcan0 00000001#4355AA R
(18.429000) vcan0 00000001#4455AA R
(18.430000) vcan0 00000001#4555AA R
(18.431000) vcan0 00000001#4655AA R
(18.432000) vcan0 00000001#4755AA R
(18.433000) vcan0 00000001#4855AA R
(18.434000) vcan0 00000001#4955AA R
(18.435000) vcan0 00000001#4A55AA R
(18.436000) vcan0 00000001#4B55AA R
(18.437000) vcan0 00000001#4C55AA R
(18.438000) vcan0 00000001#4D55AA R
(18.439000) vcan0 00000001#4E55AA R
(18.440000) vcan0 00000001#4F55AA R
(18.441000) vcan0 00000001#5055AA R
(18.442000) vcan0 00000001#5155AA R
(18.443000) vcan0 00000001#5255AA R
(18.444000) vcan0 00000001#5355AA R
(18.445000) vcan0 00000001#5455AA R
(18.446000) vcan0 00000001#0055AA R
(18.447000) vcan0 00000001#0155AA R
(18.448000) vcan0 00000001#0255AA R
(18.449000) vcan0 00000001#0355AA R
(18.450000) vcan0 00000001#0455AA R
(18.451000) vcan0 00000001#0555AA R
(18.452000) vcan0 00000001#0655AA R
(18.453000) vcan0 00000001#0755AA R
(18.454000) vcan0 00000001#0855AA R
(18.455000) vcan0 00000001#0955AA R
(18.456000) vcan0 00000001#0A55AA R
(18.457000) vcan0 00000001#0B55AA R
(18.458000) vcan0 00000001#0C55AA R
(18.459000) vcan0 00000001#0D55AA R
(18.460000) vcan0 00000001#0E55AA R
(18.461000) vcan0 00000001#0F55AA R
(18.462000) vcan0 00000001#1055AA R
(18.463000) vcan0 00000001#1155AA R
(18.464000) vcan0 00000001#1255AA R
(18.465000) vcan0 00000001#1355AA R
(18.466000) vcan0 00000001#1455AA R
(18.467000) vcan0 00000001#1555AA R
(18.468000) vcan0 00000001#1655AA R
(18.469000) vcan0 00000001#1755AA R
(18.470000) vcan0 00000001#1855AA R
(18.471000) vcan0 00000001#1955AA R
(18.472000) vcan0 00000001#1A55AA R
(18.473000) vcan0 00000001#1B55AA R
(18.474000) vcan0 00000001#1C55AA R
(18.475000) vcan0 00000001#1D55AA R
(18.476000) vcan0 00000001#1E55AA R
(18.477000) vcan0 00000001#1F55AA R
(18.478000) vcan0 00000001#2055AA R
(18.479000) vcan0 00000001#2155AA R
(18.480000) vcan0 00000001#2255AA R
(18.481000) vcan0 00000001#2355AA R
(18.482000) vcan0 00000001#2455AA R
(18.483000) vcan0 00000001#2555AA R
(18.484000) vcan0 00000001#2655AA R
(18.485000) vcan0 00000001#2755AA R
(18.486000) vcan0 00000001#2855AA R
(18.487000) vcan0 00000001#2955AA R
(18.488000) vcan0 00000001#2A55AA R
(18.489000) vcan0 00000001#2B55AA R
(18.490000) vcan0 00000001#2C55AA R
(18.491000) vcan0 00000001#2D55AA R
(18.492000) vcan0 00000001#2E55AA R
(18.493000) vcan0 00000001#2F55AA R
(18.494000) vcan0 00000001#3055AA R
(18.495000) vcan0 00000001#3155AA R
(18.496000) vcan0 00000001#3255AA R
(18.497000) vcan0 00000001#3355AA R
(18.498000) vcan0 00000001#3455AA R
(18.499000) vcan0 00000001#3555AA R
(18.500000) vcan0 00000001#3655AA R
(18.501000) vcan0 00000001#3755AA R
(18.502000) vcan0 00000001#3855AA R
(18.503000) vcan0 00000001#3955AA R
(18.504000) vcan0 00000001#3A55AA R
(18.505000) vcan0 00000001#3B55AA R
(18.506000) vcan0 00000001#3C55AA R
(18.507000) vcan0 00000001#3D55AA R
(18.508000) vcan0 00000001#3E55AA R
(18.509000) vcan0 00000001#3F55AA R
(18.510000) vcan0 00000001#4055AA R
(18.511000) vcan0 00000001#4155AA R
(18.512000) vcan0 00000001#4255AA R
(18.513000) vcan0 00000001#4355AA R
(18.514000) vcan0 00000001#4455AA R
(18.515000) vcan0 00000001#4555AA R
(18.516000) vcan0 00000001#4655AA R
(18.517000) vcan0 00000001#4755AA R
(18.518000) vcan0 00000001#4855AA R
(18.519000) vcan0 00000001#4955AA R
(18.520000) vcan0 00000001#4A55AA R
(18.521000) vcan0 00000001#4B55AA R
(18.522000) vcan0 00000001#4C55AA R
(18.523000) vcan0 00000001#4D55AA R
(18.524000) vcan0 00000001#4E55AA R
(18.525000) vcan0 00000001#4F55AA R
(18.526000) vcan0 00000001#5055AA R
(18.527000) vcan0 00000001#5155AA R
(18.528000) vcan0 00000001#5255AA R
(18.529000) vcan0 00000001#5355AA R
(18.530000) vcan0 00000001#5455AA R
(18.531000) vcan0 00000001#0055AA R
(18.532000) vcan0 00000001#0155AA R
(18.533000) vcan0 00000001#0255AA R
(18.534000) vcan0 00000001#0355AA R
(18.535000) vcan0 00000001#0455AA R
(18.536000) vcan0 00000001#0555AA R
(18.537000) vcan0 00000001#0655AA R
(18.538000) vcan0 00000001#0755AA R
(18.539000) vcan0 00000001#0855AA R
(18.540000) vcan0 00000001#0955AA R
(18.541000) vcan0 00000001#0A55AA R
(18.542000) vcan0 00000001#0B55AA R
(18.543000) vcan0 00000001#0C55AA R
(18.544000) vcan0 00000001#0D55AA R
(18.545000) vcan0 00000001#0E55AA R
(18.546000) vcan0 00000001#0F55AA R
(18.547000) vcan0 00000001#1055AA R
(18.548000) vcan0 00000001#1155AA R
(18.549000) vcan0 00000001#1255AA R
(18.550000) vcan0 00000001#1355AA R
(18.551000) vcan0 00000001#1455AA R
(18.552000) vcan0 00000001#1555AA R
(18.553000) vcan0 00000001#1655AA R
(18.554000) vcan0 00000001#1755AA R
(18.555000) vcan0 00000001#1855AA R
(18.556000) vcan0 00000001#1955AA R
(18.557000) vcan0 00000001#1A55AA R
(18.558000) vcan0 00000001#1B55AA R
(18.559000) vcan0 00000001#1C55AA R
(18.560000) vcan0 00000001#1D55AA R
(18.561000) vcan0 00000001#1E55AA R
(18.562000) vcan0 00000001#1F55AA R
(18.563000) vcan0 00000001#2055AA R
(18.564000) vcan0 00000001#2155AA R
(18.565000) vcan0 00000001#2255AA R
(18.566000) vcan0 00000001#2355AA R
(18.567000) vcan0 00000001#2455AA R
(18.568000) vcan0 00000001#2555AA R
(18.569000) vcan0 00000001#2655AA R
(18.570000) vcan0 00000001#2755AA R
(18.571000) vcan0 00000001#2855AA R
(18.572000) vcan0 00000001#2955AA R
(18.573000) vcan0 00000001#2A55AA R
(18.574000) vcan0 00000001#2B55AA R
(18.575000) vcan0 00000001#2C55AA R
(18.576000) vcan0 00000001#2D55AA R
(18.577000) vcan0 00000001#2E55AA R
(18.578000) vcan0 00000001#2F55AA R
(18.579000) vcan0 00000001#3055AA R
(18.580000) vcan0 00000001#3155AA R
(18.581000) vcan0 00000001#3255AA R
(18.582000) vcan0 00000001#3355AA R
(18.583000) vcan0 00000001#3455AA R
(18.584000) vcan0 00000001#3555AA R
(18.585000) vcan0 00000001#3655AA R
(18.586000) vcan0 00000001#3755AA R
(18.587000) vcan0 00000001#3855AA R
(18.588000) vcan0 00000001#3955AA R
(18.589000) vcan0 00000001#3A55AA R
(18.590000) vcan0 00000001#3B55AA R
(18.591000) vcan0 00000001#3C55AA R
(18.592000) vcan0 00000001#3D55AA R
(18.593000) vcan0 00000001#3E55AA R
(18.594000) vcan0 00000001#3F55AA R
(18.595000) vcan0 00000001#4055AA R
(18.596000) vcan0 00000001#4155AA R
(18.597000) vcan0 00000001#4255AA R
(18.598000) vcan0 00000001#4355AA R
(18.599000) vcan0 00000001#4455AA R
(18.600000) vcan0 00000001#4555AA R
(18.601000) vcan0 00000001#4655AA R
(18.602000) vcan0 00000001#4755AA R
(18.603000) vcan0 00000001#4855AA R
(18.604000) vcan0 00000001#4955AA R
(18.605000) vcan0 00000001#4A55AA R
(18.606000) vcan0 00000001#4B55AA R
(18.607000) vcan0 00000001#4C55AA R
(18.608000) vcan0 00000001#4D55AA R
(18.609000) vcan0 00000001#4E55AA R
(18.610000) vcan0 00000001#4F55AA R
(18.611000) vcan0 00000001#5055AA R
(18.612000) vcan0 00000001#5155AA R
(18.613000) vcan0 00000001#5255AA R
(18.614000) vcan0 00000001#5355AA R
(18.615000) vcan0 00000001#5455AA R
(18.616000) vcan0 00000001#0055AA R
(18.617000) vcan0 00000001#0155AA R
(18.618000) vcan0 00000001#0255AA R
(18.619000) vcan0 00000001#0355AA R
(18.620000) vcan0 00000001#0455AA R
(18.621000) vcan0 00000001#0555AA R
(18.622000) vcan0 00000001#0655AA R
(18.623000) vcan0 00000001#0755AA R
(18.624000) vcan0 00000001#0855AA R
(18.625000) vcan0 00000001#0955AA R
(18.626000) vcan0 00000001#0A55AA R
(18.627000) vcan0 00000001#0B55AA R
(18.628000) vcan0 00000001#0C55AA R
