(3152865.483000) vcan0 00000001#1E6D35 R
(3152865.727000) vcan0 00000002#1F6E36 R
(3152865.962000) vcan0 00000001#206F37 R
(3152866.199000) vcan0 00000002#217038 R
(3152866.439000) vcan0 00000001#227139 R
(3152873.843000) vcan0 00000002#419058 R
(3152874.079000) vcan0 00000001#429159 R
(3152874.317000) vcan0 00000002#43925A R
(3152874.553000) vcan0 00000001#44935B R
(3152874.796000) vcan0 00000002#45945C R
(3152875.032000) vcan0 00000001#46955D R
(3152875.273000) vcan0 00000002#47965E R
(3152875.509000) vcan0 00000001#48975F R
(3152875.753000) vcan0 00000002#499860 R
(3152875.989000) vcan0 00000001#4A9961 R
(3152876.230000) vcan0 00000002#4B9A62 R
(3152876.466000) vcan0 00000001#4C9B63 R
(3152876.710000) vcan0 00000002#4D9C64 R
(3152876.946000) vcan0 00000001#4E9D65 R
(3152877.182000) vcan0 00000002#4F9E66 R
(3152877.423000) vcan0 00000001#509F67 R
(3152877.667000) vcan0 00000002#51A068 R
(3152877.902000) vcan0 00000001#52A169 R
(3152878.138000) vcan0 00000002#53A26A R
(3152878.380000) vcan0 00000001#54A36B R
(3152878.615000) vcan0 00000002#00A46C R
(3152878.859000) vcan0 00000001#01A56D R
(3152879.095000) vcan0 00000002#02A66E R
(3152879.333000) vcan0 00000001#03A76F R
(3152879.568000) vcan0 00000002#04A870 R
(3152879.812000) vcan0 00000001#05A971 R
(3152880.048000) vcan0 00000002#06AA72 R
(3152880.290000) vcan0 00000001#075573 R
(3152880.526000) vcan0 00000002#085674 R
(3152880.769000) vcan0 00000001#095775 R
(3152881.005000) vcan0 00000002#0A5876 R
(3152881.247000) vcan0 00000001#0B5977 R
(3152881.483000) vcan0 00000002#0C5A78 R
(3152881.727000) vcan0 00000001#0D5B79 R
(3152881.962000) vcan0 00000002#0E5C7A R
(3152882.199000) vcan0 00000001#0F5D7B R
(3152882.439000) vcan0 00000002#105E7C R
(3152882.683000) vcan0 00000001#115F7D R
(3152882.919000) vcan0 00000002#12607E R
(3152883.155000) vcan0 00000001#13617F R
(3152883.396000) vcan0 00000002#146280 R
(3152883.640000) vcan0 00000001#156381 R
(3152883.875000) vcan0 00000002#166482 R
(3152884.111000) vcan0 00000001#176583 R
(3152884.349000) vcan0 00000002#186684 R
(3152884.585000) vcan0 00000001#196785 R
(3152884.829000) vcan0 00000002#1A6886 R
(3152885.064000) vcan0 00000001#1B6987 R
(3152885.306000) vcan0 00000002#1C6A88 R
(3152885.542000) vcan0 00000001#1D6B89 R
(3152885.786000) vcan0 00000002#1E6C8A R
(3152886.021000) vcan0 00000001#1F6D8B R
(3152886.263000) vcan0 00000002#206E8C R
(3152886.499000) vcan0 00000001#216F8D R
(3152886.743000) vcan0 00000002#22708E R
(3152886.979000) vcan0 00000001#23718F R
(3152887.217000) vcan0 00000002#247290 R
(3152887.452000) vcan0 00000001#257391 R
(3152887.696000) vcan0 00000002#267492 R
(3152887.932000) vcan0 00000001#277593 R
(3152888.168000) vcan0 00000002#287694 R
(3152888.410000) vcan0 00000001#297795 R
(3152888.654000) vcan0 00000002#2A7896 R
(3152888.890000) vcan0 00000001#2B7997 R
(3152889.125000) vcan0 00000002#2C7A98 R
(3152889.363000) vcan0 00000001#2D7B99 R
(3152889.599000) vcan0 00000002#2E7C9A R
(3152889.843000) vcan0 00000001#2F7D9B R
(3152890.079000) vcan0 00000002#307E9C R
(3152890.317000) vcan0 00000001#317F9D R
(3152890.553000) vcan0 00000002#32809E R
(3152890.796000) vcan0 00000001#33819F R
(3152891.032000) vcan0 00000002#3482A0 R
(3152891.273000) vcan0 00000001#3583A1 R
(3152891.509000) vcan0 00000002#3684A2 R
(3152891.753000) vcan0 00000001#3785A3 R
(3152891.989000) vcan0 00000002#3886A4 R
(3152892.230000) vcan0 00000001#3987A5 R
(3152892.466000) vcan0 00000002#3A88A6 R
(3152892.710000) vcan0 00000001#3B89A7 R
(3152892.946000) vcan0 00000002#3C8AA8 R
(3152893.182000) vcan0 00000001#3D8BA9 R
(3152893.423000) vcan0 00000002#3E8CAA R
(3152893.667000) vcan0 00000001#3F8DAB R
(3152893.902000) vcan0 00000002#408EAC R
(3152894.138000) vcan0 00000001#418FAD R
(3152894.380000) vcan0 00000002#4290AE R
(3152894.615000) vcan0 00000001#4391AF R
(3152894.859000) vcan0 00000002#4492B0 R
(3152895.095000) vcan0 00000001#4593B1 R
(3152895.333000) vcan0 00000002#4694B2 R
(3152895.569000) vcan0 00000001#4795B3 R
(3152895.812000) vcan0 00000002#4896B4 R
(3152896.048000) vcan0 00000001#4997B5 R
(3152896.290000) vcan0 00000002#4A98B6 R
(3152896.526000) vcan0 00000001#4B99B7 R
(3152896.769000) vcan0 00000002#4C9AB8 R
(3152897.005000) vcan0 00000001#4D9BB9 R
(3152897.247000) vcan0 00000002#4E9CBA R
(3152897.483000) vcan0 00000001#4F9DBB R
(3152897.727000) vcan0 00000002#509EBC R
(3152897.962000) vcan0 00000001#519FBD R
(3152898.199000) vcan0 00000002#52A0BE R
(3152898.439000) vcan0 00000001#53A1BF R
(3152898.683000) vcan0 00000002#54A2C0 R
(3152898.919000) vcan0 00000001#00A3C1 R
(3152899.155000) vcan0 00000002#01A4C2 R
(3152899.396000) vcan0 00000001#02A5C3 R
(3152899.640000) vcan0 00000002#03A6C4 R
(3152899.875000) vcan0 00000001#04A7C5 R
(3152900.111000) vcan0 00000002#05A8C6 R
(3152900.349000) vcan0 00000001#06A9C7 R
(3152900.585000) vcan0 00000002#07AAC8 R
(3152900.829000) vcan0 00000001#0855C9 R
(3152901.065000) vcan0 00000002#0956CA R
(3152901.307000) vcan0 00000001#0A57CB R
(3152901.543000) vcan0 00000002#0B58CC R
(3152901.786000) vcan0 00000001#0C59CD R
(3152902.022000) vcan0 00000002#0D5ACE R
(3152902.263000) vcan0 00000001#0E5BCF R
(3152902.499000) vcan0 00000002#0F5CD0 R
(3152902.743000) vcan0 00000001#105DD1 R
(3152902.978000) vcan0 00000002#115ED2 R
(3152903.217000) vcan0 00000001#125FD3 R
(3152903.453000) vcan0 00000002#1360D4 R
(3152903.697000) vcan0 00000001#1461D5 R
(3152903.932000) vcan0 00000002#1562D6 R
(3152904.168000) vcan0 00000001#1663D7 R
(3152904.410000) vcan0 00000002#1764D8 R
(3152904.654000) vcan0 00000001#1865D9 R
(3152904.890000) vcan0 00000002#1966DA R
(3152905.125000) vcan0 00000001#1A67DB R
(3152905.363000) vcan0 00000002#1B68DC R
(3152905.599000) vcan0 00000001#1C69DD R
(3152905.843000) vcan0 00000002#1D6ADE R
(3152906.079000) vcan0 00000001#1E6BDF R
(3152906.317000) vcan0 00000002#1F6CE0 R
(3152906.553000) vcan0 00000001#206DE1 R
(3152906.796000) vcan0 00000002#216EE2 R
(3152907.032000) vcan0 00000001#226FE3 R
(3152907.273000) vcan0 00000002#2370E4 R
(3152907.509000) vcan0 00000001#2471E5 R
(3152907.753000) vcan0 00000002#2572E6 R
(3152907.989000) vcan0 00000001#2673E7 R
(3152908.230000) vcan0 00000002#2774E8 R
(3152908.466000) vcan0 00000001#2875E9 R
(3152908.710000) vcan0 00000002#2976EA R
(3152908.946000) vcan0 00000001#2A77EB R
(3152909.182000) vcan0 00000002#2B78EC R
(3152909.423000) vcan0 00000001#2C79ED R
(3152909.667000) vcan0 00000002#2D7AEE R
(3152909.902000) vcan0 00000001#2E7BEF R
(3152910.138000) vcan0 00000002#2F7CF0 R
(3152910.380000) vcan0 00000001#307DF1 R
(3152910.615000) vcan0 00000002#317EF2 R
(3152910.859000) vcan0 00000001#327FF3 R
(3152911.095000) vcan0 00000002#3380F4 R
(3152911.333000) vcan0 00000001#3481F5 R
(3152911.569000) vcan0 00000002#3582F6 R
(3152911.812000) vcan0 00000001#3683F7 R
(3152912.048000) vcan0 00000002#3784F8 R
(3152912.290000) vcan0 00000001#3885F9 R
(3152912.526000) vcan0 00000002#3986FA R
(3152912.769000) vcan0 00000001#3A87FB R
(3152913.005000) vcan0 00000002#3B88FC R
(3152913.247000) vcan0 00000001#3C89FD R
(3152913.482000) vcan0 00000002#3D8AFE R
(3152913.726000) vcan0 00000001#3E8BFF R
(3152913.962000) vcan0 00000002#3F8C00 R
(3152914.198000) vcan0 00000001#408D01 R
(3152914.439000) vcan0 00000002#418E02 R
(3152914.683000) vcan0 00000001#428F03 R
(3152914.919000) vcan0 00000002#439004 R
(3152915.155000) vcan0 00000001#449105 R
(3152915.396000) vcan0 00000002#459206 R
(3152915.640000) vcan0 00000001#469307 R
(3152915.876000) vcan0 00000002#479408 R
(3152916.111000) vcan0 00000001#489509 R
(3152916.349000) vcan0 00000002#49960A R
(3152916.585000) vcan0 00000001#4A970B R
(3152916.829000) vcan0 00000002#4B980C R
(3152917.065000) vcan0 00000001#4C990D R
(3152917.306000) vcan0 00000002#4D9A0E R
(3152917.542000) vcan0 00000001#4E9B0F R
(3152917.786000) vcan0 00000002#4F9C10 R
(3152918.022000) vcan0 00000001#509D11 R
(3152918.263000) vcan0 00000002#519E12 R
(3152918.499000) vcan0 00000001#529F13 R
(3152918.743000) vcan0 00000002#53A014 R
(3152918.979000) vcan0 00000001#54A115 R
(3152919.217000) vcan0 00000002#00A216 R
(3152919.452000) vcan0 00000001#01A317 R
(3152919.696000) vcan0 00000002#02A418 R
(3152919.932000) vcan0 00000001#03A519 R
(3152920.168000) vcan0 00000002#04A61A R
(3152920.410000) vcan0 00000001#05A71B R
(3152920.654000) vcan0 00000002#06A81C R
(3152920.890000) vcan0 00000001#07A91D R
(3152921.125000) vcan0 00000002#08AA1E R
(3152921.363000) vcan0 00000001#09551F R
(3152921.599000) vcan0 00000002#0A5620 R
(3152921.843000) vcan0 00000001#0B5721 R
(3152922.079000) vcan0 00000002#0C5822 R
(3152922.317000) vcan0 00000001#0D5923 R
(3152922.553000) vcan0 00000002#0E5A24 R
(3152922.796000) vcan0 00000001#0F5B25 R
(3152923.032000) vcan0 00000002#105C26 R
(3152923.273000) vcan0 00000001#115D27 R
(3152923.509000) vcan0 00000002#125E28 R
(3152923.753000) vcan0 00000001#135F29 R
(3152923.989000) vcan0 00000002#14602A R
(3152924.230000) vcan0 00000001#15612B R
(3152924.466000) vcan0 00000002#16622C R
(3152924.710000) vcan0 00000001#17632D R
(3152924.946000) vcan0 00000002#18642E R
(3152925.182000) vcan0 00000001#19652F R
(3152925.423000) vcan0 00000002#1A6630 R
(3152925.667000) vcan0 00000001#1B6731 R
(3152925.902000) vcan0 00000002#1C6832 R
(3152926.138000) vcan0 00000001#1D6933 R
(3152926.380000) vcan0 00000002#1E6A34 R
(3152926.615000) vcan0 00000001#1F6B35 R
(3152926.859000) vcan0 00000002#206C36 R
(3152927.095000) vcan0 00000001#216D37 R
(3152927.333000) vcan0 00000002#226E38 R
(3152927.569000) vcan0 00000001#236F39 R
(3152927.812000) vcan0 00000002#24703A R
(3152928.048000) vcan0 00000001#25713B R
(3152928.290000) vcan0 00000002#26723C R
(3152928.526000) vcan0 00000001#27733D R
(3152928.769000) vcan0 00000002#28743E R
(3152929.005000) vcan0 00000001#29753F R
(3152929.247000) vcan0 00000002#2A7640 R
(3152929.483000) vcan0 00000001#2B7741 R
(3152929.727000) vcan0 00000002#2C7842 R
(3152929.962000) vcan0 00000001#2D7943 R
(3152930.199000) vcan0 00000002#2E7A44 R
(3152930.439000) vcan0 00000001#2F7B45 R
(3152930.683000) vcan0 00000002#307C46 R
(3152930.919000) vcan0 00000001#317D47 R
(3152931.155000) vcan0 00000002#327E48 R
(3152931.396000) vcan0 00000001#337F49 R
(3152931.640000) vcan0 00000002#34804A R
(3152931.875000) vcan0 00000001#35814B R
(3152932.111000) vcan0 00000002#36824C R
(3152932.349000) vcan0 00000001#37834D R
(3152932.585000) vcan0 00000002#38844E R
(3152932.829000) vcan0 00000001#39854F R
(3152933.065000) vcan0 00000002#3A8650 R
(3152933.307000) vcan0 00000001#3B8751 R
(3152933.543000) vcan0 00000002#3C8852 R
(3152933.786000) vcan0 00000001#3D8953 R
(3152934.022000) vcan0 00000002#3E8A54 R
(3152934.263000) vcan0 00000001#3F8B55 R
(3152934.499000) vcan0 00000002#408C56 R
(3152934.743000) vcan0 00000001#418D57 R
(3152934.978000) vcan0 00000002#428E58 R
(3152935.217000) vcan0 00000001#438F59 R
(3152935.453000) vcan0 00000002#44905A R
(3152935.697000) vcan0 00000001#45915B R
(3152935.932000) vcan0 00000002#46925C R
(3152936.168000) vcan0 00000001#47935D R
(3152936.410000) vcan0 00000002#48945E R
(3152936.654000) vcan0 00000001#49955F R
(3152936.890000) vcan0 00000002#4A9660 R
(3152937.125000) vcan0 00000001#4B9761 R
(3152937.363000) vcan0 00000002#4C9862 R
(3152937.599000) vcan0 00000001#4D9963 R
(3152937.843000) vcan0 00000002#4E9A64 R
(3152938.079000) vcan0 00000001#4F9B65 R
(3152938.317000) vcan0 00000002#509C66 R
(3152938.553000) vcan0 00000001#519D67 R
(3152938.796000) vcan0 00000002#529E68 R
(3152939.032000) vcan0 00000001#539F69 R
(3152939.273000) vcan0 00000002#54A06A R
(3152939.509000) vcan0 00000001#00A16B R
(3152939.753000) vcan0 00000002#01A26C R
(3152939.989000) vcan0 00000001#02A36D R
(3152940.230000) vcan0 00000002#03A46E R
(3152940.466000) vcan0 00000001#04A56F R
(3152940.710000) vcan0 00000002#05A670 R
(3152940.946000) vcan0 00000001#06A771 R
(3152941.182000) vcan0 00000002#07A872 R
(3152941.423000) vcan0 00000001#08A973 R
(3152941.667000) vcan0 00000002#09AA74 R
(3152941.902000) vcan0 00000001#0A5575 R
(3152942.138000) vcan0 00000002#0B5676 R
(3152942.380000) vcan0 00000001#0C5777 R
(3152942.615000) vcan0 00000002#0D5878 R
(3152942.859000) vcan0 00000001#0E5979 R
(3152943.095000) vcan0 00000002#0F5A7A R
(3152943.333000) vcan0 00000001#105B7B R
(3152943.568000) vcan0 00000002#115C7C R
(3152943.812000) vcan0 00000001#125D7D R
(3152944.048000) vcan0 00000002#135E7E R
(3152944.290000) vcan0 00000001#145F7F R
(3152944.526000) vcan0 00000002#156080 R
(3152944.769000) vcan0 00000001#166181 R
(3152945.005000) vcan0 00000002#176282 R
(3152945.247000) vcan0 00000001#186383 R
(3152945.483000) vcan0 00000002#196484 R
(3152945.727000) vcan0 00000001#1A6585 R
(3152945.962000) vcan0 00000002#1B6686 R
(3152946.199000) vcan0 00000001#1C6787 R
(3152946.439000) vcan0 00000002#1D6888 R
(3152946.683000) vcan0 00000001#1E6989 R
(3152946.919000) vcan0 00000002#1F6A8A R
(3152947.155000) vcan0 00000001#206B8B R
(3152947.396000) vcan0 00000002#216C8C R
(3152947.640000) vcan0 00000001#226D8D R
(3152947.875000) vcan0 00000002#236E8E R
(3152948.111000) vcan0 00000001#246F8F R
(3152948.349000) vcan0 00000002#257090 R
(3152948.585000) vcan0 00000001#267191 R
(3152948.829000) vcan0 00000002#277292 R
(3152949.064000) vcan0 00000001#287393 R
(3152949.306000) vcan0 00000002#297494 R
(3152949.542000) vcan0 00000001#2A7595 R
(3152949.786000) vcan0 00000002#2B7696 R
(3152950.021000) vcan0 00000001#2C7797 R
(3152950.263000) vcan0 00000002#2D7898 R
(3152950.499000) vcan0 00000001#2E7999 R
(3152950.743000) vcan0 00000002#2F7A9A R
(3152950.979000) vcan0 00000001#307B9B R
(3152951.217000) vcan0 00000002#317C9C R
(3152951.452000) vcan0 00000001#327D9D R
(3152951.696000) vcan0 00000002#337E9E R
(3152951.932000) vcan0 00000001#347F9F R
(3152952.168000) vcan0 00000002#3580A0 R
(3152952.410000) vcan0 00000001#3681A1 R
(3152952.654000) vcan0 00000002#3782A2 R
(3152952.890000) vcan0 00000001#3883A3 R
(3152953.125000) vcan0 00000002#3984A4 R
(3152953.363000) vcan0 00000001#3A85A5 R
(3152953.599000) vcan0 00000002#3B86A6 R
(3152953.843000) vcan0 00000001#3C87A7 R
(3152954.079000) vcan0 00000002#3D88A8 R
(3152954.317000) vcan0 00000001#3E89A9 R
(3152954.553000) vcan0 00000002#3F8AAA R
(3152954.796000) vcan0 00000001#408BAB R
(3152955.032000) vcan0 00000002#418CAC R
(3152955.273000) vcan0 00000001#428DAD R
(3152955.509000) vcan0 00000002#438EAE R
(3152955.753000) vcan0 00000001#448FAF R
(3152955.989000) vcan0 00000002#4590B0 R
(3152956.230000) vcan0 00000001#4691B1 R
(3152956.466000) vcan0 00000002#4792B2 R
(3152956.710000) vcan0 00000001#4893B3 R
(3152956.946000) vcan0 00000002#4994B4 R
(3152957.182000) vcan0 00000001#4A95B5 R
(3152957.423000) vcan0 00000002#4B96B6 R
(3152957.667000) vcan0 00000001#4C97B7 R
(3152957.902000) vcan0 00000002#4D98B8 R
(3152958.138000) vcan0 00000001#4E99B9 R
(3152958.380000) vcan0 00000002#4F9ABA R
(3152958.615000) vcan0 00000001#509BBB R
(3152958.859000) vcan0 00000002#519CBC R
(3152959.095000) vcan0 00000001#529DBD R
(3152959.333000) vcan0 00000002#539EBE R
(3152959.569000) vcan0 00000001#549FBF R
(3152959.812000) vcan0 00000002#00A0C0 R
(3152960.048000) vcan0 00000001#01A1C1 R
(3152960.290000) vcan0 00000002#02A2C2 R
(3152960.525000) vcan0 00000001#03A3C3 R
(3152960.769000) vcan0 00000002#04A4C4 R
(3152961.005000) vcan0 00000001#05A5C5 R
(3152961.247000) vcan0 00000002#06A6C6 R
(3152961.482000) vcan0 00000001#07A7C7 R
(3152961.726000) vcan0 00000002#08A8C8 R
(3152961.962000) vcan0 00000001#09A9C9 R
(3152962.198000) vcan0 00000002#0AAACA R
(3152962.439000) vcan0 00000001#0B55CB R
(3152962.683000) vcan0 00000002#0C56CC R
(3152962.919000) vcan0 00000001#0D57CD R
(3152963.155000) vcan0 00000002#0E58CE R
(3152963.396000) vcan0 00000001#0F59CF R
(3152963.640000) vcan0 00000002#105AD0 R
(3152963.875000) vcan0 00000001#115BD1 R
(3152964.111000) vcan0 00000002#125CD2 R
(3152964.349000) vcan0 00000001#135DD3 R
(3152964.585000) vcan0 00000002#145ED4 R
(3152964.829000) vcan0 00000001#155FD5 R
(3152965.065000) vcan0 00000002#1660D6 R
(3152965.307000) vcan0 00000001#1761D7 R
(3152965.543000) vcan0 00000002#1862D8 R
(3152965.786000) vcan0 00000001#1963D9 R
(3152966.022000) vcan0 00000002#1A64DA R
(3152966.263000) vcan0 00000001#1B65DB R
(3152966.499000) vcan0 00000002#1C66DC R
(3152966.743000) vcan0 00000001#1D67DD R
(3152966.978000) vcan0 00000002#1E68DE R
(3152967.217000) vcan0 00000001#1F69DF R
(3152967.453000) vcan0 00000002#206AE0 R
(3152967.697000) vcan0 00000001#216BE1 R
(3152967.932000) vcan0 00000002#226CE2 R
(3152968.168000) vcan0 00000001#236DE3 R
(3152968.410000) vcan0 00000002#246EE4 R
(3152968.654000) vcan0 00000001#256FE5 R
(3152968.890000) vcan0 00000002#2670E6 R
(3152969.125000) vcan0 00000001#2771E7 R
(3152969.363000) vcan0 00000002#2872E8 R
(3152969.599000) vcan0 00000001#2973E9 R
(3152969.843000) vcan0 00000002#2A74EA R
(3152970.079000) vcan0 00000001#2B75EB R
(3152970.317000) vcan0 00000002#2C76EC R
(3152970.553000) vcan0 00000001#2D77ED R
(3152970.796000) vcan0 00000002#2E78EE R
(3152971.032000) vcan0 00000001#2F79EF R
(3152971.273000) vcan0 00000002#307AF0 R
(3152971.509000) vcan0 00000001#317BF1 R
(3152971.753000) vcan0 00000002#327CF2 R
(3152971.989000) vcan0 00000001#337DF3 R
(3152972.230000) vcan0 00000002#347EF4 R
(3152972.466000) vcan0 00000001#357FF5 R
(3152972.710000) vcan0 00000002#3680F6 R
(3152972.946000) vcan0 00000001#3781F7 R
(3152973.182000) vcan0 00000002#3882F8 R
(3152973.423000) vcan0 00000001#3983F9 R
(3152973.667000) vcan0 00000002#3A84FA R
(3152973.902000) vcan0 00000001#3B85FB R
(3152974.138000) vcan0 00000002#3C86FC R
(3152974.380000) vcan0 00000001#3D87FD R
(3152974.615000) vcan0 00000002#3E88FE R
(3152974.859000) vcan0 00000001#3F89FF R
(3152975.095000) vcan0 00000002#408A00 R
(3152975.333000) vcan0 00000001#418B01 R
(3152975.569000) vcan0 00000002#428C02 R
(3152975.812000) vcan0 00000001#438D03 R
(3152976.048000) vcan0 00000002#448E04 R
(3152976.290000) vcan0 00000001#458F05 R
(3152976.526000) vcan0 00000002#469006 R
(3152976.769000) vcan0 00000001#479107 R
(3152977.005000) vcan0 00000002#489208 R
(3152977.247000) vcan0 00000001#499309 R
(3152977.482000) vcan0 00000002#4A940A R
(3152977.726000) vcan0 00000001#4B950B R
(3152977.962000) vcan0 00000002#4C960C R
(3152978.198000) vcan0 00000001#4D970D R
(3152978.439000) vcan0 00000002#4E980E R
(3152978.683000) vcan0 00000001#4F990F R
(3152978.919000) vcan0 00000002#509A10 R
(3152979.155000) vcan0 00000001#519B11 R
(3152979.396000) vcan0 00000002#529C12 R
(3152979.640000) vcan0 00000001#539D13 R
(3152979.876000) vcan0 00000002#549E14 R
(3152980.111000) vcan0 00000001#009F15 R
(3152980.349000) vcan0 00000002#01A016 R
(3152980.585000) vcan0 00000001#02A117 R
(3152980.829000) vcan0 00000002#03A218 R
(3152981.064000) vcan0 00000001#04A319 R
(3152981.306000) vcan0 00000002#05A41A R
(3152981.542000) vcan0 00000001#06A51B R
(3152981.785000) vcan0 00000002#07A61C R
(3152982.021000) vcan0 00000001#08A71D R
(3152982.263000) vcan0 00000002#09A81E R
(3152982.499000) vcan0 00000001#0AA91F R
(3152982.743000) vcan0 00000002#0BAA20 R
(3152982.978000) vcan0 00000001#0C5521 R
(3152983.217000) vcan0 00000002#0D5622 R
(3152983.453000) vcan0 00000001#0E5723 R
(3152983.696000) vcan0 00000002#0F5824 R
(3152983.932000) vcan0 00000001#105925 R
(3152984.168000) vcan0 00000002#115A26 R
(3152984.410000) vcan0 00000001#125B27 R
(3152984.654000) vcan0 00000002#135C28 R
(3152984.889000) vcan0 00000001#145D29 R
(3152985.125000) vcan0 00000002#155E2A R
(3152985.363000) vcan0 00000001#165F2B R
(3152985.599000) vcan0 00000002#17602C R
(3152985.843000) vcan0 00000001#18612D R
(3152986.079000) vcan0 00000002#19622E R
(3152986.317000) vcan0 00000001#1A632F R
(3152986.553000) vcan0 00000002#1B6430 R
(3152986.797000) vcan0 00000001#1C6531 R
(3152987.032000) vcan0 00000002#1D6632 R
(3152987.274000) vcan0 00000001#1E6733 R
(3152987.510000) vcan0 00000002#1F6834 R
(3152987.754000) vcan0 00000001#206935 R
(3152987.989000) vcan0 00000002#216A36 R
(3152988.230000) vcan0 00000001#226B37 R
(3152988.466000) vcan0 00000002#236C38 R
(3152988.710000) vcan0 00000001#246D39 R
(3152988.946000) vcan0 00000002#256E3A R
(3152989.182000) vcan0 00000001#266F3B R
(3152989.424000) vcan0 00000002#27703C R
(3152989.667000) vcan0 00000001#28713D R
(3152989.903000) vcan0 00000002#29723E R
(3152990.139000) vcan0 00000001#2A733F R
(3152990.379000) vcan0 00000002#2B7440 R
(3152990.615000) vcan0 00000001#2C7541 R
(3152990.859000) vcan0 00000002#2D7642 R
(3152991.095000) vcan0 00000001#2E7743 R
(3152991.333000) vcan0 00000002#2F7844 R
(3152991.569000) vcan0 00000001#307945 R
(3152991.812000) vcan0 00000002#317A46 R
(3152992.048000) vcan0 00000001#327B47 R
(3152992.290000) vcan0 00000002#337C48 R
(3152992.526000) vcan0 00000001#347D49 R
(3152992.769000) vcan0 00000002#357E4A R
(3152993.005000) vcan0 00000001#367F4B R
(3152993.247000) vcan0 00000002#37804C R
(3152993.483000) vcan0 00000001#38814D R
(3152993.727000) vcan0 00000002#39824E R
(3152993.962000) vcan0 00000001#3A834F R
(3152994.199000) vcan0 00000002#3B8450 R
(3152994.439000) vcan0 00000001#3C8551 R
(3152994.683000) vcan0 00000002#3D8652 R
(3152994.919000) vcan0 00000001#3E8753 R
(3152995.155000) vcan0 00000002#3F8854 R
(3152995.396000) vcan0 00000001#408955 R
(3152995.640000) vcan0 00000002#418A56 R
(3152995.875000) vcan0 00000001#428B57 R
(3152996.111000) vcan0 00000002#438C58 R
(3152996.349000) vcan0 00000001#448D59 R
(3152996.585000) vcan0 00000002#458E5A R
(3152996.829000) vcan0 00000001#468F5B R
(3152997.065000) vcan0 00000002#47905C R
(3152997.307000) vcan0 00000001#48915D R
(3152997.543000) vcan0 00000002#49925E R
(3152997.786000) vcan0 00000001#4A935F R
(3152998.022000) vcan0 00000002#4B9460 R
(3152998.263000) vcan0 00000001#4C9561 R
(3152998.499000) vcan0 00000002#4D9662 R
(3152998.743000) vcan0 00000001#4E9763 R
(3152998.978000) vcan0 00000002#4F9864 R
(3152999.217000) vcan0 00000001#509965 R
(3152999.453000) vcan0 00000002#519A66 R
(3152999.697000) vcan0 00000001#529B67 R
(3152999.932000) vcan0 00000002#539C68 R
(3153000.168000) vcan0 00000001#549D69 R
(3153000.410000) vcan0 00000002#009E6A R
(3153000.654000) vcan0 00000001#019F6B R
(3153000.890000) vcan0 00000002#02A06C R
(3153001.125000) vcan0 00000001#03A16D R
(3153001.363000) vcan0 00000002#04A26E R
(3153001.599000) vcan0 00000001#05A36F R
(3153001.843000) vcan0 00000002#06A470 R
(3153002.079000) vcan0 00000001#07A571 R
(3153002.317000) vcan0 00000002#08A672 R
(3153002.553000) vcan0 00000001#09A773 R
(3153002.796000) vcan0 00000002#0AA874 R
(3153003.032000) vcan0 00000001#0BA975 R
(3153003.273000) vcan0 00000002#0CAA76 R
(3153003.509000) vcan0 00000001#0D5577 R
(3153003.753000) vcan0 00000002#0E5678 R
(3153003.989000) vcan0 00000001#0F5779 R
(3153004.230000) vcan0 00000002#10587A R
(3153004.466000) vcan0 00000001#11597B R
(3153004.710000) vcan0 00000002#125A7C R
(3153004.946000) vcan0 00000001#135B7D R
(3153005.182000) vcan0 00000002#145C7E R
(3153005.423000) vcan0 00000001#155D7F R
(3153005.667000) vcan0 00000002#165E80 R
(3153005.902000) vcan0 00000001#175F81 R
(3153006.138000) vcan0 00000002#186082 R
(3153006.380000) vcan0 00000001#196183 R
(3153006.615000) vcan0 00000002#1A6284 R
(3153006.859000) vcan0 00000001#1B6385 R
(3153007.095000) vcan0 00000002#1C6486 R
(3153007.333000) vcan0 00000001#1D6587 R
(3153007.569000) vcan0 00000002#1E6688 R
(3153007.812000) vcan0 00000001#1F6789 R
(3153008.048000) vcan0 00000002#20688A R
(3153008.290000) vcan0 00000001#21698B R
(3153008.526000) vcan0 00000002#226A8C R
(3153008.769000) vcan0 00000001#236B8D R
(3153009.005000) vcan0 00000002#246C8E R
(3153009.247000) vcan0 00000001#256D8F R
(3153009.482000) vcan0 00000002#266E90 R
(3153009.726000) vcan0 00000001#276F91 R
(3153009.962000) vcan0 00000002#287092 R
(3153010.198000) vcan0 00000001#297193 R
(3153010.439000) vcan0 00000002#2A7294 R
(3153010.683000) vcan0 00000001#2B7395 R
(3153010.919000) vcan0 00000002#2C7496 R
(3153011.155000) vcan0 00000001#2D7597 R
(3153011.396000) vcan0 00000002#2E7698 R
(3153011.640000) vcan0 00000001#2F7799 R
(3153011.876000) vcan0 00000002#30789A R
(3153012.111000) vcan0 00000001#31799B R
(3153012.349000) vcan0 00000002#327A9C R
(3153012.585000) vcan0 00000001#337B9D R
(3153012.829000) vcan0 00000002#347C9E R
(3153013.065000) vcan0 00000001#357D9F R
(3153013.306000) vcan0 00000002#367EA0 R
(3153013.542000) vcan0 00000001#377FA1 R
(3153013.786000) vcan0 00000002#3880A2 R
(3153014.022000) vcan0 00000001#3981A3 R
(3153014.263000) vcan0 00000002#3A82A4 R
(3153014.499000) vcan0 00000001#3B83A5 R
(3153014.743000) vcan0 00000002#3C84A6 R
(3153014.979000) vcan0 00000001#3D85A7 R
(3153015.217000) vcan0 00000002#3E86A8 R
(3153015.452000) vcan0 00000001#3F87A9 R
(3153015.696000) vcan0 00000002#4088AA R
(3153015.932000) vcan0 00000001#4189AB R
(3153016.168000) vcan0 00000002#428AAC R
(3153016.410000) vcan0 00000001#438BAD R
(3153016.654000) vcan0 00000002#448CAE R
(3153016.890000) vcan0 00000001#458DAF R
(3153017.125000) vcan0 00000002#468EB0 R
(3153017.363000) vcan0 00000001#478FB1 R
(3153017.599000) vcan0 00000002#4890B2 R
(3153017.843000) vcan0 00000001#4991B3 R
(3153018.079000) vcan0 00000002#4A92B4 R
(3153018.317000) vcan0 00000001#4B93B5 R
(3153018.553000) vcan0 00000002#4C94B6 R
(3153018.796000) vcan0 00000001#4D95B7 R
(3153019.032000) vcan0 00000002#4E96B8 R
(3153019.273000) vcan0 00000001#4F97B9 R
(3153019.509000) vcan0 00000002#5098BA R
(3153019.753000) vcan0 00000001#5199BB R
(3153019.989000) vcan0 00000002#529ABC R
(3153020.230000) vcan0 00000001#539BBD R
(3153020.466000) vcan0 00000002#549CBE R
(3153020.710000) vcan0 00000001#009DBF R
(3153020.946000) vcan0 00000002#019EC0 R
(3153021.182000) vcan0 00000001#029FC1 R
(3153021.423000) vcan0 00000002#03A0C2 R
(3153021.667000) vcan0 00000001#04A1C3 R
(3153021.902000) vcan0 00000002#05A2C4 R
(3153022.138000) vcan0 00000001#06A3C5 R
(3153022.380000) vcan0 00000002#07A4C6 R
(3153022.615000) vcan0 00000001#08A5C7 R
(3153022.859000) vcan0 00000002#09A6C8 R
(3153023.095000) vcan0 00000001#0AA7C9 R
(3153023.333000) vcan0 00000002#0BA8CA R
(3153023.569000) vcan0 00000001#0CA9CB R
(3153023.812000) vcan0 00000002#0DAACC R
(3153024.048000) vcan0 00000001#0E55CD R
(3153024.290000) vcan0 00000002#0F56CE R
(3153024.525000) vcan0 00000001#1057CF R
(3153024.769000) vcan0 00000002#1158D0 R
(3153025.005000) vcan0 00000001#1259D1 R
(3153025.247000) vcan0 00000002#135AD2 R
(3153025.482000) vcan0 00000001#145BD3 R
(3153025.726000) vcan0 00000002#155CD4 R
(3153025.962000) vcan0 00000001#165DD5 R
(3153026.198000) vcan0 00000002#175ED6 R
(3153026.439000) vcan0 00000001#185FD7 R
(3153026.683000) vcan0 00000002#1960D8 R
(3153026.919000) vcan0 00000001#1A61D9 R
(3153027.155000) vcan0 00000002#1B62DA R
(3153027.396000) vcan0 00000001#1C63DB R
(3153027.640000) vcan0 00000002#1D64DC R
(3153027.875000) vcan0 00000001#1E65DD R
(3153028.111000) vcan0 00000002#1F66DE R
(3153028.349000) vcan0 00000001#2067DF R
(3153028.585000) vcan0 00000002#2168E0 R
(3153028.829000) vcan0 00000001#2269E1 R
(3153029.065000) vcan0 00000002#236AE2 R
(3153029.307000) vcan0 00000001#246BE3 R
(3153029.543000) vcan0 00000002#256CE4 R
(3153029.786000) vcan0 00000001#266DE5 R
(3153030.022000) vcan0 00000002#276EE6 R
(3153030.263000) vcan0 00000001#286FE7 R
(3153030.499000) vcan0 00000002#2970E8 R
(3153030.743000) vcan0 00000001#2A71E9 R
(3153030.978000) vcan0 00000002#2B72EA R
(3153031.217000) vcan0 00000001#2C73EB R
(3153031.453000) vcan0 00000002#2D74EC R
(3153031.697000) vcan0 00000001#2E75ED R
(3153031.932000) vcan0 00000002#2F76EE R
(3153032.168000) vcan0 00000001#3077EF R
(3153032.410000) vcan0 00000002#3178F0 R
(3153032.654000) vcan0 00000001#3279F1 R
(3153032.890000) vcan0 00000002#337AF2 R
(3153033.125000) vcan0 00000001#347BF3 R
(3153033.363000) vcan0 00000002#357CF4 R
(3153033.599000) vcan0 00000001#367DF5 R
(3153033.843000) vcan0 00000002#377EF6 R
(3153034.079000) vcan0 00000001#387FF7 R
(3153034.317000) vcan0 00000002#3980F8 R
(3153034.553000) vcan0 00000001#3A81F9 R
(3153034.796000) vcan0 00000002#3B82FA R
(3153035.032000) vcan0 00000001#3C83FB R
(3153035.273000) vcan0 00000002#3D84FC R
(3153035.509000) vcan0 00000001#3E85FD R
(3153035.753000) vcan0 00000002#3F86FE R
(3153035.989000) vcan0 00000001#4087FF R
(3153036.230000) vcan0 00000002#418800 R
(3153036.466000) vcan0 00000001#428901 R
(3153036.710000) vcan0 00000002#438A02 R
(3153036.946000) vcan0 00000001#448B03 R
(3153037.182000) vcan0 00000002#458C04 R
(3153037.423000) vcan0 00000001#468D05 R
(3153037.667000) vcan0 00000002#478E06 R
(3153037.902000) vcan0 00000001#488F07 R
(3153038.138000) vcan0 00000002#499008 R
(3153038.380000) vcan0 00000001#4A9109 R
(3153038.615000) vcan0 00000002#4B920A R
(3153038.859000) vcan0 00000001#4C930B R
(3153039.095000) vcan0 00000002#4D940C R
(3153039.333000) vcan0 00000001#4E950D R
(3153039.569000) vcan0 00000002#4F960E R
(3153039.812000) vcan0 00000001#50970F R
(3153040.048000) vcan0 00000002#519810 R
(3153040.290000) vcan0 00000001#529911 R
(3153040.526000) vcan0 00000002#539A12 R
(3153040.769000) vcan0 00000001#549B13 R
(3153041.005000) vcan0 00000002#009C14 R
(3153041.247000) vcan0 00000001#019D15 R
(3153041.482000) vcan0 00000002#029E16 R
(3153041.726000) vcan0 00000001#039F17 R
(3153041.962000) vcan0 00000002#04A018 R
(3153042.198000) vcan0 00000001#05A119 R
(3153042.439000) vcan0 00000002#06A21A R
(3153042.683000) vcan0 00000001#07A31B R
(3153042.919000) vcan0 00000002#08A41C R
(3153043.155000) vcan0 00000001#09A51D R
(3153043.396000) vcan0 00000002#0AA61E R
(3153043.640000) vcan0 00000001#0BA71F R
(3153043.875000) vcan0 00000002#0CA820 R
(3153044.111000) vcan0 00000001#0DA921 R
(3153044.349000) vcan0 00000002#0EAA22 R
(3153044.585000) vcan0 00000001#0F5523 R
(3153044.829000) vcan0 00000002#105624 R
(3153045.064000) vcan0 00000001#115725 R
(3153045.306000) vcan0 00000002#125826 R
(3153045.542000) vcan0 00000001#135927 R
(3153045.786000) vcan0 00000002#145A28 R
(3153046.021000) vcan0 00000001#155B29 R
(3153046.263000) vcan0 00000002#165C2A R
(3153046.499000) vcan0 00000001#175D2B R
(3153046.743000) vcan0 00000002#185E2C R
(3153046.979000) vcan0 00000001#195F2D R
(3153047.217000) vcan0 00000002#1A602E R
(3153047.452000) vcan0 00000001#1B612F R
(3153047.696000) vcan0 00000002#1C6230 R
(3153047.932000) vcan0 00000001#1D6331 R
(3153048.168000) vcan0 00000002#1E6432 R
(3153048.410000) vcan0 00000001#1F6533 R
(3153048.654000) vcan0 00000002#206634 R
(3153048.889000) vcan0 00000001#216735 R
(3153049.125000) vcan0 00000002#226836 R
(3153049.363000) vcan0 00000001#236937 R
(3153049.599000) vcan0 00000002#246A38 R
(3153049.843000) vcan0 00000001#256B39 R
(3153050.079000) vcan0 00000002#266C3A R
(3153050.317000) vcan0 00000001#276D3B R
(3153050.553000) vcan0 00000002#286E3C R
(3153050.797000) vcan0 00000001#296F3D R
(3153051.032000) vcan0 00000002#2A703E R
(3153051.274000) vcan0 00000001#2B713F R
(3153051.510000) vcan0 00000002#2C7240 R
(3153051.754000) vcan0 00000001#2D7341 R
(3153051.989000) vcan0 00000002#2E7442 R
(3153052.230000) vcan0 00000001#2F7543 R
(3153052.466000) vcan0 00000002#307644 R
(3153052.710000) vcan0 00000001#317745 R
(3153052.946000) vcan0 00000002#327846 R
(3153053.182000) vcan0 00000001#337947 R
(3153053.424000) vcan0 00000002#347A48 R
(3153053.667000) vcan0 00000001#357B49 R
(3153053.903000) vcan0 00000002#367C4A R
(3153054.139000) vcan0 00000001#377D4B R
(3153054.379000) vcan0 00000002#387E4C R
(3153054.615000) vcan0 00000001#397F4D R
(3153054.859000) vcan0 00000002#3A804E R
(3153055.095000) vcan0 00000001#3B814F R
(3153055.333000) vcan0 00000002#3C8250 R
(3153055.569000) vcan0 00000001#3D8351 R
(3153055.812000) vcan0 00000002#3E8452 R
(3153056.048000) vcan0 00000001#3F8553 R
(3153056.290000) vcan0 00000002#408654 R
(3153056.526000) vcan0 00000001#418755 R
(3153056.769000) vcan0 00000002#428856 R
(3153057.005000) vcan0 00000001#438957 R
(3153057.247000) vcan0 00000002#448A58 R
(3153057.483000) vcan0 00000001#458B59 R
(3153057.727000) vcan0 00000002#468C5A R
(3153057.962000) vcan0 00000001#478D5B R
(3153058.199000) vcan0 00000002#488E5C R
(3153058.439000) vcan0 00000001#498F5D R
(3153058.683000) vcan0 00000002#4A905E R
(3153058.919000) vcan0 00000001#4B915F R
(3153059.155000) vcan0 00000002#4C9260 R
(3153059.396000) vcan0 00000001#4D9361 R
(3153059.640000) vcan0 00000002#4E9462 R
(3153059.875000) vcan0 00000001#4F9563 R
(3153060.111000) vcan0 00000002#509664 R
(3153060.349000) vcan0 00000001#519765 R
(3153060.585000) vcan0 00000002#529866 R
(3153060.829000) vcan0 00000001#539967 R
(3153061.065000) vcan0 00000002#549A68 R
(3153061.307000) vcan0 00000001#009B69 R
(3153061.543000) vcan0 00000002#019C6A R
(3153061.786000) vcan0 00000001#029D6B R
(3153062.022000) vcan0 00000002#039E6C R
(3153062.264000) vcan0 00000001#049F6D R
(3153062.499000) vcan0 00000002#05A06E R
(3153062.743000) vcan0 00000001#06A16F R
(3153062.979000) vcan0 00000002#07A270 R
(3153063.217000) vcan0 00000001#08A371 R
(3153063.453000) vcan0 00000002#09A472 R
(3153063.696000) vcan0 00000001#0AA573 R
(3153063.932000) vcan0 00000002#0BA674 R
(3153064.168000) vcan0 00000001#0CA775 R
(3153064.410000) vcan0 00000002#0DA876 R
(3153064.654000) vcan0 00000001#0EA977 R
(3153064.890000) vcan0 00000002#0FAA78 R
(3153065.125000) vcan0 00000001#105579 R
(3153065.363000) vcan0 00000002#11567A R
(3153065.599000) vcan0 00000001#12577B R
(3153065.843000) vcan0 00000002#13587C R
(3153066.079000) vcan0 00000001#14597D R
(3153066.317000) vcan0 00000002#155A7E R
(3153066.553000) vcan0 00000001#165B7F R
(3153066.796000) vcan0 00000002#175C80 R
(3153067.032000) vcan0 00000001#185D81 R
(3153067.273000) vcan0 00000002#195E82 R
(3153067.509000) vcan0 00000001#1A5F83 R
(3153067.753000) vcan0 00000002#1B6084 R
(3153067.989000) vcan0 00000001#1C6185 R
(3153068.230000) vcan0 00000002#1D6286 R
(3153068.466000) vcan0 00000001#1E6387 R
(3153068.710000) vcan0 00000002#1F6488 R
(3153068.946000) vcan0 00000001#206589 R
(3153069.182000) vcan0 00000002#21668A R
(3153069.423000) vcan0 00000001#22678B R
(3153069.667000) vcan0 00000002#23688C R
(3153069.902000) vcan0 00000001#24698D R
(3153070.138000) vcan0 00000002#256A8E R
(3153070.380000) vcan0 00000001#266B8F R
(3153070.615000) vcan0 00000002#276C90 R
(3153070.859000) vcan0 00000001#286D91 R
(3153071.095000) vcan0 00000002#296E92 R
(3153071.333000) vcan0 00000001#2A6F93 R
(3153071.569000) vcan0 00000002#2B7094 R
(3153071.812000) vcan0 00000001#2C7195 R
(3153072.048000) vcan0 00000002#2D7296 R
(3153072.290000) vcan0 00000001#2E7397 R
(3153072.526000) vcan0 00000002#2F7498 R
(3153072.769000) vcan0 00000001#307599 R
(3153073.005000) vcan0 00000002#31769A R
(3153073.247000) vcan0 00000001#32779B R
(3153073.482000) vcan0 00000002#33789C R
(3153073.726000) vcan0 00000001#34799D R
(3153073.962000) vcan0 00000002#357A9E R
(3153074.198000) vcan0 00000001#367B9F R
(3153074.439000) vcan0 00000002#377CA0 R
(3153074.683000) vcan0 00000001#387DA1 R
(3153074.919000) vcan0 00000002#397EA2 R
(3153075.155000) vcan0 00000001#3A7FA3 R
(3153075.396000) vcan0 00000002#3B80A4 R
(3153075.640000) vcan0 00000001#3C81A5 R
(3153075.876000) vcan0 00000002#3D82A6 R
(3153076.111000) vcan0 00000001#3E83A7 R
(3153076.349000) vcan0 00000002#3F84A8 R
(3153076.585000) vcan0 00000001#4085A9 R
(3153076.829000) vcan0 00000002#4186AA R
(3153077.065000) vcan0 00000001#4287AB R
(3153077.306000) vcan0 00000002#4388AC R
(3153077.542000) vcan0 00000001#4489AD R
(3153077.786000) vcan0 00000002#458AAE R
(3153078.022000) vcan0 00000001#468BAF R
(3153078.263000) vcan0 00000002#478CB0 R
(3153078.499000) vcan0 00000001#488DB1 R
(3153078.743000) vcan0 00000002#498EB2 R
(3153078.979000) vcan0 00000001#4A8FB3 R
(3153079.217000) vcan0 00000002#4B90B4 R
(3153079.452000) vcan0 00000001#4C91B5 R
(3153079.696000) vcan0 00000002#4D92B6 R
(3153079.932000) vcan0 00000001#4E93B7 R
(3153080.168000) vcan0 00000002#4F94B8 R
(3153080.410000) vcan0 00000001#5095B9 R
(3153080.654000) vcan0 00000002#5196BA R
(3153080.890000) vcan0 00000001#5297BB R
(3153081.125000) vcan0 00000002#5398BC R
(3153081.363000) vcan0 00000001#5499BD R
(3153081.599000) vcan0 00000002#009ABE R
(3153081.843000) vcan0 00000001#019BBF R
(3153082.079000) vcan0 00000002#029CC0 R
(3153082.317000) vcan0 00000001#039DC1 R
(3153082.553000) vcan0 00000002#049EC2 R
(3153082.796000) vcan0 00000001#059FC3 R
(3153083.032000) vcan0 00000002#06A0C4 R
(3153083.273000) vcan0 00000001#07A1C5 R
(3153083.509000) vcan0 00000002#08A2C6 R
(3153083.753000) vcan0 00000001#09A3C7 R
(3153083.989000) vcan0 00000002#0AA4C8 R
(3153084.230000) vcan0 00000001#0BA5C9 R
(3153084.466000) vcan0 00000002#0CA6CA R
(3153084.710000) vcan0 00000001#0DA7CB R
(3153084.946000) vcan0 00000002#0EA8CC R
(3153085.182000) vcan0 00000001#0FA9CD R
(3153085.423000) vcan0 00000002#10AACE R
(3153085.667000) vcan0 00000001#1155CF R
(3153085.902000) vcan0 00000002#1256D0 R
(3153086.138000) vcan0 00000001#1357D1 R
(3153086.380000) vcan0 00000002#1458D2 R
(3153086.615000) vcan0 00000001#1559D3 R
(3153086.859000) vcan0 00000002#165AD4 R
(3153087.095000) vcan0 00000001#175BD5 R
(3153087.333000) vcan0 00000002#185CD6 R
(3153087.569000) vcan0 00000001#195DD7 R
(3153087.812000) vcan0 00000002#1A5ED8 R
(3153088.048000) vcan0 00000001#1B5FD9 R
(3153088.290000) vcan0 00000002#1C60DA R
(3153088.526000) vcan0 00000001#1D61DB R
(3153088.769000) vcan0 00000002#1E62DC R
(3153089.005000) vcan0 00000001#1F63DD R
(3153089.247000) vcan0 00000002#2064DE R
(3153089.483000) vcan0 00000001#2165DF R
(3153089.727000) vcan0 00000002#2266E0 R
(3153089.962000) vcan0 00000001#2367E1 R
(3153090.199000) vcan0 00000002#2468E2 R
(3153090.439000) vcan0 00000001#2569E3 R
(3153090.683000) vcan0 00000002#266AE4 R
(3153090.919000) vcan0 00000001#276BE5 R
(3153091.155000) vcan0 00000002#286CE6 R
(3153091.396000) vcan0 00000001#296DE7 R
(3153091.640000) vcan0 00000002#2A6EE8 R
(3153091.875000) vcan0 00000001#2B6FE9 R
(3153092.111000) vcan0 00000002#2C70EA R
(3153092.349000) vcan0 00000001#2D71EB R
(3153092.585000) vcan0 00000002#2E72EC R
(3153092.829000) vcan0 00000001#2F73ED R
(3153093.065000) vcan0 00000002#3074EE R
(3153093.307000) vcan0 00000001#3175EF R
(3153093.543000) vcan0 00000002#3276F0 R
(3153093.786000) vcan0 00000001#3377F1 R
(3153094.022000) vcan0 00000002#3478F2 R
(3153094.263000) vcan0 00000001#3579F3 R
(3153094.499000) vcan0 00000002#367AF4 R
(3153094.743000) vcan0 00000001#377BF5 R
(3153094.978000) vcan0 00000002#387CF6 R
(3153095.217000) vcan0 00000001#397DF7 R
(3153095.453000) vcan0 00000002#3A7EF8 R
(3153095.697000) vcan0 00000001#3B7FF9 R
(3153095.932000) vcan0 00000002#3C80FA R
(3153096.168000) vcan0 00000001#3D81FB R
(3153096.410000) vcan0 00000002#3E82FC R
(3153096.654000) vcan0 00000001#3F83FD R
(3153096.890000) vcan0 00000002#4084FE R
(3153097.125000) vcan0 00000001#4185FF R
(3153097.363000) vcan0 00000002#428600 R
(3153097.599000) vcan0 00000001#438701 R
(3153097.843000) vcan0 00000002#448802 R
(3153098.079000) vcan0 00000001#458903 R
(3153098.317000) vcan0 00000002#468A04 R
(3153098.553000) vcan0 00000001#478B05 R
(3153098.796000) vcan0 00000002#488C06 R
(3153099.032000) vcan0 00000001#498D07 R
(3153099.273000) vcan0 00000002#4A8E08 R
(3153099.509000) vcan0 00000001#4B8F09 R
(3153099.753000) vcan0 00000002#4C900A R
(3153099.989000) vcan0 00000001#4D910B R
(3153100.230000) vcan0 00000002#4E920C R
(3153100.466000) vcan0 00000001#4F930D R
(3153100.710000) vcan0 00000002#50940E R
(3153100.946000) vcan0 00000001#51950F R
(3153101.182000) vcan0 00000002#529610 R
(3153101.423000) vcan0 00000001#539711 R
(3153101.667000) vcan0 00000002#549812 R
(3153101.902000) vcan0 00000001#009913 R
(3153102.138000) vcan0 00000002#019A14 R
(3153102.380000) vcan0 00000001#029B15 R
(3153102.615000) vcan0 00000002#039C16 R
(3153102.859000) vcan0 00000001#049D17 R
(3153103.095000) vcan0 00000002#059E18 R
(3153103.333000) vcan0 00000001#069F19 R
(3153103.569000) vcan0 00000002#07A01A R
(3153103.812000) vcan0 00000001#08A11B R
(3153104.048000) vcan0 00000002#09A21C R
(3153104.290000) vcan0 00000001#0AA31D R
(3153104.526000) vcan0 00000002#0BA41E R
(3153104.769000) vcan0 00000001#0CA51F R
(3153105.005000) vcan0 00000002#0DA620 R
(3153105.247000) vcan0 00000001#0EA721 R
(3153105.482000) vcan0 00000002#0FA822 R
(3153105.726000) vcan0 00000001#10A923 R
(3153105.962000) vcan0 00000002#11AA24 R
(3153106.198000) vcan0 00000001#125525 R
(3153106.439000) vcan0 00000002#135626 R
(3153106.683000) vcan0 00000001#145727 R
(3153106.919000) vcan0 00000002#155828 R
(3153107.155000) vcan0 00000001#165929 R
(3153107.396000) vcan0 00000002#175A2A R
(3153107.640000) vcan0 00000001#185B2B R
(3153107.876000) vcan0 00000002#195C2C R
(3153108.111000) vcan0 00000001#1A5D2D R
(3153108.349000) vcan0 00000002#1B5E2E R
(3153108.585000) vcan0 00000001#1C5F2F R
(3153108.829000) vcan0 00000002#1D6030 R
(3153109.065000) vcan0 00000001#1E6131 R
(3153109.306000) vcan0 00000002#1F6232 R
(3153109.542000) vcan0 00000001#206333 R
(3153109.786000) vcan0 00000002#216434 R
(3153110.022000) vcan0 00000001#226535 R
(3153110.263000) vcan0 00000002#236636 R
(3153110.499000) vcan0 00000001#246737 R
(3153110.743000) vcan0 00000002#256838 R
(3153110.979000) vcan0 00000001#266939 R
(3153111.217000) vcan0 00000002#276A3A R
(3153111.452000) vcan0 00000001#286B3B R
(3153111.696000) vcan0 00000002#296C3C R
(3153111.932000) vcan0 00000001#2A6D3D R
(3153112.168000) vcan0 00000002#2B6E3E R
(3153112.410000) vcan0 00000001#2C6F3F R
(3153112.654000) vcan0 00000002#2D7040 R
(3153112.890000) vcan0 00000001#2E7141 R
(3153113.125000) vcan0 00000002#2F7242 R
(3153113.363000) vcan0 00000001#307343 R
(3153113.599000) vcan0 00000002#317444 R
(3153113.843000) vcan0 00000001#327545 R
(3153114.079000) vcan0 00000002#337646 R
(3153114.317000) vcan0 00000001#347747 R
(3153114.553000) vcan0 00000002#357848 R
(3153114.796000) vcan0 00000001#367949 R
(3153115.032000) vcan0 00000002#377A4A R
(3153115.273000) vcan0 00000001#387B4B R
(3153115.509000) vcan0 00000002#397C4C R
(3153115.753000) vcan0 00000001#3A7D4D R
(3153115.989000) vcan0 00000002#3B7E4E R
(3153116.230000) vcan0 00000001#3C7F4F R
(3153116.466000) vcan0 00000002#3D8050 R
(3153116.710000) vcan0 00000001#3E8151 R
(3153116.946000) vcan0 00000002#3F8252 R
(3153117.182000) vcan0 00000001#408353 R
(3153117.423000) vcan0 00000002#418454 R
(3153117.667000) vcan0 00000001#428555 R
(3153117.902000) vcan0 00000002#438656 R
(3153118.138000) vcan0 00000001#448757 R
(3153118.380000) vcan0 00000002#458858 R
(3153118.615000) vcan0 00000001#468959 R
(3153118.859000) vcan0 00000002#478A5A R
(3153119.095000) vcan0 00000001#488B5B R
(3153119.333000) vcan0 00000002#498C5C R
(3153119.569000) vcan0 00000001#4A8D5D R
(3153119.812000) vcan0 00000002#4B8E5E R
(3153120.048000) vcan0 00000001#4C8F5F R
(3153120.290000) vcan0 00000002#4D9060 R
(3153120.526000) vcan0 00000001#4E9161 R
(3153120.769000) vcan0 00000002#4F9262 R
(3153121.005000) vcan0 00000001#509363 R
(3153121.247000) vcan0 00000002#519464 R
(3153121.483000) vcan0 00000001#529565 R
(3153121.727000) vcan0 00000002#539666 R
(3153121.962000) vcan0 00000001#549767 R
(3153122.199000) vcan0 00000002#009868 R
(3153122.439000) vcan0 00000001#019969 R
(3153122.683000) vcan0 00000002#029A6A R
(3153122.919000) vcan0 00000001#039B6B R
(3153123.155000) vcan0 00000002#049C6C R
(3153123.396000) vcan0 00000001#059D6D R
(3153123.640000) vcan0 00000002#069E6E R
(3153123.875000) vcan0 00000001#079F6F R
(3153124.111000) vcan0 00000002#08A070 R
(3153124.349000) vcan0 00000001#09A171 R
(3153124.585000) vcan0 00000002#0AA272 R
(3153124.829000) vcan0 00000001#0BA373 R
(3153125.065000) vcan0 00000002#0CA474 R
(3153125.307000) vcan0 00000001#0DA575 R
(3153125.543000) vcan0 00000002#0EA676 R
(3153125.786000) vcan0 00000001#0FA777 R
(3153126.022000) vcan0 00000002#10A878 R
(3153126.263000) vcan0 00000001#11A979 R
(3153126.499000) vcan0 00000002#12AA7A R
(3153126.743000) vcan0 00000001#13557B R
(3153126.978000) vcan0 00000002#14567C R
(3153127.217000) vcan0 00000001#15577D R
(3153127.453000) vcan0 00000002#16587E R
(3153127.697000) vcan0 00000001#17597F R
(3153127.932000) vcan0 00000002#185A80 R
(3153128.168000) vcan0 00000001#195B81 R
(3153128.410000) vcan0 00000002#1A5C82 R
(3153128.654000) vcan0 00000001#1B5D83 R
(3153128.890000) vcan0 00000002#1C5E84 R
(3153129.125000) vcan0 00000001#1D5F85 R
(3153129.363000) vcan0 00000002#1E6086 R
(3153129.599000) vcan0 00000001#1F6187 R
(3153129.843000) vcan0 00000002#206288 R
(3153130.079000) vcan0 00000001#216389 R
(3153130.317000) vcan0 00000002#22648A R
(3153130.553000) vcan0 00000001#23658B R
(3153130.796000) vcan0 00000002#24668C R
(3153131.032000) vcan0 00000001#25678D R
(3153131.273000) vcan0 00000002#26688E R
(3153131.509000) vcan0 00000001#27698F R
(3153131.753000) vcan0 00000002#286A90 R
(3153131.989000) vcan0 00000001#296B91 R
(3153132.230000) vcan0 00000002#2A6C92 R
(3153132.466000) vcan0 00000001#2B6D93 R
(3153132.710000) vcan0 00000002#2C6E94 R
(3153132.946000) vcan0 00000001#2D6F95 R
(3153133.182000) vcan0 00000002#2E7096 R
(3153133.423000) vcan0 00000001#2F7197 R
(3153133.667000) vcan0 00000002#307298 R
(3153133.902000) vcan0 00000001#317399 R
(3153134.138000) vcan0 00000002#32749A R
(3153134.380000) vcan0 00000001#33759B R
(3153134.615000) vcan0 00000002#34769C R
(3153134.859000) vcan0 00000001#35779D R
(3153135.095000) vcan0 00000002#36789E R
(3153135.333000) vcan0 00000001#37799F R
(3153135.569000) vcan0 00000002#387AA0 R
(3153135.812000) vcan0 00000001#397BA1 R
(3153136.048000) vcan0 00000002#3A7CA2 R
(3153136.290000) vcan0 00000001#3B7DA3 R
(3153136.526000) vcan0 00000002#3C7EA4 R
(3153136.769000) vcan0 00000001#3D7FA5 R
(3153137.005000) vcan0 00000002#3E80A6 R
(3153137.247000) vcan0 00000001#3F81A7 R
(3153137.482000) vcan0 00000002#4082A8 R
(3153137.726000) vcan0 00000001#4183A9 R
(3153137.962000) vcan0 00000002#4284AA R
(3153138.198000) vcan0 00000001#4385AB R
(3153138.439000) vcan0 00000002#4486AC R
(3153138.683000) vcan0 00000001#4587AD R
(3153138.919000) vcan0 00000002#4688AE R
(3153139.155000) vcan0 00000001#4789AF R
(3153139.396000) vcan0 00000002#488AB0 R
(3153139.640000) vcan0 00000001#498BB1 R
(3153139.876000) vcan0 00000002#4A8CB2 R
(3153140.111000) vcan0 00000001#4B8DB3 R
(3153140.349000) vcan0 00000002#4C8EB4 R
(3153140.585000) vcan0 00000001#4D8FB5 R
(3153140.829000) vcan0 00000002#4E90B6 R
(3153141.065000) vcan0 00000001#4F91B7 R
(3153141.306000) vcan0 00000002#5092B8 R
(3153141.542000) vcan0 00000001#5193B9 R
(3153141.786000) vcan0 00000002#5294BA R
(3153142.022000) vcan0 00000001#5395BB R
(3153142.263000) vcan0 00000002#5496BC R
(3153142.499000) vcan0 00000001#0097BD R
(3153142.743000) vcan0 00000002#0198BE R
(3153142.979000) vcan0 00000001#0299BF R
(3153143.217000) vcan0 00000002#039AC0 R
(3153143.452000) vcan0 00000001#049BC1 R
(3153143.696000) vcan0 00000002#059CC2 R
(3153143.932000) vcan0 00000001#069DC3 R
(3153144.168000) vcan0 00000002#079EC4 R
(3153144.410000) vcan0 00000001#089FC5 R
(3153144.654000) vcan0 00000002#09A0C6 R
(3153144.890000) vcan0 00000001#0AA1C7 R
(3153145.125000) vcan0 00000002#0BA2C8 R
(3153145.363000) vcan0 00000001#0CA3C9 R
(3153145.599000) vcan0 00000002#0DA4CA R
(3153145.843000) vcan0 00000001#0EA5CB R
(3153146.079000) vcan0 00000002#0FA6CC R
(3153146.317000) vcan0 00000001#10A7CD R
(3153146.553000) vcan0 00000002#11A8CE R
(3153146.796000) vcan0 00000001#12A9CF R
(3153147.032000) vcan0 00000002#13AAD0 R
(3153147.273000) vcan0 00000001#1455D1 R
(3153147.509000) vcan0 00000002#1556D2 R
(3153147.753000) vcan0 00000001#1657D3 R
(3153147.989000) vcan0 00000002#1758D4 R
(3153148.230000) vcan0 00000001#1859D5 R
(3153148.466000) vcan0 00000002#195AD6 R
(3153148.710000) vcan0 00000001#1A5BD7 R
(3153148.946000) vcan0 00000002#1B5CD8 R
(3153149.182000) vcan0 00000001#1C5DD9 R
(3153149.423000) vcan0 00000002#1D5EDA R
(3153149.667000) vcan0 00000001#1E5FDB R
(3153149.902000) vcan0 00000002#1F60DC R
(3153150.138000) vcan0 00000001#2061DD R
(3153150.380000) vcan0 00000002#2162DE R
(3153150.615000) vcan0 00000001#2263DF R
(3153150.859000) vcan0 00000002#2364E0 R
(3153151.095000) vcan0 00000001#2465E1 R
(3153151.333000) vcan0 00000002#2566E2 R
(3153151.569000) vcan0 00000001#2667E3 R
(3153151.812000) vcan0 00000002#2768E4 R
(3153152.048000) vcan0 00000001#2869E5 R
(3153152.290000) vcan0 00000002#296AE6 R
(3153152.526000) vcan0 00000001#2A6BE7 R
(3153152.769000) vcan0 00000002#2B6CE8 R
(3153153.005000) vcan0 00000001#2C6DE9 R
(3153153.247000) vcan0 00000002#2D6EEA R
(3153153.483000) vcan0 00000001#2E6FEB R
(3153153.727000) vcan0 00000002#2F70EC R
(3153153.962000) vcan0 00000001#3071ED R
(3153154.199000) vcan0 00000002#3172EE R
(3153154.439000) vcan0 00000001#3273EF R
(3153154.683000) vcan0 00000002#3374F0 R
(3153154.919000) vcan0 00000001#3475F1 R
(3153155.155000) vcan0 00000002#3576F2 R
(3153155.396000) vcan0 00000001#3677F3 R
(3153155.640000) vcan0 00000002#3778F4 R
(3153155.875000) vcan0 00000001#3879F5 R
(3153156.111000) vcan0 00000002#397AF6 R
(3153156.349000) vcan0 00000001#3A7BF7 R
(3153156.585000) vcan0 00000002#3B7CF8 R
(3153156.829000) vcan0 00000001#3C7DF9 R
(3153157.065000) vcan0 00000002#3D7EFA R
(3153157.307000) vcan0 00000001#3E7FFB R
(3153157.543000) vcan0 00000002#3F80FC R
(3153157.786000) vcan0 00000001#4081FD R
(3153158.022000) vcan0 00000002#4182FE R
(3153158.263000) vcan0 00000001#4283FF R
(3153158.499000) vcan0 00000002#438400 R
(3153158.743000) vcan0 00000001#448501 R
(3153158.978000) vcan0 00000002#458602 R
(3153159.217000) vcan0 00000001#468703 R
(3153159.453000) vcan0 00000002#478804 R
(3153159.697000) vcan0 00000001#488905 R
(3153159.932000) vcan0 00000002#498A06 R
(3153160.168000) vcan0 00000001#4A8B07 R
(3153160.410000) vcan0 00000002#4B8C08 R
(3153160.654000) vcan0 00000001#4C8D09 R
(3153160.890000) vcan0 00000002#4D8E0A R
(3153161.125000) vcan0 00000001#4E8F0B R
(3153161.363000) vcan0 00000002#4F900C R
(3153161.599000) vcan0 00000001#50910D R
(3153161.843000) vcan0 00000002#51920E R
(3153162.079000) vcan0 00000001#52930F R
(3153162.317000) vcan0 00000002#539410 R
(3153162.553000) vcan0 00000001#549511 R
(3153162.796000) vcan0 00000002#009612 R
(3153163.032000) vcan0 00000001#019713 R
(3153163.273000) vcan0 00000002#029814 R
(3153163.509000) vcan0 00000001#039915 R
(3153163.753000) vcan0 00000002#049A16 R
(3153163.989000) vcan0 00000001#059B17 R
(3153164.230000) vcan0 00000002#069C18 R
(3153164.466000) vcan0 00000001#079D19 R
(3153164.710000) vcan0 00000002#089E1A R
(3153164.946000) vcan0 00000001#099F1B R
(3153165.182000) vcan0 00000002#0AA01C R
(3153165.423000) vcan0 00000001#0BA11D R
(3153165.667000) vcan0 00000002#0CA21E R
(3153165.902000) vcan0 00000001#0DA31F R
(3153166.138000) vcan0 00000002#0EA420 R
(3153166.380000) vcan0 00000001#0FA521 R
(3153166.615000) vcan0 00000002#10A622 R
(3153166.859000) vcan0 00000001#11A723 R
(3153167.095000) vcan0 00000002#12A824 R
(3153167.333000) vcan0 00000001#13A925 R
(3153167.569000) vcan0 00000002#14AA26 R
(3153167.812000) vcan0 00000001#155527 R
(3153168.048000) vcan0 00000002#165628 R
(3153168.290000) vcan0 00000001#175729 R
(3153168.526000) vcan0 00000002#18582A R
(3153168.769000) vcan0 00000001#19592B R
(3153169.005000) vcan0 00000002#1A5A2C R
(3153169.247000) vcan0 00000001#1B5B2D R
(3153169.483000) vcan0 00000002#1C5C2E R
(3153169.727000) vcan0 00000001#1D5D2F R
(3153169.962000) vcan0 00000002#1E5E30 R
(3153170.199000) vcan0 00000001#1F5F31 R
(3153170.439000) vcan0 00000002#206032 R
(3153170.683000) vcan0 00000001#216133 R
(3153170.919000) vcan0 00000002#226234 R
(3153171.154000) vcan0 00000001#236335 R
(3153171.396000) vcan0 00000002#246436 R
(3153171.640000) vcan0 00000001#256537 R
(3153171.876000) vcan0 00000002#266638 R
(3153172.111000) vcan0 00000001#276739 R
(3153172.349000) vcan0 00000002#28683A R
(3153172.585000) vcan0 00000001#29693B R
(3153172.829000) vcan0 00000002#2A6A3C R
(3153173.064000) vcan0 00000001#2B6B3D R
(3153173.306000) vcan0 00000002#2C6C3E R
(3153173.542000) vcan0 00000001#2D6D3F R
(3153173.785000) vcan0 00000002#2E6E40 R
(3153174.021000) vcan0 00000001#2F6F41 R
(3153174.263000) vcan0 00000002#307042 R
(3153174.499000) vcan0 00000001#317143 R
(3153174.743000) vcan0 00000002#327244 R
(3153174.978000) vcan0 00000001#337345 R
(3153175.217000) vcan0 00000002#347446 R
(3153175.453000) vcan0 00000001#357547 R
(3153175.697000) vcan0 00000002#367648 R
(3153175.932000) vcan0 00000001#377749 R
(3153176.168000) vcan0 00000002#38784A R
(3153176.410000) vcan0 00000001#39794B R
(3153176.654000) vcan0 00000002#3A7A4C R
(3153176.890000) vcan0 00000001#3B7B4D R
(3153177.125000) vcan0 00000002#3C7C4E R
(3153177.363000) vcan0 00000001#3D7D4F R
(3153177.599000) vcan0 00000002#3E7E50 R
(3153177.843000) vcan0 00000001#3F7F51 R
(3153178.079000) vcan0 00000002#408052 R
(3153178.317000) vcan0 00000001#418153 R
(3153178.553000) vcan0 00000002#428254 R
(3153178.796000) vcan0 00000001#438355 R
(3153179.032000) vcan0 00000002#448456 R
(3153179.273000) vcan0 00000001#458557 R
(3153179.509000) vcan0 00000002#468658 R
(3153179.753000) vcan0 00000001#478759 R
(3153179.989000) vcan0 00000002#48885A R
(3153180.230000) vcan0 00000001#49895B R
(3153180.466000) vcan0 00000002#4A8A5C R
(3153180.710000) vcan0 00000001#4B8B5D R
(3153180.946000) vcan0 00000002#4C8C5E R
(3153181.182000) vcan0 00000001#4D8D5F R
(3153181.423000) vcan0 00000002#4E8E60 R
(3153181.667000) vcan0 00000001#4F8F61 R
(3153181.902000) vcan0 00000002#509062 R
(3153182.138000) vcan0 00000001#519163 R
(3153182.380000) vcan0 00000002#529264 R
(3153182.615000) vcan0 00000001#539365 R
(3153182.859000) vcan0 00000002#549466 R
(3153183.095000) vcan0 00000001#009567 R
(3153183.333000) vcan0 00000002#019668 R
(3153183.569000) vcan0 00000001#029769 R
(3153183.812000) vcan0 00000002#03986A R
(3153184.048000) vcan0 00000001#04996B R
(3153184.290000) vcan0 00000002#059A6C R
(3153184.526000) vcan0 00000001#069B6D R
(3153184.769000) vcan0 00000002#079C6E R
(3153185.005000) vcan0 00000001#089D6F R
(3153185.247000) vcan0 00000002#099E70 R
(3153185.483000) vcan0 00000001#0A9F71 R
(3153185.727000) vcan0 00000002#0BA072 R
(3153185.962000) vcan0 00000001#0CA173 R
(3153186.199000) vcan0 00000002#0DA274 R
(3153186.439000) vcan0 00000001#0EA375 R
(3153186.683000) vcan0 00000002#0FA476 R
(3153186.919000) vcan0 00000001#10A577 R
(3153187.155000) vcan0 00000002#11A678 R
(3153187.396000) vcan0 00000001#12A779 R
(3153187.640000) vcan0 00000002#13A87A R
(3153187.875000) vcan0 00000001#14A97B R
(3153188.111000) vcan0 00000002#15AA7C R
(3153188.349000) vcan0 00000001#16557D R
(3153188.585000) vcan0 00000002#17567E R
(3153188.829000) vcan0 00000001#18577F R
(3153189.065000) vcan0 00000002#195880 R
(3153189.307000) vcan0 00000001#1A5981 R
(3153189.543000) vcan0 00000002#1B5A82 R
(3153189.786000) vcan0 00000001#1C5B83 R
(3153190.022000) vcan0 00000002#1D5C84 R
(3153190.263000) vcan0 00000001#1E5D85 R
(3153190.499000) vcan0 00000002#1F5E86 R
(3153190.743000) vcan0 00000001#205F87 R
(3153190.978000) vcan0 00000002#216088 R
(3153191.217000) vcan0 00000001#226189 R
(3153191.453000) vcan0 00000002#23628A R
(3153191.697000) vcan0 00000001#24638B R
(3153191.932000) vcan0 00000002#25648C R
(3153192.168000) vcan0 00000001#26658D R
(3153192.410000) vcan0 00000002#27668E R
(3153192.654000) vcan0 00000001#28678F R
(3153192.890000) vcan0 00000002#296890 R
(3153193.125000) vcan0 00000001#2A6991 R
(3153193.363000) vcan0 00000002#2B6A92 R
(3153193.599000) vcan0 00000001#2C6B93 R
(3153193.843000) vcan0 00000002#2D6C94 R
(3153194.079000) vcan0 00000001#2E6D95 R
(3153194.317000) vcan0 00000002#2F6E96 R
(3153194.553000) vcan0 00000001#306F97 R
(3153194.796000) vcan0 00000002#317098 R
(3153195.032000) vcan0 00000001#327199 R
(3153195.273000) vcan0 00000002#33729A R
(3153195.509000) vcan0 00000001#34739B R
(3153195.753000) vcan0 00000002#35749C R
(3153195.989000) vcan0 00000001#36759D R
(3153196.230000) vcan0 00000002#37769E R
(3153196.466000) vcan0 00000001#38779F R
(3153196.710000) vcan0 00000002#3978A0 R
(3153196.946000) vcan0 00000001#3A79A1 R
(3153197.182000) vcan0 00000002#3B7AA2 R
(3153197.423000) vcan0 00000001#3C7BA3 R
(3153197.667000) vcan0 00000002#3D7CA4 R
(3153197.902000) vcan0 00000001#3E7DA5 R
(3153198.138000) vcan0 00000002#3F7EA6 R
(3153198.380000) vcan0 00000001#407FA7 R
(3153198.615000) vcan0 00000002#4180A8 R
(3153198.859000) vcan0 00000001#4281A9 R
(3153199.095000) vcan0 00000002#4382AA R
(3153199.333000) vcan0 00000001#4483AB R
(3153199.569000) vcan0 00000002#4584AC R
(3153199.812000) vcan0 00000001#4685AD R
(3153200.048000) vcan0 00000002#4786AE R
(3153200.290000) vcan0 00000001#4887AF R
(3153200.526000) vcan0 00000002#4988B0 R
(3153200.769000) vcan0 00000001#4A89B1 R
(3153201.005000) vcan0 00000002#4B8AB2 R
(3153201.247000) vcan0 00000001#4C8BB3 R
(3153201.482000) vcan0 00000002#4D8CB4 R
(3153201.726000) vcan0 00000001#4E8DB5 R
(3153201.962000) vcan0 00000002#4F8EB6 R
(3153202.198000) vcan0 00000001#508FB7 R
(3153202.439000) vcan0 00000002#5190B8 R
(3153202.683000) vcan0 00000001#5291B9 R
(3153202.919000) vcan0 00000002#5392BA R
(3153203.155000) vcan0 00000001#5493BB R
(3153203.396000) vcan0 00000002#0094BC R
(3153203.640000) vcan0 00000001#0195BD R
(3153203.876000) vcan0 00000002#0296BE R
(3153204.111000) vcan0 00000001#0397BF R
(3153204.349000) vcan0 00000002#0498C0 R
(3153204.585000) vcan0 00000001#0599C1 R
(3153204.829000) vcan0 00000002#069AC2 R
(3153205.064000) vcan0 00000001#079BC3 R
(3153205.306000) vcan0 00000002#089CC4 R
(3153205.542000) vcan0 00000001#099DC5 R
(3153205.785000) vcan0 00000002#0A9EC6 R
(3153206.021000) vcan0 00000001#0B9FC7 R
(3153206.263000) vcan0 00000002#0CA0C8 R
(3153206.499000) vcan0 00000001#0DA1C9 R
(3153206.743000) vcan0 00000002#0EA2CA R
(3153206.978000) vcan0 00000001#0FA3CB R
(3153207.217000) vcan0 00000002#10A4CC R
(3153207.453000) vcan0 00000001#11A5CD R
(3153207.697000) vcan0 00000002#12A6CE R
(3153207.932000) vcan0 00000001#13A7CF R
(3153208.168000) vcan0 00000002#14A8D0 R
(3153208.410000) vcan0 00000001#15A9D1 R
(3153208.654000) vcan0 00000002#16AAD2 R
(3153208.890000) vcan0 00000001#1755D3 R
(3153209.125000) vcan0 00000002#1856D4 R
(3153209.363000) vcan0 00000001#1957D5 R
(3153209.599000) vcan0 00000002#1A58D6 R
(3153209.843000) vcan0 00000001#1B59D7 R
(3153210.079000) vcan0 00000002#1C5AD8 R
(3153210.317000) vcan0 00000001#1D5BD9 R
(3153210.553000) vcan0 00000002#1E5CDA R
(3153210.796000) vcan0 00000001#1F5DDB R
(3153211.032000) vcan0 00000002#205EDC R
(3153211.273000) vcan0 00000001#215FDD R
(3153211.509000) vcan0 00000002#2260DE R
(3153211.753000) vcan0 00000001#2361DF R
(3153211.989000) vcan0 00000002#2462E0 R
(3153212.230000) vcan0 00000001#2563E1 R
(3153212.466000) vcan0 00000002#2664E2 R
(3153212.710000) vcan0 00000001#2765E3 R
(3153212.946000) vcan0 00000002#2866E4 R
(3153213.182000) vcan0 00000001#2967E5 R
(3153213.423000) vcan0 00000002#2A68E6 R
(3153213.667000) vcan0 00000001#2B69E7 R
(3153213.902000) vcan0 00000002#2C6AE8 R
(3153214.138000) vcan0 00000001#2D6BE9 R
(3153214.380000) vcan0 00000002#2E6CEA R
(3153214.615000) vcan0 00000001#2F6DEB R
(3153214.859000) vcan0 00000002#306EEC R
(3153215.095000) vcan0 00000001#316FED R
(3153215.333000) vcan0 00000002#3270EE R
(3153215.569000) vcan0 00000001#3371EF R
(3153215.812000) vcan0 00000002#3472F0 R
(3153216.048000) vcan0 00000001#3573F1 R
(3153216.290000) vcan0 00000002#3674F2 R
(3153216.526000) vcan0 00000001#3775F3 R
(3153216.769000) vcan0 00000002#3876F4 R
(3153217.005000) vcan0 00000001#3977F5 R
(3153217.247000) vcan0 00000002#3A78F6 R
(3153217.483000) vcan0 00000001#3B79F7 R
(3153217.727000) vcan0 00000002#3C7AF8 R
(3153217.962000) vcan0 00000001#3D7BF9 R
(3153218.199000) vcan0 00000002#3E7CFA R
(3153218.439000) vcan0 00000001#3F7DFB R
(3153218.683000) vcan0 00000002#407EFC R
(3153218.919000) vcan0 00000001#417FFD R
(3153219.155000) vcan0 00000002#4280FE R
(3153219.396000) vcan0 00000001#4381FF R
(3153219.640000) vcan0 00000002#448200 R
(3153219.875000) vcan0 00000001#458301 R
(3153220.111000) vcan0 00000002#468402 R
(3153220.349000) vcan0 00000001#478503 R
(3153220.585000) vcan0 00000002#488604 R
(3153220.829000) vcan0 00000001#498705 R
(3153221.065000) vcan0 00000002#4A8806 R
(3153221.307000) vcan0 00000001#4B8907 R
(3153221.543000) vcan0 00000002#4C8A08 R
(3153221.786000) vcan0 00000001#4D8B09 R
(3153222.022000) vcan0 00000002#4E8C0A R
(3153222.263000) vcan0 00000001#4F8D0B R
(3153222.499000) vcan0 00000002#508E0C R
(3153222.743000) vcan0 00000001#518F0D R
(3153222.978000) vcan0 00000002#52900E R
(3153223.217000) vcan0 00000001#53910F R
(3153223.453000) vcan0 00000002#549210 R
(3153223.697000) vcan0 00000001#009311 R
(3153223.932000) vcan0 00000002#019412 R
(3153224.168000) vcan0 00000001#029513 R
(3153224.410000) vcan0 00000002#039614 R
(3153224.654000) vcan0 00000001#049715 R
(3153224.890000) vcan0 00000002#059816 R
(3153225.125000) vcan0 00000001#069917 R
(3153225.363000) vcan0 00000002#079A18 R
(3153225.599000) vcan0 00000001#089B19 R
(3153225.843000) vcan0 00000002#099C1A R
(3153226.079000) vcan0 00000001#0A9D1B R
(3153226.317000) vcan0 00000002#0B9E1C R
(3153226.553000) vcan0 00000001#0C9F1D R
(3153226.796000) vcan0 00000002#0DA01E R
(3153227.032000) vcan0 00000001#0EA11F R
(3153227.273000) vcan0 00000002#0FA220 R
(3153227.509000) vcan0 00000001#10A321 R
(3153227.753000) vcan0 00000002#11A422 R
(3153227.989000) vcan0 00000001#12A523 R
(3153228.230000) vcan0 00000002#13A624 R
(3153228.466000) vcan0 00000001#14A725 R
(3153228.710000) vcan0 00000002#15A826 R
(3153228.946000) vcan0 00000001#16A927 R
(3153229.182000) vcan0 00000002#17AA28 R
(3153229.423000) vcan0 00000001#185529 R
(3153229.667000) vcan0 00000002#19562A R
(3153229.902000) vcan0 00000001#1A572B R
(3153230.138000) vcan0 00000002#1B582C R
(3153230.380000) vcan0 00000001#1C592D R
(3153230.615000) vcan0 00000002#1D5A2E R
(3153230.859000) vcan0 00000001#1E5B2F R
(3153231.095000) vcan0 00000002#1F5C30 R
(3153231.333000) vcan0 00000001#205D31 R
(3153231.569000) vcan0 00000002#215E32 R
(3153231.812000) vcan0 00000001#225F33 R
(3153232.048000) vcan0 00000002#236034 R
(3153232.290000) vcan0 00000001#246135 R
(3153232.526000) vcan0 00000002#256236 R
(3153232.769000) vcan0 00000001#266337 R
(3153233.005000) vcan0 00000002#276438 R
(3153233.247000) vcan0 00000001#286539 R
(3153233.482000) vcan0 00000002#29663A R
(3153233.726000) vcan0 00000001#2A673B R
(3153233.962000) vcan0 00000002#2B683C R
(3153234.198000) vcan0 00000001#2C693D R
(3153234.439000) vcan0 00000002#2D6A3E R
(3153234.683000) vcan0 00000001#2E6B3F R
(3153234.919000) vcan0 00000002#2F6C40 R
(3153235.155000) vcan0 00000001#306D41 R
(3153235.396000) vcan0 00000002#316E42 R
(3153235.640000) vcan0 00000001#326F43 R
(3153235.876000) vcan0 00000002#337044 R
(3153236.111000) vcan0 00000001#347145 R
(3153236.349000) vcan0 00000002#357246 R
(3153236.585000) vcan0 00000001#367347 R
(3153236.829000) vcan0 00000002#377448 R
(3153237.065000) vcan0 00000001#387549 R
(3153237.306000) vcan0 00000002#39764A R
(3153237.542000) vcan0 00000001#3A774B R
(3153237.786000) vcan0 00000002#3B784C R
(3153238.022000) vcan0 00000001#3C794D R
(3153238.263000) vcan0 00000002#3D7A4E R
(3153238.499000) vcan0 00000001#3E7B4F R
(3153238.743000) vcan0 00000002#3F7C50 R
(3153238.979000) vcan0 00000001#407D51 R
(3153239.217000) vcan0 00000002#417E52 R
(3153239.452000) vcan0 00000001#427F53 R
(3153239.696000) vcan0 00000002#438054 R
(3153239.932000) vcan0 00000001#448155 R
(3153240.168000) vcan0 00000002#458256 R
(3153240.410000) vcan0 00000001#468357 R
(3153240.654000) vcan0 00000002#478458 R
(3153240.890000) vcan0 00000001#488559 R
(3153241.125000) vcan0 00000002#49865A R
(3153241.363000) vcan0 00000001#4A875B R
(3153241.599000) vcan0 00000002#4B885C R
(3153241.843000) vcan0 00000001#4C895D R
(3153242.079000) vcan0 00000002#4D8A5E R
(3153242.317000) vcan0 00000001#4E8B5F R
(3153242.553000) vcan0 00000002#4F8C60 R
(3153242.796000) vcan0 00000001#508D61 R
(3153243.032000) vcan0 00000002#518E62 R
(3153243.273000) vcan0 00000001#528F63 R
(3153243.509000) vcan0 00000002#539064 R
(3153243.753000) vcan0 00000001#549165 R
(3153243.989000) vcan0 00000002#009266 R
(3153244.230000) vcan0 00000001#019367 R
(3153244.466000) vcan0 00000002#029468 R
(3153244.710000) vcan0 00000001#039569 R
(3153244.946000) vcan0 00000002#04966A R
(3153245.182000) vcan0 00000001#05976B R
(3153245.423000) vcan0 00000002#06986C R
(3153245.667000) vcan0 00000001#07996D R
(3153245.902000) vcan0 00000002#089A6E R
(3153246.138000) vcan0 00000001#099B6F R
(3153246.380000) vcan0 00000002#0A9C70 R
(3153246.615000) vcan0 00000001#0B9D71 R
(3153246.859000) vcan0 00000002#0C9E72 R
(3153247.095000) vcan0 00000001#0D9F73 R
(3153247.333000) vcan0 00000002#0EA074 R
(3153247.569000) vcan0 00000001#0FA175 R
(3153247.812000) vcan0 00000002#10A276 R
(3153248.048000) vcan0 00000001#11A377 R
(3153248.290000) vcan0 00000002#12A478 R
(3153248.526000) vcan0 00000001#13A579 R
(3153248.769000) vcan0 00000002#14A67A R
(3153249.005000) vcan0 00000001#15A77B R
(3153249.247000) vcan0 00000002#16A87C R
(3153249.483000) vcan0 00000001#17A97D R
(3153249.727000) vcan0 00000002#18AA7E R
(3153249.962000) vcan0 00000001#19557F R
(3153250.199000) vcan0 00000002#1A5680 R
(3153250.439000) vcan0 00000001#1B5781 R
(3153250.683000) vcan0 00000002#1C5882 R
(3153250.919000) vcan0 00000001#1D5983 R
(3153251.155000) vcan0 00000002#1E5A84 R
(3153251.396000) vcan0 00000001#1F5B85 R
(3153251.640000) vcan0 00000002#205C86 R
(3153251.875000) vcan0 00000001#215D87 R
(3153252.111000) vcan0 00000002#225E88 R
(3153252.349000) vcan0 00000001#235F89 R
(3153252.585000) vcan0 00000002#24608A R
(3153252.829000) vcan0 00000001#25618B R
(3153253.065000) vcan0 00000002#26628C R
(3153253.307000) vcan0 00000001#27638D R
(3153253.543000) vcan0 00000002#28648E R
(3153253.786000) vcan0 00000001#29658F R
(3153254.022000) vcan0 00000002#2A6690 R
(3153254.263000) vcan0 00000001#2B6791 R
(3153254.499000) vcan0 00000002#2C6892 R
(3153254.743000) vcan0 00000001#2D6993 R
(3153254.978000) vcan0 00000002#2E6A94 R
(3153255.217000) vcan0 00000001#2F6B95 R
(3153255.453000) vcan0 00000002#306C96 R
(3153255.697000) vcan0 00000001#316D97 R
(3153255.932000) vcan0 00000002#326E98 R
(3153256.168000) vcan0 00000001#336F99 R
(3153256.410000) vcan0 00000002#34709A R
(3153256.654000) vcan0 00000001#35719B R
(3153256.890000) vcan0 00000002#36729C R
(3153257.125000) vcan0 00000001#37739D R
(3153257.363000) vcan0 00000002#38749E R
(3153257.599000) vcan0 00000001#39759F R
(3153257.843000) vcan0 00000002#3A76A0 R
(3153258.079000) vcan0 00000001#3B77A1 R
(3153258.317000) vcan0 00000002#3C78A2 R
(3153258.553000) vcan0 00000001#3D79A3 R
(3153258.796000) vcan0 00000002#3E7AA4 R
(3153259.032000) vcan0 00000001#3F7BA5 R
(3153259.273000) vcan0 00000002#407CA6 R
(3153259.509000) vcan0 00000001#417DA7 R
(3153259.753000) vcan0 00000002#427EA8 R
(3153259.989000) vcan0 00000001#437FA9 R
(3153260.230000) vcan0 00000002#4480AA R
(3153260.466000) vcan0 00000001#4581AB R
(3153260.710000) vcan0 00000002#4682AC R
(3153260.946000) vcan0 00000001#4783AD R
(3153261.182000) vcan0 00000002#4884AE R
(3153261.423000) vcan0 00000001#4985AF R
(3153261.667000) vcan0 00000002#4A86B0 R
(3153261.902000) vcan0 00000001#4B87B1 R
(3153262.138000) vcan0 00000002#4C88B2 R
(3153262.380000) vcan0 00000001#4D89B3 R
(3153262.615000) vcan0 00000002#4E8AB4 R
(3153262.859000) vcan0 00000001#4F8BB5 R
(3153263.095000) vcan0 00000002#508CB6 R
(3153263.333000) vcan0 00000001#518DB7 R
(3153263.569000) vcan0 00000002#528EB8 R
(3153263.812000) vcan0 00000001#538FB9 R
(3153264.048000) vcan0 00000002#5490BA R
(3153264.290000) vcan0 00000001#0091BB R
(3153264.526000) vcan0 00000002#0192BC R
(3153264.769000) vcan0 00000001#0293BD R
(3153265.005000) vcan0 00000002#0394BE R
(3153265.247000) vcan0 00000001#0495BF R
(3153265.483000) vcan0 00000002#0596C0 R
(3153265.727000) vcan0 00000001#0697C1 R
(3153265.962000) vcan0 00000002#0798C2 R
(3153266.199000) vcan0 00000001#0899C3 R
(3153266.439000) vcan0 00000002#099AC4 R
(3153266.683000) vcan0 00000001#0A9BC5 R
(3153266.919000) vcan0 00000002#0B9CC6 R
(3153267.154000) vcan0 00000001#0C9DC7 R
(3153267.396000) vcan0 00000002#0D9EC8 R
(3153267.640000) vcan0 00000001#0E9FC9 R
(3153267.876000) vcan0 00000002#0FA0CA R
(3153268.111000) vcan0 00000001#10A1CB R
(3153268.349000) vcan0 00000002#11A2CC R
(3153268.585000) vcan0 00000001#12A3CD R
(3153268.829000) vcan0 00000002#13A4CE R
(3153269.064000) vcan0 00000001#14A5CF R
(3153269.306000) vcan0 00000002#15A6D0 R
(3153269.542000) vcan0 00000001#16A7D1 R
(3153269.785000) vcan0 00000002#17A8D2 R
(3153270.021000) vcan0 00000001#18A9D3 R
(3153270.263000) vcan0 00000002#19AAD4 R
(3153270.499000) vcan0 00000001#1A55D5 R
(3153270.743000) vcan0 00000002#1B56D6 R
(3153270.978000) vcan0 00000001#1C57D7 R
(3153271.217000) vcan0 00000002#1D58D8 R
(3153271.453000) vcan0 00000001#1E59D9 R
(3153271.696000) vcan0 00000002#1F5ADA R
(3153271.932000) vcan0 00000001#205BDB R
(3153272.168000) vcan0 00000002#215CDC R
(3153272.410000) vcan0 00000001#225DDD R
(3153272.654000) vcan0 00000002#235EDE R
(3153272.889000) vcan0 00000001#245FDF R
(3153273.125000) vcan0 00000002#2560E0 R
(3153273.363000) vcan0 00000001#2661E1 R
(3153273.599000) vcan0 00000002#2762E2 R
(3153273.843000) vcan0 00000001#2863E3 R
(3153274.079000) vcan0 00000002#2964E4 R
(3153274.317000) vcan0 00000001#2A65E5 R
(3153274.553000) vcan0 00000002#2B66E6 R
(3153274.797000) vcan0 00000001#2C67E7 R
(3153275.032000) vcan0 00000002#2D68E8 R
(3153275.274000) vcan0 00000001#2E69E9 R
(3153275.510000) vcan0 00000002#2F6AEA R
(3153275.754000) vcan0 00000001#306BEB R
(3153275.989000) vcan0 00000002#316CEC R
(3153276.230000) vcan0 00000001#326DED R
(3153276.466000) vcan0 00000002#336EEE R
(3153276.710000) vcan0 00000001#346FEF R
(3153276.946000) vcan0 00000002#3570F0 R
(3153277.182000) vcan0 00000001#3671F1 R
(3153277.424000) vcan0 00000002#3772F2 R
(3153277.667000) vcan0 00000001#3873F3 R
(3153277.903000) vcan0 00000002#3974F4 R
(3153278.139000) vcan0 00000001#3A75F5 R
(3153278.379000) vcan0 00000002#3B76F6 R
(3153278.615000) vcan0 00000001#3C77F7 R
(3153278.859000) vcan0 00000002#3D78F8 R
(3153279.095000) vcan0 00000001#3E79F9 R
(3153279.333000) vcan0 00000002#3F7AFA R
(3153279.569000) vcan0 00000001#407BFB R
(3153279.812000) vcan0 00000002#417CFC R
(3153280.048000) vcan0 00000001#427DFD R
(3153280.290000) vcan0 00000002#437EFE R
(3153280.526000) vcan0 00000001#447FFF R
(3153280.769000) vcan0 00000002#458000 R
(3153281.005000) vcan0 00000001#468101 R
(3153281.247000) vcan0 00000002#478202 R
(3153281.483000) vcan0 00000001#488303 R
(3153281.727000) vcan0 00000002#498404 R
(3153281.962000) vcan0 00000001#4A8505 R
(3153282.199000) vcan0 00000002#4B8606 R
(3153282.439000) vcan0 00000001#4C8707 R
(3153282.683000) vcan0 00000002#4D8808 R
(3153282.919000) vcan0 00000001#4E8909 R
(3153283.155000) vcan0 00000002#4F8A0A R
(3153283.396000) vcan0 00000001#508B0B R
(3153283.640000) vcan0 00000002#518C0C R
(3153283.875000) vcan0 00000001#528D0D R
(3153284.111000) vcan0 00000002#538E0E R
(3153284.349000) vcan0 00000001#548F0F R
(3153284.585000) vcan0 00000002#009010 R
(3153284.829000) vcan0 00000001#019111 R
(3153285.065000) vcan0 00000002#029212 R
(3153285.307000) vcan0 00000001#039313 R
(3153285.543000) vcan0 00000002#049414 R
(3153285.786000) vcan0 00000001#059515 R
(3153286.022000) vcan0 00000002#069616 R
(3153286.263000) vcan0 00000001#079717 R
(3153286.499000) vcan0 00000002#089818 R
(3153286.743000) vcan0 00000001#099919 R
(3153286.978000) vcan0 00000002#0A9A1A R
(3153287.217000) vcan0 00000001#0B9B1B R
(3153287.453000) vcan0 00000002#0C9C1C R
(3153287.697000) vcan0 00000001#0D9D1D R
(3153287.932000) vcan0 00000002#0E9E1E R
(3153288.168000) vcan0 00000001#0F9F1F R
(3153288.410000) vcan0 00000002#10A020 R
(3153288.654000) vcan0 00000001#11A121 R
(3153288.890000) vcan0 00000002#12A222 R
(3153289.125000) vcan0 00000001#13A323 R
(3153289.363000) vcan0 00000002#14A424 R
(3153289.599000) vcan0 00000001#15A525 R
(3153289.843000) vcan0 00000002#16A626 R
(3153290.079000) vcan0 00000001#17A727 R
(3153290.317000) vcan0 00000002#18A828 R
(3153290.553000) vcan0 00000001#19A929 R
(3153290.796000) vcan0 00000002#1AAA2A R
(3153291.032000) vcan0 00000001#1B552B R
(3153291.273000) vcan0 00000002#1C562C R
(3153291.509000) vcan0 00000001#1D572D R
(3153291.753000) vcan0 00000002#1E582E R
(3153291.989000) vcan0 00000001#1F592F R
(3153292.230000) vcan0 00000002#205A30 R
(3153292.466000) vcan0 00000001#215B31 R
(3153292.710000) vcan0 00000002#225C32 R
(3153292.946000) vcan0 00000001#235D33 R
(3153293.182000) vcan0 00000002#245E34 R
(3153293.423000) vcan0 00000001#255F35 R
(3153293.667000) vcan0 00000002#266036 R
(3153293.902000) vcan0 00000001#276137 R
(3153294.138000) vcan0 00000002#286238 R
(3153294.380000) vcan0 00000001#296339 R
(3153294.615000) vcan0 00000002#2A643A R
(3153294.859000) vcan0 00000001#2B653B R
(3153295.095000) vcan0 00000002#2C663C R
(3153295.333000) vcan0 00000001#2D673D R
(3153295.569000) vcan0 00000002#2E683E R
(3153295.812000) vcan0 00000001#2F693F R
(3153296.048000) vcan0 00000002#306A40 R
(3153296.290000) vcan0 00000001#316B41 R
(3153296.526000) vcan0 00000002#326C42 R
(3153296.769000) vcan0 00000001#336D43 R
(3153297.005000) vcan0 00000002#346E44 R
(3153297.247000) vcan0 00000001#356F45 R
(3153297.482000) vcan0 00000002#367046 R
(3153297.726000) vcan0 00000001#377147 R
(3153297.962000) vcan0 00000002#387248 R
(3153298.198000) vcan0 00000001#397349 R
(3153298.439000) vcan0 00000002#3A744A R
(3153298.683000) vcan0 00000001#3B754B R
(3153298.919000) vcan0 00000002#3C764C R
(3153299.155000) vcan0 00000001#3D774D R
(3153299.396000) vcan0 00000002#3E784E R
(3153299.640000) vcan0 00000001#3F794F R
(3153299.876000) vcan0 00000002#407A50 R
(3153300.111000) vcan0 00000001#417B51 R
(3153300.349000) vcan0 00000002#427C52 R
(3153300.585000) vcan0 00000001#437D53 R
(3153300.829000) vcan0 00000002#447E54 R
(3153301.065000) vcan0 00000001#457F55 R
(3153301.306000) vcan0 00000002#468056 R
(3153301.542000) vcan0 00000001#478157 R
(3153301.786000) vcan0 00000002#488258 R
(3153302.022000) vcan0 00000001#498359 R
(3153302.263000) vcan0 00000002#4A845A R
(3153302.499000) vcan0 00000001#4B855B R
(3153302.743000) vcan0 00000002#4C865C R
(3153302.979000) vcan0 00000001#4D875D R
(3153303.217000) vcan0 00000002#4E885E R
(3153303.452000) vcan0 00000001#4F895F R
(3153303.696000) vcan0 00000002#508A60 R
(3153303.932000) vcan0 00000001#518B61 R
(3153304.168000) vcan0 00000002#528C62 R
(3153304.410000) vcan0 00000001#538D63 R
(3153304.654000) vcan0 00000002#548E64 R
(3153304.890000) vcan0 00000001#008F65 R
(3153305.125000) vcan0 00000002#019066 R
(3153305.363000) vcan0 00000001#029167 R
(3153305.599000) vcan0 00000002#039268 R
(3153305.843000) vcan0 00000001#049369 R
(3153306.079000) vcan0 00000002#05946A R
(3153306.317000) vcan0 00000001#06956B R
(3153306.553000) vcan0 00000002#07966C R
(3153306.796000) vcan0 00000001#08976D R
(3153307.032000) vcan0 00000002#09986E R
(3153307.273000) vcan0 00000001#0A996F R
(3153307.509000) vcan0 00000002#0B9A70 R
(3153307.753000) vcan0 00000001#0C9B71 R
(3153307.989000) vcan0 00000002#0D9C72 R
(3153308.230000) vcan0 00000001#0E9D73 R
(3153308.466000) vcan0 00000002#0F9E74 R
(3153308.710000) vcan0 00000001#109F75 R
(3153308.946000) vcan0 00000002#11A076 R
(3153309.182000) vcan0 00000001#12A177 R
(3153309.423000) vcan0 00000002#13A278 R
(3153309.667000) vcan0 00000001#14A379 R
(3153309.902000) vcan0 00000002#15A47A R
(3153310.138000) vcan0 00000001#16A57B R
(3153310.380000) vcan0 00000002#17A67C R
(3153310.615000) vcan0 00000001#18A77D R
(3153310.859000) vcan0 00000002#19A87E R
(3153311.095000) vcan0 00000001#1AA97F R
(3153311.333000) vcan0 00000002#1BAA80 R
(3153311.569000) vcan0 00000001#1C5581 R
(3153311.812000) vcan0 00000002#1D5682 R
(3153312.048000) vcan0 00000001#1E5783 R
(3153312.290000) vcan0 00000002#1F5884 R
(3153312.525000) vcan0 00000001#205985 R
(3153312.769000) vcan0 00000002#215A86 R
(3153313.005000) vcan0 00000001#225B87 R
(3153313.247000) vcan0 00000002#235C88 R
(3153313.482000) vcan0 00000001#245D89 R
(3153313.726000) vcan0 00000002#255E8A R
(3153313.962000) vcan0 00000001#265F8B R
(3153314.198000) vcan0 00000002#27608C R
(3153314.439000) vcan0 00000001#28618D R
(3153314.683000) vcan0 00000002#29628E R
(3153314.919000) vcan0 00000001#2A638F R
(3153315.155000) vcan0 00000002#2B6490 R
(3153315.396000) vcan0 00000001#2C6591 R
(3153315.640000) vcan0 00000002#2D6692 R
(3153315.875000) vcan0 00000001#2E6793 R
(3153316.111000) vcan0 00000002#2F6894 R
(3153316.349000) vcan0 00000001#306995 R
(3153316.585000) vcan0 00000002#316A96 R
(3153316.829000) vcan0 00000001#326B97 R
(3153317.065000) vcan0 00000002#336C98 R
(3153317.307000) vcan0 00000001#346D99 R
(3153317.543000) vcan0 00000002#356E9A R
(3153317.786000) vcan0 00000001#366F9B R
(3153318.022000) vcan0 00000002#37709C R
(3153318.263000) vcan0 00000001#38719D R
(3153318.499000) vcan0 00000002#39729E R
(3153318.743000) vcan0 00000001#3A739F R
(3153318.978000) vcan0 00000002#3B74A0 R
(3153319.217000) vcan0 00000001#3C75A1 R
(3153319.453000) vcan0 00000002#3D76A2 R
(3153319.697000) vcan0 00000001#3E77A3 R
(3153319.932000) vcan0 00000002#3F78A4 R
(3153320.168000) vcan0 00000001#4079A5 R
(3153320.410000) vcan0 00000002#417AA6 R
(3153320.654000) vcan0 00000001#427BA7 R
(3153320.890000) vcan0 00000002#437CA8 R
(3153321.125000) vcan0 00000001#447DA9 R
(3153321.363000) vcan0 00000002#457EAA R
(3153321.599000) vcan0 00000001#467FAB R
(3153321.843000) vcan0 00000002#4780AC R
(3153322.079000) vcan0 00000001#4881AD R
(3153322.317000) vcan0 00000002#4982AE R
(3153322.553000) vcan0 00000001#4A83AF R
(3153322.796000) vcan0 00000002#4B84B0 R
(3153323.032000) vcan0 00000001#4C85B1 R
(3153323.273000) vcan0 00000002#4D86B2 R
(3153323.509000) vcan0 00000001#4E87B3 R
(3153323.753000) vcan0 00000002#4F88B4 R
(3153323.989000) vcan0 00000001#5089B5 R
(3153324.230000) vcan0 00000002#518AB6 R
(3153324.466000) vcan0 00000001#528BB7 R
(3153324.710000) vcan0 00000002#538CB8 R
(3153324.946000) vcan0 00000001#548DB9 R
(3153325.182000) vcan0 00000002#008EBA R
(3153325.423000) vcan0 00000001#018FBB R
(3153325.667000) vcan0 00000002#0290BC R
(3153325.902000) vcan0 00000001#0391BD R
(3153326.138000) vcan0 00000002#0492BE R
(3153326.380000) vcan0 00000001#0593BF R
(3153326.615000) vcan0 00000002#0694C0 R
(3153326.859000) vcan0 00000001#0795C1 R
(3153327.095000) vcan0 00000002#0896C2 R
(3153327.333000) vcan0 00000001#0997C3 R
(3153327.569000) vcan0 00000002#0A98C4 R
(3153327.812000) vcan0 00000001#0B99C5 R
(3153328.048000) vcan0 00000002#0C9AC6 R
(3153328.290000) vcan0 00000001#0D9BC7 R
(3153328.526000) vcan0 00000002#0E9CC8 R
(3153328.769000) vcan0 00000001#0F9DC9 R
(3153329.005000) vcan0 00000002#109ECA R
(3153329.247000) vcan0 00000001#119FCB R
(3153329.482000) vcan0 00000002#12A0CC R
(3153329.726000) vcan0 00000001#13A1CD R
(3153329.962000) vcan0 00000002#14A2CE R
(3153330.198000) vcan0 00000001#15A3CF R
(3153330.439000) vcan0 00000002#16A4D0 R
(3153330.683000) vcan0 00000001#17A5D1 R
(3153330.919000) vcan0 00000002#18A6D2 R
(3153331.155000) vcan0 00000001#19A7D3 R
(3153331.396000) vcan0 00000002#1AA8D4 R
(3153331.640000) vcan0 00000001#1BA9D5 R
(3153331.876000) vcan0 00000002#1CAAD6 R
(3153332.111000) vcan0 00000001#1D55D7 R
(3153332.349000) vcan0 00000002#1E56D8 R
(3153332.585000) vcan0 00000001#1F57D9 R
(3153332.829000) vcan0 00000002#2058DA R
(3153333.064000) vcan0 00000001#2159DB R
(3153333.306000) vcan0 00000002#225ADC R
(3153333.542000) vcan0 00000001#235BDD R
(3153333.785000) vcan0 00000002#245CDE R
(3153334.021000) vcan0 00000001#255DDF R
(3153334.263000) vcan0 00000002#265EE0 R
(3153334.499000) vcan0 00000001#275FE1 R
(3153334.743000) vcan0 00000002#2860E2 R
(3153334.978000) vcan0 00000001#2961E3 R
(3153335.217000) vcan0 00000002#2A62E4 R
(3153335.453000) vcan0 00000001#2B63E5 R
(3153335.697000) vcan0 00000002#2C64E6 R
(3153335.932000) vcan0 00000001#2D65E7 R
(3153336.168000) vcan0 00000002#2E66E8 R
(3153336.410000) vcan0 00000001#2F67E9 R
(3153336.654000) vcan0 00000002#3068EA R
(3153336.890000) vcan0 00000001#3169EB R
(3153337.125000) vcan0 00000002#326AEC R
(3153337.363000) vcan0 00000001#336BED R
(3153337.599000) vcan0 00000002#346CEE R
(3153337.843000) vcan0 00000001#356DEF R
(3153338.079000) vcan0 00000002#366EF0 R
(3153338.317000) vcan0 00000001#376FF1 R
(3153338.553000) vcan0 00000002#3870F2 R
(3153338.796000) vcan0 00000001#3971F3 R
(3153339.032000) vcan0 00000002#3A72F4 R
(3153339.273000) vcan0 00000001#3B73F5 R
(3153339.509000) vcan0 00000002#3C74F6 R
(3153339.753000) vcan0 00000001#3D75F7 R
(3153339.989000) vcan0 00000002#3E76F8 R
(3153340.230000) vcan0 00000001#3F77F9 R
(3153340.466000) vcan0 00000002#4078FA R
(3153340.710000) vcan0 00000001#4179FB R
(3153340.946000) vcan0 00000002#427AFC R
(3153341.182000) vcan0 00000001#437BFD R
(3153341.423000) vcan0 00000002#447CFE R
(3153341.667000) vcan0 00000001#457DFF R
(3153341.902000) vcan0 00000002#467E00 R
(3153342.138000) vcan0 00000001#477F01 R
(3153342.380000) vcan0 00000002#488002 R
(3153342.615000) vcan0 00000001#498103 R
(3153342.859000) vcan0 00000002#4A8204 R
(3153343.095000) vcan0 00000001#4B8305 R
(3153343.333000) vcan0 00000002#4C8406 R
(3153343.569000) vcan0 00000001#4D8507 R
(3153343.812000) vcan0 00000002#4E8608 R
(3153344.048000) vcan0 00000001#4F8709 R
(3153344.290000) vcan0 00000002#50880A R
(3153344.526000) vcan0 00000001#51890B R
(3153344.769000) vcan0 00000002#528A0C R
(3153345.005000) vcan0 00000001#538B0D R
(3153345.247000) vcan0 00000002#548C0E R
(3153345.483000) vcan0 00000001#008D0F R
(3153345.727000) vcan0 00000002#018E10 R
(3153345.962000) vcan0 00000001#028F11 R
(3153346.199000) vcan0 00000002#039012 R
(3153346.439000) vcan0 00000001#049113 R
(3153346.683000) vcan0 00000002#059214 R
(3153346.919000) vcan0 00000001#069315 R
(3153347.155000) vcan0 00000002#079416 R
(3153347.396000) vcan0 00000001#089517 R
(3153347.640000) vcan0 00000002#099618 R
(3153347.875000) vcan0 00000001#0A9719 R
(3153348.111000) vcan0 00000002#0B981A R
(3153348.349000) vcan0 00000001#0C991B R
(3153348.585000) vcan0 00000002#0D9A1C R
(3153348.829000) vcan0 00000001#0E9B1D R
(3153349.065000) vcan0 00000002#0F9C1E R
(3153349.307000) vcan0 00000001#109D1F R
(3153349.543000) vcan0 00000002#119E20 R
(3153349.786000) vcan0 00000001#129F21 R
(3153350.022000) vcan0 00000002#13A022 R
(3153350.263000) vcan0 00000001#14A123 R
(3153350.499000) vcan0 00000002#15A224 R
(3153350.743000) vcan0 00000001#16A325 R
(3153350.978000) vcan0 00000002#17A426 R
(3153351.217000) vcan0 00000001#18A527 R
(3153351.453000) vcan0 00000002#19A628 R
(3153351.697000) vcan0 00000001#1AA729 R
(3153351.932000) vcan0 00000002#1BA82A R
(3153352.168000) vcan0 00000001#1CA92B R
(3153352.410000) vcan0 00000002#1DAA2C R
(3153352.654000) vcan0 00000001#1E552D R
(3153352.890000) vcan0 00000002#1F562E R
(3153353.125000) vcan0 00000001#20572F R
(3153353.363000) vcan0 00000002#215830 R
(3153353.599000) vcan0 00000001#225931 R
(3153353.843000) vcan0 00000002#235A32 R
(3153354.079000) vcan0 00000001#245B33 R
(3153354.317000) vcan0 00000002#255C34 R
(3153354.553000) vcan0 00000001#265D35 R
(3153354.796000) vcan0 00000002#275E36 R
(3153355.032000) vcan0 00000001#285F37 R
(3153355.273000) vcan0 00000002#296038 R
(3153355.509000) vcan0 00000001#2A6139 R
(3153355.753000) vcan0 00000002#2B623A R
(3153355.989000) vcan0 00000001#2C633B R
(3153356.230000) vcan0 00000002#2D643C R
(3153356.466000) vcan0 00000001#2E653D R
(3153356.710000) vcan0 00000002#2F663E R
(3153356.946000) vcan0 00000001#30673F R
(3153357.182000) vcan0 00000002#316840 R
(3153357.423000) vcan0 00000001#326941 R
(3153357.667000) vcan0 00000002#336A42 R
(3153357.902000) vcan0 00000001#346B43 R
(3153358.138000) vcan0 00000002#356C44 R
(3153358.380000) vcan0 00000001#366D45 R
(3153358.615000) vcan0 00000002#376E46 R
(3153358.859000) vcan0 00000001#386F47 R
(3153359.095000) vcan0 00000002#397048 R
(3153359.333000) vcan0 00000001#3A7149 R
(3153359.569000) vcan0 00000002#3B724A R
(3153359.812000) vcan0 00000001#3C734B R
(3153360.048000) vcan0 00000002#3D744C R
(3153360.290000) vcan0 00000001#3E754D R
(3153360.526000) vcan0 00000002#3F764E R
(3153360.769000) vcan0 00000001#40774F R
(3153361.005000) vcan0 00000002#417850 R
(3153361.247000) vcan0 00000001#427951 R
(3153361.482000) vcan0 00000002#437A52 R
(3153361.726000) vcan0 00000001#447B53 R
(3153361.962000) vcan0 00000002#457C54 R
(3153362.198000) vcan0 00000001#467D55 R
(3153362.439000) vcan0 00000002#477E56 R
(3153362.683000) vcan0 00000001#487F57 R
(3153362.919000) vcan0 00000002#498058 R
(3153363.155000) vcan0 00000001#4A8159 R
(3153363.396000) vcan0 00000002#4B825A R
(3153363.640000) vcan0 00000001#4C835B R
(3153363.876000) vcan0 00000002#4D845C R
(3153364.111000) vcan0 00000001#4E855D R
(3153364.349000) vcan0 00000002#4F865E R
(3153364.585000) vcan0 00000001#50875F R
(3153364.829000) vcan0 00000002#518860 R
(3153365.065000) vcan0 00000001#528961 R
(3153365.306000) vcan0 00000002#538A62 R
(3153365.542000) vcan0 00000001#548B63 R
(3153365.786000) vcan0 00000002#008C64 R
(3153366.022000) vcan0 00000001#018D65 R
(3153366.263000) vcan0 00000002#028E66 R
(3153366.499000) vcan0 00000001#038F67 R
(3153366.743000) vcan0 00000002#049068 R
(3153366.979000) vcan0 00000001#059169 R
(3153367.217000) vcan0 00000002#06926A R
(3153367.452000) vcan0 00000001#07936B R
(3153367.696000) vcan0 00000002#08946C R
(3153367.932000) vcan0 00000001#09956D R
(3153368.168000) vcan0 00000002#0A966E R
(3153368.410000) vcan0 00000001#0B976F R
(3153368.654000) vcan0 00000002#0C9870 R
(3153368.890000) vcan0 00000001#0D9971 R
(3153369.125000) vcan0 00000002#0E9A72 R
(3153369.363000) vcan0 00000001#0F9B73 R
(3153369.599000) vcan0 00000002#109C74 R
(3153369.843000) vcan0 00000001#119D75 R
(3153370.079000) vcan0 00000002#129E76 R
(3153370.317000) vcan0 00000001#139F77 R
(3153370.553000) vcan0 00000002#14A078 R
(3153370.796000) vcan0 00000001#15A179 R
(3153371.032000) vcan0 00000002#16A27A R
(3153371.273000) vcan0 00000001#17A37B R
(3153371.509000) vcan0 00000002#18A47C R
(3153371.753000) vcan0 00000001#19A57D R
(3153371.989000) vcan0 00000002#1AA67E R
(3153372.230000) vcan0 00000001#1BA77F R
(3153372.466000) vcan0 00000002#1CA880 R
(3153372.710000) vcan0 00000001#1DA981 R
(3153372.946000) vcan0 00000002#1EAA82 R
(3153373.182000) vcan0 00000001#1F5583 R
(3153373.423000) vcan0 00000002#205684 R
(3153373.667000) vcan0 00000001#215785 R
(3153373.902000) vcan0 00000002#225886 R
(3153374.138000) vcan0 00000001#235987 R
(3153374.380000) vcan0 00000002#245A88 R
(3153374.615000) vcan0 00000001#255B89 R
(3153374.859000) vcan0 00000002#265C8A R
(3153375.095000) vcan0 00000001#275D8B R
(3153375.333000) vcan0 00000002#285E8C R
(3153375.569000) vcan0 00000001#295F8D R
(3153375.812000) vcan0 00000002#2A608E R
(3153376.048000) vcan0 00000001#2B618F R
(3153376.290000) vcan0 00000002#2C6290 R
(3153376.526000) vcan0 00000001#2D6391 R
(3153376.769000) vcan0 00000002#2E6492 R
(3153377.005000) vcan0 00000001#2F6593 R
(3153377.247000) vcan0 00000002#306694 R
(3153377.483000) vcan0 00000001#316795 R
(3153377.727000) vcan0 00000002#326896 R
(3153377.962000) vcan0 00000001#336997 R
(3153378.199000) vcan0 00000002#346A98 R
(3153378.439000) vcan0 00000001#356B99 R
(3153378.683000) vcan0 00000002#366C9A R
(3153378.919000) vcan0 00000001#376D9B R
(3153379.155000) vcan0 00000002#386E9C R
(3153379.396000) vcan0 00000001#396F9D R
(3153379.640000) vcan0 00000002#3A709E R
(3153379.875000) vcan0 00000001#3B719F R
(3153380.111000) vcan0 00000002#3C72A0 R
(3153380.349000) vcan0 00000001#3D73A1 R
(3153380.585000) vcan0 00000002#3E74A2 R
(3153380.829000) vcan0 00000001#3F75A3 R
(3153381.065000) vcan0 00000002#4076A4 R
(3153381.307000) vcan0 00000001#4177A5 R
(3153381.543000) vcan0 00000002#4278A6 R
(3153381.786000) vcan0 00000001#4379A7 R
(3153382.022000) vcan0 00000002#447AA8 R
(3153382.263000) vcan0 00000001#457BA9 R
(3153382.499000) vcan0 00000002#467CAA R
(3153382.743000) vcan0 00000001#477DAB R
(3153382.978000) vcan0 00000002#487EAC R
(3153383.217000) vcan0 00000001#497FAD R
(3153383.453000) vcan0 00000002#4A80AE R
(3153383.697000) vcan0 00000001#4B81AF R
(3153383.932000) vcan0 00000002#4C82B0 R
(3153384.168000) vcan0 00000001#4D83B1 R
(3153384.410000) vcan0 00000002#4E84B2 R
(3153384.654000) vcan0 00000001#4F85B3 R
(3153384.890000) vcan0 00000002#5086B4 R
(3153385.125000) vcan0 00000001#5187B5 R
(3153385.363000) vcan0 00000002#5288B6 R
(3153385.599000) vcan0 00000001#5389B7 R
(3153385.843000) vcan0 00000002#548AB8 R
(3153386.079000) vcan0 00000001#008BB9 R
(3153386.317000) vcan0 00000002#018CBA R
(3153386.553000) vcan0 00000001#028DBB R
(3153386.796000) vcan0 00000002#038EBC R
(3153387.032000) vcan0 00000001#048FBD R
(3153387.273000) vcan0 00000002#0590BE R
(3153387.509000) vcan0 00000001#0691BF R
(3153387.753000) vcan0 00000002#0792C0 R
(3153387.989000) vcan0 00000001#0893C1 R
(3153388.230000) vcan0 00000002#0994C2 R
(3153388.466000) vcan0 00000001#0A95C3 R
(3153388.710000) vcan0 00000002#0B96C4 R
(3153388.946000) vcan0 00000001#0C97C5 R
(3153389.182000) vcan0 00000002#0D98C6 R
(3153389.423000) vcan0 00000001#0E99C7 R
(3153389.667000) vcan0 00000002#0F9AC8 R
(3153389.902000) vcan0 00000001#109BC9 R
(3153390.138000) vcan0 00000002#119CCA R
(3153390.380000) vcan0 00000001#129DCB R
(3153390.615000) vcan0 00000002#139ECC R
(3153390.859000) vcan0 00000001#149FCD R
(3153391.095000) vcan0 00000002#15A0CE R
(3153391.333000) vcan0 00000001#16A1CF R
(3153391.569000) vcan0 00000002#17A2D0 R
(3153391.812000) vcan0 00000001#18A3D1 R
(3153392.048000) vcan0 00000002#19A4D2 R
(3153392.290000) vcan0 00000001#1AA5D3 R
(3153392.526000) vcan0 00000002#1BA6D4 R
(3153392.769000) vcan0 00000001#1CA7D5 R
(3153393.005000) vcan0 00000002#1DA8D6 R
(3153393.247000) vcan0 00000001#1EA9D7 R
(3153393.482000) vcan0 00000002#1FAAD8 R
(3153393.726000) vcan0 00000001#2055D9 R
(3153393.962000) vcan0 00000002#2156DA R
(3153394.198000) vcan0 00000001#2257DB R
(3153394.439000) vcan0 00000002#2358DC R
(3153394.683000) vcan0 00000001#2459DD R
(3153394.919000) vcan0 00000002#255ADE R
(3153395.155000) vcan0 00000001#265BDF R
(3153395.396000) vcan0 00000002#275CE0 R
(3153395.640000) vcan0 00000001#285DE1 R
(3153395.875000) vcan0 00000002#295EE2 R
(3153396.111000) vcan0 00000001#2A5FE3 R
(3153396.349000) vcan0 00000002#2B60E4 R
(3153396.585000) vcan0 00000001#2C61E5 R
(3153396.829000) vcan0 00000002#2D62E6 R
(3153397.064000) vcan0 00000001#2E63E7 R
(3153397.306000) vcan0 00000002#2F64E8 R
(3153397.542000) vcan0 00000001#3065E9 R
(3153397.786000) vcan0 00000002#3166EA R
(3153398.021000) vcan0 00000001#3267EB R
(3153398.263000) vcan0 00000002#3368EC R
(3153398.499000) vcan0 00000001#3469ED R
(3153398.743000) vcan0 00000002#356AEE R
(3153398.979000) vcan0 00000001#366BEF R
(3153399.217000) vcan0 00000002#376CF0 R
(3153399.452000) vcan0 00000001#386DF1 R
(3153399.696000) vcan0 00000002#396EF2 R
(3153399.932000) vcan0 00000001#3A6FF3 R
(3153400.168000) vcan0 00000002#3B70F4 R
(3153400.410000) vcan0 00000001#3C71F5 R
(3153400.654000) vcan0 00000002#3D72F6 R
(3153400.890000) vcan0 00000001#3E73F7 R
(3153401.125000) vcan0 00000002#3F74F8 R
(3153401.363000) vcan0 00000001#4075F9 R
(3153401.599000) vcan0 00000002#4176FA R
(3153401.843000) vcan0 00000001#4277FB R
(3153402.079000) vcan0 00000002#4378FC R
(3153402.317000) vcan0 00000001#4479FD R
(3153402.553000) vcan0 00000002#457AFE R
(3153402.796000) vcan0 00000001#467BFF R
(3153403.032000) vcan0 00000002#477C00 R
(3153403.273000) vcan0 00000001#487D01 R
(3153403.509000) vcan0 00000002#497E02 R
(3153403.753000) vcan0 00000001#4A7F03 R
(3153403.989000) vcan0 00000002#4B8004 R
(3153404.230000) vcan0 00000001#4C8105 R
(3153404.466000) vcan0 00000002#4D8206 R
(3153404.710000) vcan0 00000001#4E8307 R
(3153404.946000) vcan0 00000002#4F8408 R
(3153405.182000) vcan0 00000001#508509 R
(3153405.423000) vcan0 00000002#51860A R
(3153405.667000) vcan0 00000001#52870B R
(3153405.902000) vcan0 00000002#53880C R
(3153406.138000) vcan0 00000001#54890D R
(3153406.380000) vcan0 00000002#008A0E R
(3153406.615000) vcan0 00000001#018B0F R
(3153406.859000) vcan0 00000002#028C10 R
(3153407.095000) vcan0 00000001#038D11 R
(3153407.333000) vcan0 00000002#048E12 R
(3153407.568000) vcan0 00000001#058F13 R
(3153407.812000) vcan0 00000002#069014 R
(3153408.048000) vcan0 00000001#079115 R
(3153408.290000) vcan0 00000002#089216 R
(3153408.526000) vcan0 00000001#099317 R
(3153408.769000) vcan0 00000002#0A9418 R
(3153409.005000) vcan0 00000001#0B9519 R
(3153409.247000) vcan0 00000002#0C961A R
(3153409.483000) vcan0 00000001#0D971B R
(3153409.727000) vcan0 00000002#0E981C R
(3153409.962000) vcan0 00000001#0F991D R
(3153410.199000) vcan0 00000002#109A1E R
(3153410.439000) vcan0 00000001#119B1F R
(3153410.683000) vcan0 00000002#129C20 R
(3153410.919000) vcan0 00000001#139D21 R
(3153411.155000) vcan0 00000002#149E22 R
(3153411.396000) vcan0 00000001#159F23 R
(3153411.640000) vcan0 00000002#16A024 R
(3153411.875000) vcan0 00000001#17A125 R
(3153412.111000) vcan0 00000002#18A226 R
(3153412.349000) vcan0 00000001#19A327 R
(3153412.585000) vcan0 00000002#1AA428 R
(3153412.829000) vcan0 00000001#1BA529 R
(3153413.065000) vcan0 00000002#1CA62A R
(3153413.307000) vcan0 00000001#1DA72B R
(3153413.543000) vcan0 00000002#1EA82C R
(3153413.786000) vcan0 00000001#1FA92D R
(3153414.022000) vcan0 00000002#20AA2E R
(3153414.263000) vcan0 00000001#21552F R
(3153414.499000) vcan0 00000002#225630 R
(3153414.743000) vcan0 00000001#235731 R
(3153414.978000) vcan0 00000002#245832 R
(3153415.217000) vcan0 00000001#255933 R
(3153415.453000) vcan0 00000002#265A34 R
(3153415.697000) vcan0 00000001#275B35 R
(3153415.932000) vcan0 00000002#285C36 R
(3153416.168000) vcan0 00000001#295D37 R
(3153416.410000) vcan0 00000002#2A5E38 R
(3153416.654000) vcan0 00000001#2B5F39 R
(3153416.890000) vcan0 00000002#2C603A R
(3153417.125000) vcan0 00000001#2D613B R
(3153417.363000) vcan0 00000002#2E623C R
(3153417.599000) vcan0 00000001#2F633D R
(3153417.843000) vcan0 00000002#30643E R
(3153418.079000) vcan0 00000001#31653F R
(3153418.317000) vcan0 00000002#326640 R
(3153418.553000) vcan0 00000001#336741 R
(3153418.796000) vcan0 00000002#346842 R
(3153419.032000) vcan0 00000001#356943 R
(3153419.273000) vcan0 00000002#366A44 R
(3153419.509000) vcan0 00000001#376B45 R
(3153419.753000) vcan0 00000002#386C46 R
(3153419.989000) vcan0 00000001#396D47 R
(3153420.230000) vcan0 00000002#3A6E48 R
(3153420.466000) vcan0 00000001#3B6F49 R
(3153420.710000) vcan0 00000002#3C704A R
(3153420.946000) vcan0 00000001#3D714B R
(3153421.182000) vcan0 00000002#3E724C R
(3153421.423000) vcan0 00000001#3F734D R
(3153421.667000) vcan0 00000002#40744E R
(3153421.902000) vcan0 00000001#41754F R
(3153422.138000) vcan0 00000002#427650 R
(3153422.380000) vcan0 00000001#437751 R
(3153422.615000) vcan0 00000002#447852 R
(3153422.859000) vcan0 00000001#457953 R
(3153423.095000) vcan0 00000002#467A54 R
(3153423.333000) vcan0 00000001#477B55 R
(3153423.569000) vcan0 00000002#487C56 R
(3153423.812000) vcan0 00000001#497D57 R
(3153424.048000) vcan0 00000002#4A7E58 R
(3153424.290000) vcan0 00000001#4B7F59 R
(3153424.526000) vcan0 00000002#4C805A R
(3153424.769000) vcan0 00000001#4D815B R
(3153425.005000) vcan0 00000002#4E825C R
(3153425.247000) vcan0 00000001#4F835D R
(3153425.482000) vcan0 00000002#50845E R
(3153425.726000) vcan0 00000001#51855F R
(3153425.962000) vcan0 00000002#528660 R
(3153426.198000) vcan0 00000001#538761 R
(3153426.439000) vcan0 00000002#548862 R
(3153426.683000) vcan0 00000001#008963 R
(3153426.919000) vcan0 00000002#018A64 R
(3153427.155000) vcan0 00000001#028B65 R
(3153427.396000) vcan0 00000002#038C66 R
(3153427.640000) vcan0 00000001#048D67 R
(3153427.875000) vcan0 00000002#058E68 R
(3153428.111000) vcan0 00000001#068F69 R
(3153428.349000) vcan0 00000002#07906A R
(3153428.585000) vcan0 00000001#08916B R
(3153428.829000) vcan0 00000002#09926C R
(3153429.064000) vcan0 00000001#0A936D R
(3153429.306000) vcan0 00000002#0B946E R
(3153429.542000) vcan0 00000001#0C956F R
(3153429.786000) vcan0 00000002#0D9670 R
(3153430.021000) vcan0 00000001#0E9771 R
(3153430.263000) vcan0 00000002#0F9872 R
(3153430.499000) vcan0 00000001#109973 R
(3153430.743000) vcan0 00000002#119A74 R
(3153430.979000) vcan0 00000001#129B75 R
(3153431.217000) vcan0 00000002#139C76 R
(3153431.452000) vcan0 00000001#149D77 R
(3153431.696000) vcan0 00000002#159E78 R
(3153431.932000) vcan0 00000001#169F79 R
(3153432.168000) vcan0 00000002#17A07A R
(3153432.410000) vcan0 00000001#18A17B R
(3153432.654000) vcan0 00000002#19A27C R
(3153432.890000) vcan0 00000001#1AA37D R
(3153433.125000) vcan0 00000002#1BA47E R
(3153433.363000) vcan0 00000001#1CA57F R
(3153433.599000) vcan0 00000002#1DA680 R
(3153433.843000) vcan0 00000001#1EA781 R
(3153434.079000) vcan0 00000002#1FA882 R
(3153434.317000) vcan0 00000001#20A983 R
(3153434.553000) vcan0 00000002#21AA84 R
(3153434.796000) vcan0 00000001#225585 R
(3153435.032000) vcan0 00000002#235686 R
(3153435.273000) vcan0 00000001#245787 R
(3153435.509000) vcan0 00000002#255888 R
(3153435.753000) vcan0 00000001#265989 R
(3153435.989000) vcan0 00000002#275A8A R
(3153436.230000) vcan0 00000001#285B8B R
(3153436.466000) vcan0 00000002#295C8C R
(3153436.710000) vcan0 00000001#2A5D8D R
(3153436.946000) vcan0 00000002#2B5E8E R
(3153437.182000) vcan0 00000001#2C5F8F R
(3153437.423000) vcan0 00000002#2D6090 R
(3153437.667000) vcan0 00000001#2E6191 R
(3153437.902000) vcan0 00000002#2F6292 R
(3153438.138000) vcan0 00000001#306393 R
(3153438.380000) vcan0 00000002#316494 R
(3153438.615000) vcan0 00000001#326595 R
(3153438.859000) vcan0 00000002#336696 R
(3153439.095000) vcan0 00000001#346797 R
(3153439.333000) vcan0 00000002#356898 R
(3153439.569000) vcan0 00000001#366999 R
(3153439.812000) vcan0 00000002#376A9A R
(3153440.048000) vcan0 00000001#386B9B R
(3153440.290000) vcan0 00000002#396C9C R
(3153440.526000) vcan0 00000001#3A6D9D R
(3153440.769000) vcan0 00000002#3B6E9E R
(3153441.005000) vcan0 00000001#3C6F9F R
(3153441.247000) vcan0 00000002#3D70A0 R
(3153441.483000) vcan0 00000001#3E71A1 R
(3153441.727000) vcan0 00000002#3F72A2 R
(3153441.962000) vcan0 00000001#4073A3 R
(3153442.199000) vcan0 00000002#4174A4 R
(3153442.439000) vcan0 00000001#4275A5 R
(3153442.683000) vcan0 00000002#4376A6 R
(3153442.919000) vcan0 00000001#4477A7 R
(3153443.155000) vcan0 00000002#4578A8 R
(3153443.396000) vcan0 00000001#4679A9 R
(3153443.640000) vcan0 00000002#477AAA R
(3153443.875000) vcan0 00000001#487BAB R
(3153444.111000) vcan0 00000002#497CAC R
(3153444.349000) vcan0 00000001#4A7DAD R
(3153444.585000) vcan0 00000002#4B7EAE R
(3153444.829000) vcan0 00000001#4C7FAF R
(3153445.065000) vcan0 00000002#4D80B0 R
(3153445.307000) vcan0 00000001#4E81B1 R
(3153445.543000) vcan0 00000002#4F82B2 R
(3153445.786000) vcan0 00000001#5083B3 R
(3153446.022000) vcan0 00000002#5184B4 R
(3153446.263000) vcan0 00000001#5285B5 R
(3153446.499000) vcan0 00000002#5386B6 R
(3153446.743000) vcan0 00000001#5487B7 R
(3153446.978000) vcan0 00000002#0088B8 R
(3153447.217000) vcan0 00000001#0189B9 R
(3153447.453000) vcan0 00000002#028ABA R
(3153447.697000) vcan0 00000001#038BBB R
(3153447.932000) vcan0 00000002#048CBC R
(3153448.168000) vcan0 00000001#058DBD R
(3153448.410000) vcan0 00000002#068EBE R
(3153448.654000) vcan0 00000001#078FBF R
(3153448.890000) vcan0 00000002#0890C0 R
(3153449.125000) vcan0 00000001#0991C1 R
(3153449.363000) vcan0 00000002#0A92C2 R
(3153449.599000) vcan0 00000001#0B93C3 R
(3153449.843000) vcan0 00000002#0C94C4 R
(3153450.079000) vcan0 00000001#0D95C5 R
(3153450.317000) vcan0 00000002#0E96C6 R
(3153450.553000) vcan0 00000001#0F97C7 R
(3153450.796000) vcan0 00000002#1098C8 R
(3153451.032000) vcan0 00000001#1199C9 R
(3153451.273000) vcan0 00000002#129ACA R
(3153451.509000) vcan0 00000001#139BCB R
(3153451.753000) vcan0 00000002#149CCC R
(3153451.989000) vcan0 00000001#159DCD R
(3153452.230000) vcan0 00000002#169ECE R
(3153452.466000) vcan0 00000001#179FCF R
(3153452.710000) vcan0 00000002#18A0D0 R
(3153452.946000) vcan0 00000001#19A1D1 R
(3153453.182000) vcan0 00000002#1AA2D2 R
(3153453.423000) vcan0 00000001#1BA3D3 R
(3153453.667000) vcan0 00000002#1CA4D4 R
(3153453.902000) vcan0 00000001#1DA5D5 R
(3153454.138000) vcan0 00000002#1EA6D6 R
(3153454.380000) vcan0 00000001#1FA7D7 R
(3153454.615000) vcan0 00000002#20A8D8 R
(3153454.859000) vcan0 00000001#21A9D9 R
