(278616.233000) vcan0 00000001#1B95E7 R
(278616.468000) vcan0 00000002#1C96E8 R
(278616.712000) vcan0 00000001#1D97E9 R
(278616.948000) vcan0 00000002#1E98EA R
(278624.351000) vcan0 00000001#3D6109 R
(278624.587000) vcan0 00000002#3E620A R
(278624.831000) vcan0 00000001#3F630B R
(278625.067000) vcan0 00000002#40640C R
(278625.308000) vcan0 00000001#41650D R
(278625.544000) vcan0 00000002#42660E R
(278625.788000) vcan0 00000001#43670F R
(278626.024000) vcan0 00000002#446810 R
(278626.265000) vcan0 00000001#456911 R
(278626.501000) vcan0 00000002#466A12 R
(278626.745000) vcan0 00000001#476B13 R
(278626.981000) vcan0 00000002#486C14 R
(278627.219000) vcan0 00000001#496D15 R
(278627.455000) vcan0 00000002#4A6E16 R
(278627.698000) vcan0 00000001#4B6F17 R
(278627.934000) vcan0 00000002#4C7018 R
(278628.170000) vcan0 00000001#4D7119 R
(278628.412000) vcan0 00000002#4E721A R
(278628.656000) vcan0 00000001#4F731B R
(278628.891000) vcan0 00000002#50741C R
(278629.127000) vcan0 00000001#51751D R
(278629.366000) vcan0 00000002#52761E R
(278629.601000) vcan0 00000001#53771F R
(278629.845000) vcan0 00000002#547820 R
(278630.081000) vcan0 00000001#007921 R
(278630.318000) vcan0 00000002#017A22 R
(278630.554000) vcan0 00000001#027B23 R
(278630.798000) vcan0 00000002#037C24 R
(278631.034000) vcan0 00000001#047D25 R
(278631.276000) vcan0 00000002#057E26 R
(278631.511000) vcan0 00000001#067F27 R
(278631.755000) vcan0 00000002#078028 R
(278631.991000) vcan0 00000001#088129 R
(278632.233000) vcan0 00000002#09822A R
(278632.468000) vcan0 00000001#0A832B R
(278632.712000) vcan0 00000002#0B842C R
(278632.948000) vcan0 00000001#0C852D R
(278633.184000) vcan0 00000002#0D862E R
(278633.425000) vcan0 00000001#0E872F R
(278633.669000) vcan0 00000002#0F8830 R
(278633.905000) vcan0 00000001#108931 R
(278634.140000) vcan0 00000002#118A32 R
(278634.382000) vcan0 00000001#128B33 R
(278634.618000) vcan0 00000002#138C34 R
(278634.861000) vcan0 00000001#148D35 R
(278635.097000) vcan0 00000002#158E36 R
(278635.335000) vcan0 00000001#168F37 R
(278635.571000) vcan0 00000002#179038 R
(278635.815000) vcan0 00000001#189139 R
(278636.050000) vcan0 00000002#19923A R
(278636.292000) vcan0 00000001#1A933B R
(278636.528000) vcan0 00000002#1B943C R
(278636.771000) vcan0 00000001#1C953D R
(278637.007000) vcan0 00000002#1D963E R
(278637.249000) vcan0 00000001#1E973F R
(278637.485000) vcan0 00000002#1F9840 R
(278637.729000) vcan0 00000001#209941 R
(278637.964000) vcan0 00000002#219A42 R
(278638.201000) vcan0 00000001#229B43 R
(278638.441000) vcan0 00000002#239C44 R
(278638.685000) vcan0 00000001#249D45 R
(278638.921000) vcan0 00000002#259E46 R
(278639.157000) vcan0 00000001#269F47 R
(278639.398000) vcan0 00000002#27A048 R
(278639.642000) vcan0 00000001#28A149 R
(278639.878000) vcan0 00000002#29A24A R
(278640.114000) vcan0 00000001#2AA34B R
(278640.352000) vcan0 00000002#2BA44C R
(278640.587000) vcan0 00000001#2CA54D R
(278640.831000) vcan0 00000002#2DA64E R
(278641.067000) vcan0 00000001#2EA74F R
(278641.308000) vcan0 00000002#2FA850 R
(278641.544000) vcan0 00000001#30A951 R
(278641.788000) vcan0 00000002#31AA52 R
(278642.023000) vcan0 00000001#325553 R
(278642.265000) vcan0 00000002#335654 R
(278642.501000) vcan0 00000001#345755 R
(278642.745000) vcan0 00000002#355856 R
(278642.981000) vcan0 00000001#365957 R
(278643.219000) vcan0 00000002#375A58 R
(278643.455000) vcan0 00000001#385B59 R
(278643.699000) vcan0 00000002#395C5A R
(278643.935000) vcan0 00000001#3A5D5B R
(278644.170000) vcan0 00000002#3B5E5C R
(278644.412000) vcan0 00000001#3C5F5D R
(278644.656000) vcan0 00000002#3D605E R
(278644.892000) vcan0 00000001#3E615F R
(278645.128000) vcan0 00000002#3F6260 R
(278645.365000) vcan0 00000001#406361 R
(278645.601000) vcan0 00000002#416462 R
(278645.845000) vcan0 00000001#426563 R
(278646.081000) vcan0 00000002#436664 R
(278646.319000) vcan0 00000001#446765 R
(278646.555000) vcan0 00000002#456866 R
(278646.798000) vcan0 00000001#466967 R
(278647.034000) vcan0 00000002#476A68 R
(278647.276000) vcan0 00000001#486B69 R
(278647.511000) vcan0 00000002#496C6A R
(278647.755000) vcan0 00000001#4A6D6B R
(278647.991000) vcan0 00000002#4B6E6C R
(278648.233000) vcan0 00000001#4C6F6D R
(278648.468000) vcan0 00000002#4D706E R
(278648.712000) vcan0 00000001#4E716F R
(278648.948000) vcan0 00000002#4F7270 R
(278649.184000) vcan0 00000001#507371 R
(278649.425000) vcan0 00000002#517472 R
(278649.669000) vcan0 00000001#527573 R
(278649.905000) vcan0 00000002#537674 R
(278650.140000) vcan0 00000001#547775 R
(278650.382000) vcan0 00000002#007876 R
(278650.618000) vcan0 00000001#017977 R
(278650.861000) vcan0 00000002#027A78 R
(278651.097000) vcan0 00000001#037B79 R
(278651.335000) vcan0 00000002#047C7A R
(278651.571000) vcan0 00000001#057D7B R
(278651.815000) vcan0 00000002#067E7C R
(278652.050000) vcan0 00000001#077F7D R
(278652.292000) vcan0 00000002#08807E R
(278652.528000) vcan0 00000001#09817F R
(278652.771000) vcan0 00000002#0A8280 R
(278653.007000) vcan0 00000001#0B8381 R
(278653.249000) vcan0 00000002#0C8482 R
(278653.485000) vcan0 00000001#0D8583 R
(278653.729000) vcan0 00000002#0E8684 R
(278653.965000) vcan0 00000001#0F8785 R
(278654.201000) vcan0 00000002#108886 R
(278654.441000) vcan0 00000001#118987 R
(278654.685000) vcan0 00000002#128A88 R
(278654.921000) vcan0 00000001#138B89 R
(278655.157000) vcan0 00000002#148C8A R
(278655.398000) vcan0 00000001#158D8B R
(278655.642000) vcan0 00000002#168E8C R
(278655.878000) vcan0 00000001#178F8D R
(278656.113000) vcan0 00000002#18908E R
(278656.352000) vcan0 00000001#19918F R
(278656.587000) vcan0 00000002#1A9290 R
(278656.831000) vcan0 00000001#1B9391 R
(278657.067000) vcan0 00000002#1C9492 R
(278657.309000) vcan0 00000001#1D9593 R
(278657.545000) vcan0 00000002#1E9694 R
(278657.788000) vcan0 00000001#1F9795 R
(278658.024000) vcan0 00000002#209896 R
(278658.265000) vcan0 00000001#219997 R
(278658.501000) vcan0 00000002#229A98 R
(278658.745000) vcan0 00000001#239B99 R
(278658.981000) vcan0 00000002#249C9A R
(278659.219000) vcan0 00000001#259D9B R
(278659.455000) vcan0 00000002#269E9C R
(278659.698000) vcan0 00000001#279F9D R
(278659.934000) vcan0 00000002#28A09E R
(278660.170000) vcan0 00000001#29A19F R
(278660.412000) vcan0 00000002#2AA2A0 R
(278660.656000) vcan0 00000001#2BA3A1 R
(278660.891000) vcan0 00000002#2CA4A2 R
(278661.127000) vcan0 00000001#2DA5A3 R
(278661.366000) vcan0 00000002#2EA6A4 R
(278661.601000) vcan0 00000001#2FA7A5 R
(278661.845000) vcan0 00000002#30A8A6 R
(278662.081000) vcan0 00000001#31A9A7 R
(278662.318000) vcan0 00000002#32AAA8 R
(278662.554000) vcan0 00000001#3355A9 R
(278662.798000) vcan0 00000002#3456AA R
(278663.034000) vcan0 00000001#3557AB R
(278663.276000) vcan0 00000002#3658AC R
(278663.511000) vcan0 00000001#3759AD R
(278663.755000) vcan0 00000002#385AAE R
(278663.991000) vcan0 00000001#395BAF R
(278664.233000) vcan0 00000002#3A5CB0 R
(278664.468000) vcan0 00000001#3B5DB1 R
(278664.712000) vcan0 00000002#3C5EB2 R
(278664.948000) vcan0 00000001#3D5FB3 R
(278665.184000) vcan0 00000002#3E60B4 R
(278665.425000) vcan0 00000001#3F61B5 R
(278665.669000) vcan0 00000002#4062B6 R
(278665.905000) vcan0 00000001#4163B7 R
(278666.140000) vcan0 00000002#4264B8 R
(278666.382000) vcan0 00000001#4365B9 R
(278666.618000) vcan0 00000002#4466BA R
(278666.861000) vcan0 00000001#4567BB R
(278667.097000) vcan0 00000002#4668BC R
(278667.335000) vcan0 00000001#4769BD R
(278667.571000) vcan0 00000002#486ABE R
(278667.815000) vcan0 00000001#496BBF R
(278668.050000) vcan0 00000002#4A6CC0 R
(278668.292000) vcan0 00000001#4B6DC1 R
(278668.528000) vcan0 00000002#4C6EC2 R
(278668.771000) vcan0 00000001#4D6FC3 R
(278669.007000) vcan0 00000002#4E70C4 R
(278669.249000) vcan0 00000001#4F71C5 R
(278669.485000) vcan0 00000002#5072C6 R
(278669.729000) vcan0 00000001#5173C7 R
(278669.964000) vcan0 00000002#5274C8 R
(278670.201000) vcan0 00000001#5375C9 R
(278670.441000) vcan0 00000002#5476CA R
(278670.685000) vcan0 00000001#0077CB R
(278670.921000) vcan0 00000002#0178CC R
(278671.157000) vcan0 00000001#0279CD R
(278671.398000) vcan0 00000002#037ACE R
(278671.642000) vcan0 00000001#047BCF R
(278671.878000) vcan0 00000002#057CD0 R
(278672.113000) vcan0 00000001#067DD1 R
(278672.352000) vcan0 00000002#077ED2 R
(278672.587000) vcan0 00000001#087FD3 R
(278672.831000) vcan0 00000002#0980D4 R
(278673.067000) vcan0 00000001#0A81D5 R
(278673.309000) vcan0 00000002#0B82D6 R
(278673.544000) vcan0 00000001#0C83D7 R
(278673.788000) vcan0 00000002#0D84D8 R
(278674.024000) vcan0 00000001#0E85D9 R
(278674.266000) vcan0 00000002#0F86DA R
(278674.501000) vcan0 00000001#1087DB R
(278674.745000) vcan0 00000002#1188DC R
(278674.981000) vcan0 00000001#1289DD R
(278675.219000) vcan0 00000002#138ADE R
(278675.455000) vcan0 00000001#148BDF R
(278675.699000) vcan0 00000002#158CE0 R
(278675.934000) vcan0 00000001#168DE1 R
(278676.170000) vcan0 00000002#178EE2 R
(278676.412000) vcan0 00000001#188FE3 R
(278676.656000) vcan0 00000002#1990E4 R
(278676.892000) vcan0 00000001#1A91E5 R
(278677.128000) vcan0 00000002#1B92E6 R
(278677.365000) vcan0 00000001#1C93E7 R
(278677.601000) vcan0 00000002#1D94E8 R
(278677.845000) vcan0 00000001#1E95E9 R
(278678.081000) vcan0 00000002#1F96EA R
(278678.319000) vcan0 00000001#2097EB R
(278678.555000) vcan0 00000002#2198EC R
(278678.798000) vcan0 00000001#2299ED R
(278679.034000) vcan0 00000002#239AEE R
(278679.276000) vcan0 00000001#249BEF R
(278679.511000) vcan0 00000002#259CF0 R
(278679.755000) vcan0 00000001#269DF1 R
(278679.991000) vcan0 00000002#279EF2 R
(278680.233000) vcan0 00000001#289FF3 R
(278680.468000) vcan0 00000002#29A0F4 R
(278680.712000) vcan0 00000001#2AA1F5 R
(278680.948000) vcan0 00000002#2BA2F6 R
(278681.184000) vcan0 00000001#2CA3F7 R
(278681.425000) vcan0 00000002#2DA4F8 R
(278681.669000) vcan0 00000001#2EA5F9 R
(278681.905000) vcan0 00000002#2FA6FA R
(278682.140000) vcan0 00000001#30A7FB R
(278682.382000) vcan0 00000002#31A8FC R
(278682.618000) vcan0 00000001#32A9FD R
(278682.861000) vcan0 00000002#33AAFE R
(278683.097000) vcan0 00000001#3455FF R
(278683.335000) vcan0 00000002#355600 R
(278683.571000) vcan0 00000001#365701 R
(278683.815000) vcan0 00000002#375802 R
(278684.050000) vcan0 00000001#385903 R
(278684.292000) vcan0 00000002#395A04 R
(278684.528000) vcan0 00000001#3A5B05 R
(278684.771000) vcan0 00000002#3B5C06 R
(278685.007000) vcan0 00000001#3C5D07 R
(278685.249000) vcan0 00000002#3D5E08 R
(278685.485000) vcan0 00000001#3E5F09 R
(278685.729000) vcan0 00000002#3F600A R
(278685.964000) vcan0 00000001#40610B R
(278686.201000) vcan0 00000002#41620C R
(278686.441000) vcan0 00000001#42630D R
(278686.685000) vcan0 00000002#43640E R
(278686.921000) vcan0 00000001#44650F R
(278687.157000) vcan0 00000002#456610 R
(278687.398000) vcan0 00000001#466711 R
(278687.642000) vcan0 00000002#476812 R
(278687.878000) vcan0 00000001#486913 R
(278688.113000) vcan0 00000002#496A14 R
(278688.352000) vcan0 00000001#4A6B15 R
(278688.587000) vcan0 00000002#4B6C16 R
(278688.831000) vcan0 00000001#4C6D17 R
(278689.067000) vcan0 00000002#4D6E18 R
(278689.309000) vcan0 00000001#4E6F19 R
(278689.544000) vcan0 00000002#4F701A R
(278689.788000) vcan0 00000001#50711B R
(278690.024000) vcan0 00000002#51721C R
(278690.266000) vcan0 00000001#52731D R
(278690.501000) vcan0 00000002#53741E R
(278690.745000) vcan0 00000001#54751F R
(278690.981000) vcan0 00000002#007620 R
(278691.219000) vcan0 00000001#017721 R
(278691.455000) vcan0 00000002#027822 R
(278691.699000) vcan0 00000001#037923 R
(278691.934000) vcan0 00000002#047A24 R
(278692.170000) vcan0 00000001#057B25 R
(278692.412000) vcan0 00000002#067C26 R
(278692.656000) vcan0 00000001#077D27 R
(278692.892000) vcan0 00000002#087E28 R
(278693.128000) vcan0 00000001#097F29 R
(278693.365000) vcan0 00000002#0A802A R
(278693.601000) vcan0 00000001#0B812B R
(278693.845000) vcan0 00000002#0C822C R
(278694.081000) vcan0 00000001#0D832D R
(278694.319000) vcan0 00000002#0E842E R
(278694.555000) vcan0 00000001#0F852F R
(278694.798000) vcan0 00000002#108630 R
(278695.034000) vcan0 00000001#118731 R
(278695.276000) vcan0 00000002#128832 R
(278695.511000) vcan0 00000001#138933 R
(278695.755000) vcan0 00000002#148A34 R
(278695.991000) vcan0 00000001#158B35 R
(278696.233000) vcan0 00000002#168C36 R
(278696.468000) vcan0 00000001#178D37 R
(278696.712000) vcan0 00000002#188E38 R
(278696.948000) vcan0 00000001#198F39 R
(278697.184000) vcan0 00000002#1A903A R
(278697.425000) vcan0 00000001#1B913B R
(278697.669000) vcan0 00000002#1C923C R
(278697.905000) vcan0 00000001#1D933D R
(278698.140000) vcan0 00000002#1E943E R
(278698.382000) vcan0 00000001#1F953F R
(278698.618000) vcan0 00000002#209640 R
(278698.861000) vcan0 00000001#219741 R
(278699.097000) vcan0 00000002#229842 R
(278699.335000) vcan0 00000001#239943 R
(278699.571000) vcan0 00000002#249A44 R
(278699.815000) vcan0 00000001#259B45 R
(278700.050000) vcan0 00000002#269C46 R
(278700.292000) vcan0 00000001#279D47 R
(278700.528000) vcan0 00000002#289E48 R
(278700.771000) vcan0 00000001#299F49 R
(278701.007000) vcan0 00000002#2AA04A R
(278701.249000) vcan0 00000001#2BA14B R
(278701.485000) vcan0 00000002#2CA24C R
(278701.729000) vcan0 00000001#2DA34D R
(278701.964000) vcan0 00000002#2EA44E R
(278702.201000) vcan0 00000001#2FA54F R
(278702.441000) vcan0 00000002#30A650 R
(278702.685000) vcan0 00000001#31A751 R
(278702.921000) vcan0 00000002#32A852 R
(278703.157000) vcan0 00000001#33A953 R
(278703.398000) vcan0 00000002#34AA54 R
(278703.642000) vcan0 00000001#355555 R
(278703.878000) vcan0 00000002#365656 R
(278704.114000) vcan0 00000001#375757 R
(278704.352000) vcan0 00000002#385858 R
(278704.587000) vcan0 00000001#395959 R
(278704.831000) vcan0 00000002#3A5A5A R
(278705.067000) vcan0 00000001#3B5B5B R
(278705.309000) vcan0 00000002#3C5C5C R
(278705.545000) vcan0 00000001#3D5D5D R
(278705.788000) vcan0 00000002#3E5E5E R
(278706.024000) vcan0 00000001#3F5F5F R
(278706.266000) vcan0 00000002#406060 R
(278706.501000) vcan0 00000001#416161 R
(278706.745000) vcan0 00000002#426262 R
(278706.981000) vcan0 00000001#436363 R
(278707.219000) vcan0 00000002#446464 R
(278707.455000) vcan0 00000001#456565 R
(278707.699000) vcan0 00000002#466666 R
(278707.934000) vcan0 00000001#476767 R
(278708.170000) vcan0 00000002#486868 R
(278708.412000) vcan0 00000001#496969 R
(278708.656000) vcan0 00000002#4A6A6A R
(278708.892000) vcan0 00000001#4B6B6B R
(278709.128000) vcan0 00000002#4C6C6C R
(278709.365000) vcan0 00000001#4D6D6D R
(278709.601000) vcan0 00000002#4E6E6E R
(278709.845000) vcan0 00000001#4F6F6F R
(278710.081000) vcan0 00000002#507070 R
(278710.319000) vcan0 00000001#517171 R
(278710.555000) vcan0 00000002#527272 R
(278710.798000) vcan0 00000001#537373 R
(278711.034000) vcan0 00000002#547474 R
(278711.276000) vcan0 00000001#007575 R
(278711.511000) vcan0 00000002#017676 R
(278711.755000) vcan0 00000001#027777 R
(278711.991000) vcan0 00000002#037878 R
(278712.233000) vcan0 00000001#047979 R
(278712.468000) vcan0 00000002#057A7A R
(278712.712000) vcan0 00000001#067B7B R
(278712.948000) vcan0 00000002#077C7C R
(278713.184000) vcan0 00000001#087D7D R
(278713.425000) vcan0 00000002#097E7E R
(278713.669000) vcan0 00000001#0A7F7F R
(278713.905000) vcan0 00000002#0B8080 R
(278714.140000) vcan0 00000001#0C8181 R
(278714.382000) vcan0 00000002#0D8282 R
(278714.618000) vcan0 00000001#0E8383 R
(278714.861000) vcan0 00000002#0F8484 R
(278715.097000) vcan0 00000001#108585 R
(278715.335000) vcan0 00000002#118686 R
(278715.571000) vcan0 00000001#128787 R
(278715.815000) vcan0 00000002#138888 R
(278716.050000) vcan0 00000001#148989 R
(278716.292000) vcan0 00000002#158A8A R
(278716.528000) vcan0 00000001#168B8B R
(278716.771000) vcan0 00000002#178C8C R
(278717.007000) vcan0 00000001#188D8D R
(278717.249000) vcan0 00000002#198E8E R
(278717.485000) vcan0 00000001#1A8F8F R
(278717.729000) vcan0 00000002#1B9090 R
(278717.964000) vcan0 00000001#1C9191 R
(278718.201000) vcan0 00000002#1D9292 R
(278718.441000) vcan0 00000001#1E9393 R
(278718.685000) vcan0 00000002#1F9494 R
(278718.921000) vcan0 00000001#209595 R
(278719.157000) vcan0 00000002#219696 R
(278719.398000) vcan0 00000001#229797 R
(278719.642000) vcan0 00000002#239898 R
(278719.878000) vcan0 00000001#249999 R
(278720.113000) vcan0 00000002#259A9A R
(278720.352000) vcan0 00000001#269B9B R
(278720.587000) vcan0 00000002#279C9C R
(278720.831000) vcan0 00000001#289D9D R
(278721.067000) vcan0 00000002#299E9E R
(278721.309000) vcan0 00000001#2A9F9F R
(278721.544000) vcan0 00000002#2BA0A0 R
(278721.788000) vcan0 00000001#2CA1A1 R
(278722.024000) vcan0 00000002#2DA2A2 R
(278722.266000) vcan0 00000001#2EA3A3 R
(278722.501000) vcan0 00000002#2FA4A4 R
(278722.745000) vcan0 00000001#30A5A5 R
(278722.981000) vcan0 00000002#31A6A6 R
(278723.219000) vcan0 00000001#32A7A7 R
(278723.455000) vcan0 00000002#33A8A8 R
(278723.699000) vcan0 00000001#34A9A9 R
(278723.934000) vcan0 00000002#35AAAA R
(278724.170000) vcan0 00000001#3655AB R
(278724.412000) vcan0 00000002#3756AC R
(278724.656000) vcan0 00000001#3857AD R
(278724.892000) vcan0 00000002#3958AE R
(278725.128000) vcan0 00000001#3A59AF R
(278725.365000) vcan0 00000002#3B5AB0 R
(278725.601000) vcan0 00000001#3C5BB1 R
(278725.845000) vcan0 00000002#3D5CB2 R
(278726.081000) vcan0 00000001#3E5DB3 R
(278726.319000) vcan0 00000002#3F5EB4 R
(278726.555000) vcan0 00000001#405FB5 R
(278726.798000) vcan0 00000002#4160B6 R
(278727.034000) vcan0 00000001#4261B7 R
(278727.276000) vcan0 00000002#4362B8 R
(278727.511000) vcan0 00000001#4463B9 R
(278727.755000) vcan0 00000002#4564BA R
(278727.991000) vcan0 00000001#4665BB R
(278728.233000) vcan0 00000002#4766BC R
(278728.468000) vcan0 00000001#4867BD R
(278728.712000) vcan0 00000002#4968BE R
(278728.948000) vcan0 00000001#4A69BF R
(278729.184000) vcan0 00000002#4B6AC0 R
(278729.425000) vcan0 00000001#4C6BC1 R
(278729.669000) vcan0 00000002#4D6CC2 R
(278729.905000) vcan0 00000001#4E6DC3 R
(278730.140000) vcan0 00000002#4F6EC4 R
(278730.382000) vcan0 00000001#506FC5 R
(278730.618000) vcan0 00000002#5170C6 R
(278730.861000) vcan0 00000001#5271C7 R
(278731.097000) vcan0 00000002#5372C8 R
(278731.335000) vcan0 00000001#5473C9 R
(278731.571000) vcan0 00000002#0074CA R
(278731.815000) vcan0 00000001#0175CB R
(278732.050000) vcan0 00000002#0276CC R
(278732.292000) vcan0 00000001#0377CD R
(278732.528000) vcan0 00000002#0478CE R
(278732.771000) vcan0 00000001#0579CF R
(278733.007000) vcan0 00000002#067AD0 R
(278733.249000) vcan0 00000001#077BD1 R
(278733.485000) vcan0 00000002#087CD2 R
(278733.729000) vcan0 00000001#097DD3 R
(278733.964000) vcan0 00000002#0A7ED4 R
(278734.201000) vcan0 00000001#0B7FD5 R
(278734.441000) vcan0 00000002#0C80D6 R
(278734.685000) vcan0 00000001#0D81D7 R
(278734.921000) vcan0 00000002#0E82D8 R
(278735.157000) vcan0 00000001#0F83D9 R
(278735.398000) vcan0 00000002#1084DA R
(278735.642000) vcan0 00000001#1185DB R
(278735.878000) vcan0 00000002#1286DC R
(278736.113000) vcan0 00000001#1387DD R
(278736.352000) vcan0 00000002#1488DE R
(278736.587000) vcan0 00000001#1589DF R
(278736.831000) vcan0 00000002#168AE0 R
(278737.067000) vcan0 00000001#178BE1 R
(278737.309000) vcan0 00000002#188CE2 R
(278737.544000) vcan0 00000001#198DE3 R
(278737.788000) vcan0 00000002#1A8EE4 R
(278738.024000) vcan0 00000001#1B8FE5 R
(278738.266000) vcan0 00000002#1C90E6 R
(278738.501000) vcan0 00000001#1D91E7 R
(278738.745000) vcan0 00000002#1E92E8 R
(278738.981000) vcan0 00000001#1F93E9 R
(278739.219000) vcan0 00000002#2094EA R
(278739.455000) vcan0 00000001#2195EB R
(278739.699000) vcan0 00000002#2296EC R
(278739.934000) vcan0 00000001#2397ED R
(278740.170000) vcan0 00000002#2498EE R
(278740.412000) vcan0 00000001#2599EF R
(278740.656000) vcan0 00000002#269AF0 R
(278740.892000) vcan0 00000001#279BF1 R
(278741.128000) vcan0 00000002#289CF2 R
(278741.365000) vcan0 00000001#299DF3 R
(278741.601000) vcan0 00000002#2A9EF4 R
(278741.845000) vcan0 00000001#2B9FF5 R
(278742.081000) vcan0 00000002#2CA0F6 R
(278742.319000) vcan0 00000001#2DA1F7 R
(278742.555000) vcan0 00000002#2EA2F8 R
(278742.798000) vcan0 00000001#2FA3F9 R
(278743.034000) vcan0 00000002#30A4FA R
(278743.276000) vcan0 00000001#31A5FB R
(278743.511000) vcan0 00000002#32A6FC R
(278743.755000) vcan0 00000001#33A7FD R
(278743.991000) vcan0 00000002#34A8FE R
(278744.233000) vcan0 00000001#35A9FF R
(278744.468000) vcan0 00000002#36AA00 R
(278744.712000) vcan0 00000001#375501 R
(278744.948000) vcan0 00000002#385602 R
(278745.184000) vcan0 00000001#395703 R
(278745.425000) vcan0 00000002#3A5804 R
(278745.669000) vcan0 00000001#3B5905 R
(278745.905000) vcan0 00000002#3C5A06 R
(278746.140000) vcan0 00000001#3D5B07 R
(278746.382000) vcan0 00000002#3E5C08 R
(278746.618000) vcan0 00000001#3F5D09 R
(278746.861000) vcan0 00000002#405E0A R
(278747.097000) vcan0 00000001#415F0B R
(278747.335000) vcan0 00000002#42600C R
(278747.571000) vcan0 00000001#43610D R
(278747.815000) vcan0 00000002#44620E R
(278748.050000) vcan0 00000001#45630F R
(278748.292000) vcan0 00000002#466410 R
(278748.528000) vcan0 00000001#476511 R
(278748.771000) vcan0 00000002#486612 R
(278749.007000) vcan0 00000001#496713 R
(278749.249000) vcan0 00000002#4A6814 R
(278749.485000) vcan0 00000001#4B6915 R
(278749.729000) vcan0 00000002#4C6A16 R
(278749.964000) vcan0 00000001#4D6B17 R
(278750.201000) vcan0 00000002#4E6C18 R
(278750.441000) vcan0 00000001#4F6D19 R
(278750.685000) vcan0 00000002#506E1A R
(278750.921000) vcan0 00000001#516F1B R
(278751.157000) vcan0 00000002#52701C R
(278751.398000) vcan0 00000001#53711D R
(278751.642000) vcan0 00000002#54721E R
(278751.878000) vcan0 00000001#00731F R
(278752.113000) vcan0 00000002#017420 R
(278752.352000) vcan0 00000001#027521 R
(278752.587000) vcan0 00000002#037622 R
(278752.831000) vcan0 00000001#047723 R
(278753.067000) vcan0 00000002#057824 R
(278753.309000) vcan0 00000001#067925 R
(278753.545000) vcan0 00000002#077A26 R
(278753.788000) vcan0 00000001#087B27 R
(278754.024000) vcan0 00000002#097C28 R
(278754.265000) vcan0 00000001#0A7D29 R
(278754.501000) vcan0 00000002#0B7E2A R
(278754.745000) vcan0 00000001#0C7F2B R
(278754.981000) vcan0 00000002#0D802C R
(278755.219000) vcan0 00000001#0E812D R
(278755.455000) vcan0 00000002#0F822E R
(278755.698000) vcan0 00000001#10832F R
(278755.934000) vcan0 00000002#118430 R
(278756.170000) vcan0 00000001#128531 R
(278756.412000) vcan0 00000002#138632 R
(278756.656000) vcan0 00000001#148733 R
(278756.891000) vcan0 00000002#158834 R
(278757.127000) vcan0 00000001#168935 R
(278757.366000) vcan0 00000002#178A36 R
(278757.601000) vcan0 00000001#188B37 R
(278757.845000) vcan0 00000002#198C38 R
(278758.081000) vcan0 00000001#1A8D39 R
(278758.318000) vcan0 00000002#1B8E3A R
(278758.554000) vcan0 00000001#1C8F3B R
(278758.798000) vcan0 00000002#1D903C R
(278759.034000) vcan0 00000001#1E913D R
(278759.276000) vcan0 00000002#1F923E R
(278759.511000) vcan0 00000001#20933F R
(278759.755000) vcan0 00000002#219440 R
(278759.991000) vcan0 00000001#229541 R
(278760.233000) vcan0 00000002#239642 R
(278760.468000) vcan0 00000001#249743 R
(278760.712000) vcan0 00000002#259844 R
(278760.948000) vcan0 00000001#269945 R
(278761.184000) vcan0 00000002#279A46 R
(278761.425000) vcan0 00000001#289B47 R
(278761.669000) vcan0 00000002#299C48 R
(278761.905000) vcan0 00000001#2A9D49 R
(278762.140000) vcan0 00000002#2B9E4A R
(278762.382000) vcan0 00000001#2C9F4B R
(278762.618000) vcan0 00000002#2DA04C R
(278762.862000) vcan0 00000001#2EA14D R
(278763.097000) vcan0 00000002#2FA24E R
(278763.335000) vcan0 00000001#30A34F R
(278763.571000) vcan0 00000002#31A450 R
(278763.815000) vcan0 00000001#32A551 R
(278764.051000) vcan0 00000002#33A652 R
(278764.293000) vcan0 00000001#34A753 R
(278764.529000) vcan0 00000002#35A854 R
(278764.772000) vcan0 00000001#36A955 R
(278765.008000) vcan0 00000002#37AA56 R
(278765.249000) vcan0 00000001#385557 R
(278765.485000) vcan0 00000002#395658 R
(278765.729000) vcan0 00000001#3A5759 R
(278765.964000) vcan0 00000002#3B585A R
(278766.201000) vcan0 00000001#3C595B R
(278766.441000) vcan0 00000002#3D5A5C R
(278766.685000) vcan0 00000001#3E5B5D R
(278766.921000) vcan0 00000002#3F5C5E R
(278767.157000) vcan0 00000001#405D5F R
(278767.398000) vcan0 00000002#415E60 R
(278767.642000) vcan0 00000001#425F61 R
(278767.878000) vcan0 00000002#436062 R
(278768.113000) vcan0 00000001#446163 R
(278768.352000) vcan0 00000002#456264 R
(278768.587000) vcan0 00000001#466365 R
(278768.831000) vcan0 00000002#476466 R
(278769.067000) vcan0 00000001#486567 R
(278769.309000) vcan0 00000002#496668 R
(278769.544000) vcan0 00000001#4A6769 R
(278769.788000) vcan0 00000002#4B686A R
(278770.024000) vcan0 00000001#4C696B R
(278770.266000) vcan0 00000002#4D6A6C R
(278770.501000) vcan0 00000001#4E6B6D R
(278770.745000) vcan0 00000002#4F6C6E R
(278770.981000) vcan0 00000001#506D6F R
(278771.219000) vcan0 00000002#516E70 R
(278771.455000) vcan0 00000001#526F71 R
(278771.699000) vcan0 00000002#537072 R
(278771.934000) vcan0 00000001#547173 R
(278772.170000) vcan0 00000002#007274 R
(278772.412000) vcan0 00000001#017375 R
(278772.656000) vcan0 00000002#027476 R
(278772.892000) vcan0 00000001#037577 R
(278773.128000) vcan0 00000002#047678 R
(278773.365000) vcan0 00000001#057779 R
(278773.601000) vcan0 00000002#06787A R
(278773.845000) vcan0 00000001#07797B R
(278774.081000) vcan0 00000002#087A7C R
(278774.319000) vcan0 00000001#097B7D R
(278774.555000) vcan0 00000002#0A7C7E R
(278774.798000) vcan0 00000001#0B7D7F R
(278775.034000) vcan0 00000002#0C7E80 R
(278775.276000) vcan0 00000001#0D7F81 R
(278775.511000) vcan0 00000002#0E8082 R
(278775.755000) vcan0 00000001#0F8183 R
(278775.991000) vcan0 00000002#108284 R
(278776.233000) vcan0 00000001#118385 R
(278776.468000) vcan0 00000002#128486 R
(278776.712000) vcan0 00000001#138587 R
(278776.948000) vcan0 00000002#148688 R
(278777.184000) vcan0 00000001#158789 R
(278777.425000) vcan0 00000002#16888A R
(278777.669000) vcan0 00000001#17898B R
(278777.905000) vcan0 00000002#188A8C R
(278778.140000) vcan0 00000001#198B8D R
(278778.382000) vcan0 00000002#1A8C8E R
(278778.618000) vcan0 00000001#1B8D8F R
(278778.861000) vcan0 00000002#1C8E90 R
(278779.097000) vcan0 00000001#1D8F91 R
(278779.335000) vcan0 00000002#1E9092 R
(278779.571000) vcan0 00000001#1F9193 R
(278779.815000) vcan0 00000002#209294 R
(278780.050000) vcan0 00000001#219395 R
(278780.292000) vcan0 00000002#229496 R
(278780.528000) vcan0 00000001#239597 R
(278780.771000) vcan0 00000002#249698 R
(278781.007000) vcan0 00000001#259799 R
(278781.249000) vcan0 00000002#26989A R
(278781.485000) vcan0 00000001#27999B R
(278781.729000) vcan0 00000002#289A9C R
(278781.964000) vcan0 00000001#299B9D R
(278782.201000) vcan0 00000002#2A9C9E R
(278782.441000) vcan0 00000001#2B9D9F R
(278782.685000) vcan0 00000002#2C9EA0 R
(278782.921000) vcan0 00000001#2D9FA1 R
(278783.157000) vcan0 00000002#2EA0A2 R
(278783.398000) vcan0 00000001#2FA1A3 R
(278783.642000) vcan0 00000002#30A2A4 R
(278783.878000) vcan0 00000001#31A3A5 R
(278784.113000) vcan0 00000002#32A4A6 R
(278784.352000) vcan0 00000001#33A5A7 R
(278784.587000) vcan0 00000002#34A6A8 R
(278784.831000) vcan0 00000001#35A7A9 R
(278785.067000) vcan0 00000002#36A8AA R
(278785.309000) vcan0 00000001#37A9AB R
(278785.544000) vcan0 00000002#38AAAC R
(278785.788000) vcan0 00000001#3955AD R
(278786.024000) vcan0 00000002#3A56AE R
(278786.266000) vcan0 00000001#3B57AF R
(278786.501000) vcan0 00000002#3C58B0 R
(278786.745000) vcan0 00000001#3D59B1 R
(278786.981000) vcan0 00000002#3E5AB2 R
(278787.219000) vcan0 00000001#3F5BB3 R
(278787.455000) vcan0 00000002#405CB4 R
(278787.699000) vcan0 00000001#415DB5 R
(278787.934000) vcan0 00000002#425EB6 R
(278788.170000) vcan0 00000001#435FB7 R
(278788.412000) vcan0 00000002#4460B8 R
(278788.656000) vcan0 00000001#4561B9 R
(278788.892000) vcan0 00000002#4662BA R
(278789.128000) vcan0 00000001#4763BB R
(278789.365000) vcan0 00000002#4864BC R
(278789.601000) vcan0 00000001#4965BD R
(278789.845000) vcan0 00000002#4A66BE R
(278790.081000) vcan0 00000001#4B67BF R
(278790.319000) vcan0 00000002#4C68C0 R
(278790.555000) vcan0 00000001#4D69C1 R
(278790.798000) vcan0 00000002#4E6AC2 R
(278791.034000) vcan0 00000001#4F6BC3 R
(278791.276000) vcan0 00000002#506CC4 R
(278791.511000) vcan0 00000001#516DC5 R
(278791.755000) vcan0 00000002#526EC6 R
(278791.991000) vcan0 00000001#536FC7 R
(278792.233000) vcan0 00000002#5470C8 R
(278792.468000) vcan0 00000001#0071C9 R
(278792.712000) vcan0 00000002#0172CA R
(278792.948000) vcan0 00000001#0273CB R
(278793.184000) vcan0 00000002#0374CC R
(278793.425000) vcan0 00000001#0475CD R
(278793.669000) vcan0 00000002#0576CE R
(278793.905000) vcan0 00000001#0677CF R
(278794.140000) vcan0 00000002#0778D0 R
(278794.382000) vcan0 00000001#0879D1 R
(278794.618000) vcan0 00000002#097AD2 R
(278794.861000) vcan0 00000001#0A7BD3 R
(278795.097000) vcan0 00000002#0B7CD4 R
(278795.335000) vcan0 00000001#0C7DD5 R
(278795.571000) vcan0 00000002#0D7ED6 R
(278795.815000) vcan0 00000001#0E7FD7 R
(278796.050000) vcan0 00000002#0F80D8 R
(278796.292000) vcan0 00000001#1081D9 R
(278796.528000) vcan0 00000002#1182DA R
(278796.771000) vcan0 00000001#1283DB R
(278797.007000) vcan0 00000002#1384DC R
(278797.249000) vcan0 00000001#1485DD R
(278797.485000) vcan0 00000002#1586DE R
(278797.729000) vcan0 00000001#1687DF R
(278797.964000) vcan0 00000002#1788E0 R
(278798.201000) vcan0 00000001#1889E1 R
(278798.441000) vcan0 00000002#198AE2 R
(278798.685000) vcan0 00000001#1A8BE3 R
(278798.921000) vcan0 00000002#1B8CE4 R
(278799.157000) vcan0 00000001#1C8DE5 R
(278799.398000) vcan0 00000002#1D8EE6 R
(278799.642000) vcan0 00000001#1E8FE7 R
(278799.878000) vcan0 00000002#1F90E8 R
(278800.114000) vcan0 00000001#2091E9 R
(278800.352000) vcan0 00000002#2192EA R
(278800.587000) vcan0 00000001#2293EB R
(278800.831000) vcan0 00000002#2394EC R
(278801.067000) vcan0 00000001#2495ED R
(278801.308000) vcan0 00000002#2596EE R
(278801.544000) vcan0 00000001#2697EF R
(278801.788000) vcan0 00000002#2798F0 R
(278802.023000) vcan0 00000001#2899F1 R
(278802.265000) vcan0 00000002#299AF2 R
(278802.501000) vcan0 00000001#2A9BF3 R
(278802.745000) vcan0 00000002#2B9CF4 R
(278802.981000) vcan0 00000001#2C9DF5 R
(278803.219000) vcan0 00000002#2D9EF6 R
(278803.455000) vcan0 00000001#2E9FF7 R
(278803.699000) vcan0 00000002#2FA0F8 R
(278803.935000) vcan0 00000001#30A1F9 R
(278804.170000) vcan0 00000002#31A2FA R
(278804.412000) vcan0 00000001#32A3FB R
(278804.656000) vcan0 00000002#33A4FC R
(278804.892000) vcan0 00000001#34A5FD R
(278805.128000) vcan0 00000002#35A6FE R
(278805.365000) vcan0 00000001#36A7FF R
(278805.601000) vcan0 00000002#37A800 R
(278805.845000) vcan0 00000001#38A901 R
(278806.081000) vcan0 00000002#39AA02 R
(278806.319000) vcan0 00000001#3A5503 R
(278806.555000) vcan0 00000002#3B5604 R
(278806.798000) vcan0 00000001#3C5705 R
(278807.034000) vcan0 00000002#3D5806 R
(278807.276000) vcan0 00000001#3E5907 R
(278807.511000) vcan0 00000002#3F5A08 R
(278807.755000) vcan0 00000001#405B09 R
(278807.991000) vcan0 00000002#415C0A R
(278808.233000) vcan0 00000001#425D0B R
(278808.468000) vcan0 00000002#435E0C R
(278808.712000) vcan0 00000001#445F0D R
(278808.948000) vcan0 00000002#45600E R
(278809.184000) vcan0 00000001#46610F R
(278809.425000) vcan0 00000002#476210 R
(278809.669000) vcan0 00000001#486311 R
(278809.905000) vcan0 00000002#496412 R
(278810.140000) vcan0 00000001#4A6513 R
(278810.382000) vcan0 00000002#4B6614 R
(278810.618000) vcan0 00000001#4C6715 R
(278810.861000) vcan0 00000002#4D6816 R
(278811.097000) vcan0 00000001#4E6917 R
(278811.335000) vcan0 00000002#4F6A18 R
(278811.571000) vcan0 00000001#506B19 R
(278811.815000) vcan0 00000002#516C1A R
(278812.050000) vcan0 00000001#526D1B R
(278812.292000) vcan0 00000002#536E1C R
(278812.528000) vcan0 00000001#546F1D R
(278812.771000) vcan0 00000002#00701E R
(278813.007000) vcan0 00000001#01711F R
(278813.249000) vcan0 00000002#027220 R
(278813.485000) vcan0 00000001#037321 R
(278813.729000) vcan0 00000002#047422 R
(278813.964000) vcan0 00000001#057523 R
(278814.201000) vcan0 00000002#067624 R
(278814.441000) vcan0 00000001#077725 R
(278814.685000) vcan0 00000002#087826 R
(278814.921000) vcan0 00000001#097927 R
(278815.157000) vcan0 00000002#0A7A28 R
(278815.398000) vcan0 00000001#0B7B29 R
(278815.642000) vcan0 00000002#0C7C2A R
(278815.877000) vcan0 00000001#0D7D2B R
(278816.113000) vcan0 00000002#0E7E2C R
(278816.351000) vcan0 00000001#0F7F2D R
(278816.587000) vcan0 00000002#10802E R
(278816.831000) vcan0 00000001#11812F R
(278817.067000) vcan0 00000002#128230 R
(278817.308000) vcan0 00000001#138331 R
(278817.544000) vcan0 00000002#148432 R
(278817.788000) vcan0 00000001#158533 R
(278818.024000) vcan0 00000002#168634 R
(278818.265000) vcan0 00000001#178735 R
(278818.501000) vcan0 00000002#188836 R
(278818.745000) vcan0 00000001#198937 R
(278818.981000) vcan0 00000002#1A8A38 R
(278819.219000) vcan0 00000001#1B8B39 R
(278819.455000) vcan0 00000002#1C8C3A R
(278819.698000) vcan0 00000001#1D8D3B R
(278819.934000) vcan0 00000002#1E8E3C R
(278820.170000) vcan0 00000001#1F8F3D R
(278820.412000) vcan0 00000002#20903E R
(278820.656000) vcan0 00000001#21913F R
(278820.891000) vcan0 00000002#229240 R
(278821.127000) vcan0 00000001#239341 R
(278821.366000) vcan0 00000002#249442 R
(278821.601000) vcan0 00000001#259543 R
(278821.845000) vcan0 00000002#269644 R
(278822.081000) vcan0 00000001#279745 R
(278822.318000) vcan0 00000002#289846 R
(278822.554000) vcan0 00000001#299947 R
(278822.798000) vcan0 00000002#2A9A48 R
(278823.034000) vcan0 00000001#2B9B49 R
(278823.276000) vcan0 00000002#2C9C4A R
(278823.511000) vcan0 00000001#2D9D4B R
(278823.755000) vcan0 00000002#2E9E4C R
(278823.991000) vcan0 00000001#2F9F4D R
(278824.233000) vcan0 00000002#30A04E R
(278824.468000) vcan0 00000001#31A14F R
(278824.712000) vcan0 00000002#32A250 R
(278824.948000) vcan0 00000001#33A351 R
(278825.184000) vcan0 00000002#34A452 R
(278825.425000) vcan0 00000001#35A553 R
(278825.669000) vcan0 00000002#36A654 R
(278825.905000) vcan0 00000001#37A755 R
(278826.140000) vcan0 00000002#38A856 R
(278826.382000) vcan0 00000001#39A957 R
(278826.618000) vcan0 00000002#3AAA58 R
(278826.862000) vcan0 00000001#3B5559 R
(278827.097000) vcan0 00000002#3C565A R
(278827.335000) vcan0 00000001#3D575B R
(278827.571000) vcan0 00000002#3E585C R
(278827.815000) vcan0 00000001#3F595D R
(278828.051000) vcan0 00000002#405A5E R
(278828.292000) vcan0 00000001#415B5F R
(278828.528000) vcan0 00000002#425C60 R
(278828.772000) vcan0 00000001#435D61 R
(278829.008000) vcan0 00000002#445E62 R
(278829.249000) vcan0 00000001#455F63 R
(278829.485000) vcan0 00000002#466064 R
(278829.729000) vcan0 00000001#476165 R
(278829.965000) vcan0 00000002#486266 R
(278830.201000) vcan0 00000001#496367 R
(278830.441000) vcan0 00000002#4A6468 R
(278830.685000) vcan0 00000001#4B6569 R
(278830.921000) vcan0 00000002#4C666A R
(278831.157000) vcan0 00000001#4D676B R
(278831.398000) vcan0 00000002#4E686C R
(278831.642000) vcan0 00000001#4F696D R
(278831.878000) vcan0 00000002#506A6E R
(278832.114000) vcan0 00000001#516B6F R
(278832.352000) vcan0 00000002#526C70 R
(278832.587000) vcan0 00000001#536D71 R
(278832.831000) vcan0 00000002#546E72 R
(278833.067000) vcan0 00000001#006F73 R
(278833.308000) vcan0 00000002#017074 R
(278833.544000) vcan0 00000001#027175 R
(278833.788000) vcan0 00000002#037276 R
(278834.023000) vcan0 00000001#047377 R
(278834.265000) vcan0 00000002#057478 R
(278834.501000) vcan0 00000001#067579 R
(278834.745000) vcan0 00000002#07767A R
(278834.981000) vcan0 00000001#08777B R
(278835.219000) vcan0 00000002#09787C R
(278835.455000) vcan0 00000001#0A797D R
(278835.699000) vcan0 00000002#0B7A7E R
(278835.934000) vcan0 00000001#0C7B7F R
(278836.170000) vcan0 00000002#0D7C80 R
(278836.412000) vcan0 00000001#0E7D81 R
(278836.656000) vcan0 00000002#0F7E82 R
(278836.891000) vcan0 00000001#107F83 R
(278837.127000) vcan0 00000002#118084 R
(278837.366000) vcan0 00000001#128185 R
(278837.601000) vcan0 00000002#138286 R
(278837.845000) vcan0 00000001#148387 R
(278838.081000) vcan0 00000002#158488 R
(278838.319000) vcan0 00000001#168589 R
(278838.554000) vcan0 00000002#17868A R
(278838.798000) vcan0 00000001#18878B R
(278839.034000) vcan0 00000002#19888C R
(278839.276000) vcan0 00000001#1A898D R
(278839.512000) vcan0 00000002#1B8A8E R
(278839.755000) vcan0 00000001#1C8B8F R
(278839.991000) vcan0 00000002#1D8C90 R
(278840.233000) vcan0 00000001#1E8D91 R
(278840.469000) vcan0 00000002#1F8E92 R
(278840.713000) vcan0 00000001#208F93 R
(278840.948000) vcan0 00000002#219094 R
(278841.184000) vcan0 00000001#229195 R
(278841.425000) vcan0 00000002#239296 R
(278841.669000) vcan0 00000001#249397 R
(278841.905000) vcan0 00000002#259498 R
(278842.140000) vcan0 00000001#269599 R
(278842.382000) vcan0 00000002#27969A R
(278842.618000) vcan0 00000001#28979B R
(278842.861000) vcan0 00000002#29989C R
(278843.097000) vcan0 00000001#2A999D R
(278843.335000) vcan0 00000002#2B9A9E R
(278843.571000) vcan0 00000001#2C9B9F R
(278843.815000) vcan0 00000002#2D9CA0 R
(278844.050000) vcan0 00000001#2E9DA1 R
(278844.292000) vcan0 00000002#2F9EA2 R
(278844.528000) vcan0 00000001#309FA3 R
(278844.771000) vcan0 00000002#31A0A4 R
(278845.007000) vcan0 00000001#32A1A5 R
(278845.249000) vcan0 00000002#33A2A6 R
(278845.485000) vcan0 00000001#34A3A7 R
(278845.729000) vcan0 00000002#35A4A8 R
(278845.964000) vcan0 00000001#36A5A9 R
(278846.201000) vcan0 00000002#37A6AA R
(278846.441000) vcan0 00000001#38A7AB R
(278846.685000) vcan0 00000002#39A8AC R
(278846.921000) vcan0 00000001#3AA9AD R
(278847.157000) vcan0 00000002#3BAAAE R
(278847.398000) vcan0 00000001#3C55AF R
(278847.642000) vcan0 00000002#3D56B0 R
(278847.878000) vcan0 00000001#3E57B1 R
(278848.113000) vcan0 00000002#3F58B2 R
(278848.352000) vcan0 00000001#4059B3 R
(278848.587000) vcan0 00000002#415AB4 R
(278848.831000) vcan0 00000001#425BB5 R
(278849.067000) vcan0 00000002#435CB6 R
(278849.309000) vcan0 00000001#445DB7 R
(278849.545000) vcan0 00000002#455EB8 R
(278849.788000) vcan0 00000001#465FB9 R
(278850.024000) vcan0 00000002#4760BA R
(278850.265000) vcan0 00000001#4861BB R
(278850.501000) vcan0 00000002#4962BC R
(278850.745000) vcan0 00000001#4A63BD R
(278850.981000) vcan0 00000002#4B64BE R
(278851.219000) vcan0 00000001#4C65BF R
(278851.455000) vcan0 00000002#4D66C0 R
(278851.698000) vcan0 00000001#4E67C1 R
(278851.934000) vcan0 00000002#4F68C2 R
(278852.170000) vcan0 00000001#5069C3 R
(278852.412000) vcan0 00000002#516AC4 R
(278852.656000) vcan0 00000001#526BC5 R
(278852.891000) vcan0 00000002#536CC6 R
(278853.127000) vcan0 00000001#546DC7 R
(278853.366000) vcan0 00000002#006EC8 R
(278853.601000) vcan0 00000001#016FC9 R
(278853.845000) vcan0 00000002#0270CA R
(278854.081000) vcan0 00000001#0371CB R
(278854.318000) vcan0 00000002#0472CC R
(278854.554000) vcan0 00000001#0573CD R
(278854.798000) vcan0 00000002#0674CE R
(278855.034000) vcan0 00000001#0775CF R
(278855.276000) vcan0 00000002#0876D0 R
(278855.511000) vcan0 00000001#0977D1 R
(278855.755000) vcan0 00000002#0A78D2 R
(278855.991000) vcan0 00000001#0B79D3 R
(278856.233000) vcan0 00000002#0C7AD4 R
(278856.468000) vcan0 00000001#0D7BD5 R
(278856.712000) vcan0 00000002#0E7CD6 R
(278856.948000) vcan0 00000001#0F7DD7 R
(278857.184000) vcan0 00000002#107ED8 R
(278857.425000) vcan0 00000001#117FD9 R
(278857.669000) vcan0 00000002#1280DA R
(278857.905000) vcan0 00000001#1381DB R
(278858.140000) vcan0 00000002#1482DC R
(278858.382000) vcan0 00000001#1583DD R
(278858.618000) vcan0 00000002#1684DE R
(278858.861000) vcan0 00000001#1785DF R
(278859.097000) vcan0 00000002#1886E0 R
(278859.335000) vcan0 00000001#1987E1 R
(278859.571000) vcan0 00000002#1A88E2 R
(278859.815000) vcan0 00000001#1B89E3 R
(278860.050000) vcan0 00000002#1C8AE4 R
(278860.292000) vcan0 00000001#1D8BE5 R
(278860.528000) vcan0 00000002#1E8CE6 R
(278860.771000) vcan0 00000001#1F8DE7 R
(278861.007000) vcan0 00000002#208EE8 R
(278861.249000) vcan0 00000001#218FE9 R
(278861.485000) vcan0 00000002#2290EA R
(278861.729000) vcan0 00000001#2391EB R
(278861.964000) vcan0 00000002#2492EC R
(278862.201000) vcan0 00000001#2593ED R
(278862.441000) vcan0 00000002#2694EE R
(278862.685000) vcan0 00000001#2795EF R
(278862.921000) vcan0 00000002#2896F0 R
(278863.157000) vcan0 00000001#2997F1 R
(278863.398000) vcan0 00000002#2A98F2 R
(278863.642000) vcan0 00000001#2B99F3 R
(278863.878000) vcan0 00000002#2C9AF4 R
(278864.114000) vcan0 00000001#2D9BF5 R
(278864.352000) vcan0 00000002#2E9CF6 R
(278864.587000) vcan0 00000001#2F9DF7 R
(278864.831000) vcan0 00000002#309EF8 R
(278865.067000) vcan0 00000001#319FF9 R
(278865.308000) vcan0 00000002#32A0FA R
(278865.544000) vcan0 00000001#33A1FB R
(278865.788000) vcan0 00000002#34A2FC R
(278866.023000) vcan0 00000001#35A3FD R
(278866.265000) vcan0 00000002#36A4FE R
(278866.501000) vcan0 00000001#37A5FF R
(278866.745000) vcan0 00000002#38A600 R
(278866.981000) vcan0 00000001#39A701 R
(278867.219000) vcan0 00000002#3AA802 R
(278867.455000) vcan0 00000001#3BA903 R
(278867.699000) vcan0 00000002#3CAA04 R
(278867.935000) vcan0 00000001#3D5505 R
(278868.170000) vcan0 00000002#3E5606 R
(278868.412000) vcan0 00000001#3F5707 R
(278868.656000) vcan0 00000002#405808 R
(278868.892000) vcan0 00000001#415909 R
(278869.128000) vcan0 00000002#425A0A R
(278869.365000) vcan0 00000001#435B0B R
(278869.601000) vcan0 00000002#445C0C R
(278869.845000) vcan0 00000001#455D0D R
(278870.081000) vcan0 00000002#465E0E R
(278870.319000) vcan0 00000001#475F0F R
(278870.555000) vcan0 00000002#486010 R
(278870.798000) vcan0 00000001#496111 R
(278871.034000) vcan0 00000002#4A6212 R
(278871.276000) vcan0 00000001#4B6313 R
(278871.511000) vcan0 00000002#4C6414 R
(278871.755000) vcan0 00000001#4D6515 R
(278871.991000) vcan0 00000002#4E6616 R
(278872.233000) vcan0 00000001#4F6717 R
(278872.468000) vcan0 00000002#506818 R
(278872.712000) vcan0 00000001#516919 R
(278872.948000) vcan0 00000002#526A1A R
(278873.184000) vcan0 00000001#536B1B R
(278873.425000) vcan0 00000002#546C1C R
(278873.669000) vcan0 00000001#006D1D R
(278873.905000) vcan0 00000002#016E1E R
(278874.140000) vcan0 00000001#026F1F R
(278874.382000) vcan0 00000002#037020 R
(278874.618000) vcan0 00000001#047121 R
(278874.861000) vcan0 00000002#057222 R
(278875.097000) vcan0 00000001#067323 R
(278875.335000) vcan0 00000002#077424 R
(278875.571000) vcan0 00000001#087525 R
(278875.815000) vcan0 00000002#097626 R
(278876.050000) vcan0 00000001#0A7727 R
(278876.292000) vcan0 00000002#0B7828 R
(278876.528000) vcan0 00000001#0C7929 R
(278876.771000) vcan0 00000002#0D7A2A R
(278877.007000) vcan0 00000001#0E7B2B R
(278877.249000) vcan0 00000002#0F7C2C R
(278877.485000) vcan0 00000001#107D2D R
(278877.729000) vcan0 00000002#117E2E R
(278877.964000) vcan0 00000001#127F2F R
(278878.201000) vcan0 00000002#138030 R
(278878.441000) vcan0 00000001#148131 R
(278878.685000) vcan0 00000002#158232 R
(278878.921000) vcan0 00000001#168333 R
(278879.157000) vcan0 00000002#178434 R
(278879.398000) vcan0 00000001#188535 R
(278879.642000) vcan0 00000002#198636 R
(278879.878000) vcan0 00000001#1A8737 R
(278880.113000) vcan0 00000002#1B8838 R
(278880.352000) vcan0 00000001#1C8939 R
(278880.587000) vcan0 00000002#1D8A3A R
(278880.831000) vcan0 00000001#1E8B3B R
(278881.067000) vcan0 00000002#1F8C3C R
(278881.309000) vcan0 00000001#208D3D R
(278881.544000) vcan0 00000002#218E3E R
(278881.788000) vcan0 00000001#228F3F R
(278882.024000) vcan0 00000002#239040 R
(278882.266000) vcan0 00000001#249141 R
(278882.501000) vcan0 00000002#259242 R
(278882.745000) vcan0 00000001#269343 R
(278882.981000) vcan0 00000002#279444 R
(278883.219000) vcan0 00000001#289545 R
(278883.455000) vcan0 00000002#299646 R
(278883.699000) vcan0 00000001#2A9747 R
(278883.934000) vcan0 00000002#2B9848 R
(278884.170000) vcan0 00000001#2C9949 R
(278884.412000) vcan0 00000002#2D9A4A R
(278884.656000) vcan0 00000001#2E9B4B R
(278884.892000) vcan0 00000002#2F9C4C R
(278885.128000) vcan0 00000001#309D4D R
(278885.365000) vcan0 00000002#319E4E R
(278885.601000) vcan0 00000001#329F4F R
(278885.845000) vcan0 00000002#33A050 R
(278886.081000) vcan0 00000001#34A151 R
(278886.319000) vcan0 00000002#35A252 R
(278886.555000) vcan0 00000001#36A353 R
(278886.798000) vcan0 00000002#37A454 R
(278887.034000) vcan0 00000001#38A555 R
(278887.276000) vcan0 00000002#39A656 R
(278887.511000) vcan0 00000001#3AA757 R
(278887.755000) vcan0 00000002#3BA858 R
(278887.991000) vcan0 00000001#3CA959 R
(278888.233000) vcan0 00000002#3DAA5A R
(278888.468000) vcan0 00000001#3E555B R
(278888.712000) vcan0 00000002#3F565C R
(278888.948000) vcan0 00000001#40575D R
(278889.184000) vcan0 00000002#41585E R
(278889.425000) vcan0 00000001#42595F R
(278889.669000) vcan0 00000002#435A60 R
(278889.905000) vcan0 00000001#445B61 R
(278890.140000) vcan0 00000002#455C62 R
(278890.382000) vcan0 00000001#465D63 R
(278890.618000) vcan0 00000002#475E64 R
(278890.861000) vcan0 00000001#485F65 R
(278891.097000) vcan0 00000002#496066 R
(278891.335000) vcan0 00000001#4A6167 R
(278891.571000) vcan0 00000002#4B6268 R
(278891.815000) vcan0 00000001#4C6369 R
(278892.050000) vcan0 00000002#4D646A R
(278892.292000) vcan0 00000001#4E656B R
(278892.528000) vcan0 00000002#4F666C R
(278892.771000) vcan0 00000001#50676D R
(278893.007000) vcan0 00000002#51686E R
(278893.249000) vcan0 00000001#52696F R
(278893.485000) vcan0 00000002#536A70 R
(278893.729000) vcan0 00000001#546B71 R
(278893.964000) vcan0 00000002#006C72 R
(278894.201000) vcan0 00000001#016D73 R
(278894.441000) vcan0 00000002#026E74 R
(278894.685000) vcan0 00000001#036F75 R
(278894.921000) vcan0 00000002#047076 R
(278895.157000) vcan0 00000001#057177 R
(278895.398000) vcan0 00000002#067278 R
(278895.642000) vcan0 00000001#077379 R
(278895.878000) vcan0 00000002#08747A R
(278896.113000) vcan0 00000001#09757B R
(278896.352000) vcan0 00000002#0A767C R
(278896.587000) vcan0 00000001#0B777D R
(278896.831000) vcan0 00000002#0C787E R
(278897.067000) vcan0 00000001#0D797F R
(278897.309000) vcan0 00000002#0E7A80 R
(278897.544000) vcan0 00000001#0F7B81 R
(278897.788000) vcan0 00000002#107C82 R
(278898.024000) vcan0 00000001#117D83 R
(278898.266000) vcan0 00000002#127E84 R
(278898.501000) vcan0 00000001#137F85 R
(278898.745000) vcan0 00000002#148086 R
(278898.981000) vcan0 00000001#158187 R
(278899.219000) vcan0 00000002#168288 R
(278899.455000) vcan0 00000001#178389 R
(278899.699000) vcan0 00000002#18848A R
(278899.934000) vcan0 00000001#19858B R
(278900.170000) vcan0 00000002#1A868C R
(278900.412000) vcan0 00000001#1B878D R
(278900.656000) vcan0 00000002#1C888E R
(278900.892000) vcan0 00000001#1D898F R
(278901.128000) vcan0 00000002#1E8A90 R
(278901.365000) vcan0 00000001#1F8B91 R
(278901.601000) vcan0 00000002#208C92 R
(278901.845000) vcan0 00000001#218D93 R
(278902.081000) vcan0 00000002#228E94 R
(278902.319000) vcan0 00000001#238F95 R
(278902.555000) vcan0 00000002#249096 R
(278902.798000) vcan0 00000001#259197 R
(278903.034000) vcan0 00000002#269298 R
(278903.276000) vcan0 00000001#279399 R
(278903.511000) vcan0 00000002#28949A R
(278903.755000) vcan0 00000001#29959B R
(278903.991000) vcan0 00000002#2A969C R
(278904.233000) vcan0 00000001#2B979D R
(278904.468000) vcan0 00000002#2C989E R
(278904.712000) vcan0 00000001#2D999F R
(278904.948000) vcan0 00000002#2E9AA0 R
(278905.184000) vcan0 00000001#2F9BA1 R
(278905.425000) vcan0 00000002#309CA2 R
(278905.669000) vcan0 00000001#319DA3 R
(278905.905000) vcan0 00000002#329EA4 R
(278906.140000) vcan0 00000001#339FA5 R
(278906.382000) vcan0 00000002#34A0A6 R
(278906.618000) vcan0 00000001#35A1A7 R
(278906.861000) vcan0 00000002#36A2A8 R
(278907.097000) vcan0 00000001#37A3A9 R
(278907.335000) vcan0 00000002#38A4AA R
(278907.571000) vcan0 00000001#39A5AB R
(278907.815000) vcan0 00000002#3AA6AC R
(278908.050000) vcan0 00000001#3BA7AD R
(278908.292000) vcan0 00000002#3CA8AE R
(278908.528000) vcan0 00000001#3DA9AF R
(278908.771000) vcan0 00000002#3EAAB0 R
(278909.007000) vcan0 00000001#3F55B1 R
(278909.249000) vcan0 00000002#4056B2 R
(278909.485000) vcan0 00000001#4157B3 R
(278909.729000) vcan0 00000002#4258B4 R
(278909.964000) vcan0 00000001#4359B5 R
(278910.201000) vcan0 00000002#445AB6 R
(278910.441000) vcan0 00000001#455BB7 R
(278910.685000) vcan0 00000002#465CB8 R
(278910.921000) vcan0 00000001#475DB9 R
(278911.157000) vcan0 00000002#485EBA R
(278911.398000) vcan0 00000001#495FBB R
(278911.642000) vcan0 00000002#4A60BC R
(278911.877000) vcan0 00000001#4B61BD R
(278912.113000) vcan0 00000002#4C62BE R
(278912.351000) vcan0 00000001#4D63BF R
(278912.587000) vcan0 00000002#4E64C0 R
(278912.831000) vcan0 00000001#4F65C1 R
(278913.067000) vcan0 00000002#5066C2 R
(278913.308000) vcan0 00000001#5167C3 R
(278913.544000) vcan0 00000002#5268C4 R
(278913.788000) vcan0 00000001#5369C5 R
(278914.024000) vcan0 00000002#546AC6 R
(278914.265000) vcan0 00000001#006BC7 R
(278914.501000) vcan0 00000002#016CC8 R
(278914.745000) vcan0 00000001#026DC9 R
(278914.981000) vcan0 00000002#036ECA R
(278915.219000) vcan0 00000001#046FCB R
(278915.455000) vcan0 00000002#0570CC R
(278915.698000) vcan0 00000001#0671CD R
(278915.934000) vcan0 00000002#0772CE R
(278916.170000) vcan0 00000001#0873CF R
(278916.412000) vcan0 00000002#0974D0 R
(278916.656000) vcan0 00000001#0A75D1 R
(278916.891000) vcan0 00000002#0B76D2 R
(278917.127000) vcan0 00000001#0C77D3 R
(278917.366000) vcan0 00000002#0D78D4 R
(278917.601000) vcan0 00000001#0E79D5 R
(278917.845000) vcan0 00000002#0F7AD6 R
(278918.081000) vcan0 00000001#107BD7 R
(278918.319000) vcan0 00000002#117CD8 R
(278918.554000) vcan0 00000001#127DD9 R
(278918.798000) vcan0 00000002#137EDA R
(278919.034000) vcan0 00000001#147FDB R
(278919.276000) vcan0 00000002#1580DC R
(278919.512000) vcan0 00000001#1681DD R
(278919.755000) vcan0 00000002#1782DE R
(278919.991000) vcan0 00000001#1883DF R
(278920.233000) vcan0 00000002#1984E0 R
(278920.469000) vcan0 00000001#1A85E1 R
(278920.713000) vcan0 00000002#1B86E2 R
(278920.948000) vcan0 00000001#1C87E3 R
(278921.184000) vcan0 00000002#1D88E4 R
(278921.425000) vcan0 00000001#1E89E5 R
(278921.669000) vcan0 00000002#1F8AE6 R
(278921.905000) vcan0 00000001#208BE7 R
(278922.140000) vcan0 00000002#218CE8 R
(278922.382000) vcan0 00000001#228DE9 R
(278922.618000) vcan0 00000002#238EEA R
(278922.861000) vcan0 00000001#248FEB R
(278923.097000) vcan0 00000002#2590EC R
(278923.335000) vcan0 00000001#2691ED R
(278923.571000) vcan0 00000002#2792EE R
(278923.815000) vcan0 00000001#2893EF R
(278924.050000) vcan0 00000002#2994F0 R
(278924.292000) vcan0 00000001#2A95F1 R
(278924.528000) vcan0 00000002#2B96F2 R
(278924.772000) vcan0 00000001#2C97F3 R
(278925.007000) vcan0 00000002#2D98F4 R
(278925.249000) vcan0 00000001#2E99F5 R
(278925.485000) vcan0 00000002#2F9AF6 R
(278925.729000) vcan0 00000001#309BF7 R
(278925.965000) vcan0 00000002#319CF8 R
(278926.201000) vcan0 00000001#329DF9 R
(278926.441000) vcan0 00000002#339EFA R
(278926.685000) vcan0 00000001#349FFB R
(278926.921000) vcan0 00000002#35A0FC R
(278927.157000) vcan0 00000001#36A1FD R
(278927.398000) vcan0 00000002#37A2FE R
(278927.642000) vcan0 00000001#38A3FF R
(278927.878000) vcan0 00000002#39A400 R
(278928.114000) vcan0 00000001#3AA501 R
(278928.352000) vcan0 00000002#3BA602 R
(278928.587000) vcan0 00000001#3CA703 R
(278928.831000) vcan0 00000002#3DA804 R
(278929.067000) vcan0 00000001#3EA905 R
(278929.309000) vcan0 00000002#3FAA06 R
(278929.544000) vcan0 00000001#405507 R
(278929.788000) vcan0 00000002#415608 R
(278930.024000) vcan0 00000001#425709 R
(278930.266000) vcan0 00000002#43580A R
(278930.501000) vcan0 00000001#44590B R
(278930.745000) vcan0 00000002#455A0C R
(278930.981000) vcan0 00000001#465B0D R
(278931.219000) vcan0 00000002#475C0E R
(278931.455000) vcan0 00000001#485D0F R
(278931.699000) vcan0 00000002#495E10 R
(278931.934000) vcan0 00000001#4A5F11 R
(278932.170000) vcan0 00000002#4B6012 R
(278932.412000) vcan0 00000001#4C6113 R
(278932.656000) vcan0 00000002#4D6214 R
(278932.892000) vcan0 00000001#4E6315 R
(278933.128000) vcan0 00000002#4F6416 R
(278933.365000) vcan0 00000001#506517 R
(278933.601000) vcan0 00000002#516618 R
(278933.845000) vcan0 00000001#526719 R
(278934.081000) vcan0 00000002#53681A R
(278934.319000) vcan0 00000001#54691B R
(278934.555000) vcan0 00000002#006A1C R
(278934.798000) vcan0 00000001#016B1D R
(278935.034000) vcan0 00000002#026C1E R
(278935.276000) vcan0 00000001#036D1F R
(278935.511000) vcan0 00000002#046E20 R
(278935.755000) vcan0 00000001#056F21 R
(278935.991000) vcan0 00000002#067022 R
(278936.233000) vcan0 00000001#077123 R
(278936.468000) vcan0 00000002#087224 R
(278936.712000) vcan0 00000001#097325 R
(278936.948000) vcan0 00000002#0A7426 R
(278937.184000) vcan0 00000001#0B7527 R
(278937.425000) vcan0 00000002#0C7628 R
(278937.669000) vcan0 00000001#0D7729 R
(278937.905000) vcan0 00000002#0E782A R
(278938.140000) vcan0 00000001#0F792B R
(278938.382000) vcan0 00000002#107A2C R
(278938.618000) vcan0 00000001#117B2D R
(278938.861000) vcan0 00000002#127C2E R
(278939.097000) vcan0 00000001#137D2F R
(278939.335000) vcan0 00000002#147E30 R
(278939.571000) vcan0 00000001#157F31 R
(278939.815000) vcan0 00000002#168032 R
(278940.050000) vcan0 00000001#178133 R
(278940.292000) vcan0 00000002#188234 R
(278940.528000) vcan0 00000001#198335 R
(278940.771000) vcan0 00000002#1A8436 R
(278941.007000) vcan0 00000001#1B8537 R
(278941.249000) vcan0 00000002#1C8638 R
(278941.485000) vcan0 00000001#1D8739 R
(278941.729000) vcan0 00000002#1E883A R
(278941.964000) vcan0 00000001#1F893B R
(278942.201000) vcan0 00000002#208A3C R
(278942.441000) vcan0 00000001#218B3D R
(278942.685000) vcan0 00000002#228C3E R
(278942.921000) vcan0 00000001#238D3F R
(278943.157000) vcan0 00000002#248E40 R
(278943.398000) vcan0 00000001#258F41 R
(278943.642000) vcan0 00000002#269042 R
(278943.878000) vcan0 00000001#279143 R
(278944.113000) vcan0 00000002#289244 R
(278944.352000) vcan0 00000001#299345 R
(278944.587000) vcan0 00000002#2A9446 R
(278944.831000) vcan0 00000001#2B9547 R
(278945.067000) vcan0 00000002#2C9648 R
(278945.309000) vcan0 00000001#2D9749 R
(278945.544000) vcan0 00000002#2E984A R
(278945.788000) vcan0 00000001#2F994B R
(278946.024000) vcan0 00000002#309A4C R
(278946.266000) vcan0 00000001#319B4D R
(278946.501000) vcan0 00000002#329C4E R
(278946.745000) vcan0 00000001#339D4F R
(278946.981000) vcan0 00000002#349E50 R
(278947.219000) vcan0 00000001#359F51 R
(278947.455000) vcan0 00000002#36A052 R
(278947.699000) vcan0 00000001#37A153 R
(278947.934000) vcan0 00000002#38A254 R
(278948.170000) vcan0 00000001#39A355 R
(278948.412000) vcan0 00000002#3AA456 R
(278948.656000) vcan0 00000001#3BA557 R
(278948.892000) vcan0 00000002#3CA658 R
(278949.128000) vcan0 00000001#3DA759 R
(278949.365000) vcan0 00000002#3EA85A R
(278949.601000) vcan0 00000001#3FA95B R
(278949.845000) vcan0 00000002#40AA5C R
(278950.081000) vcan0 00000001#41555D R
(278950.319000) vcan0 00000002#42565E R
(278950.555000) vcan0 00000001#43575F R
(278950.798000) vcan0 00000002#445860 R
(278951.034000) vcan0 00000001#455961 R
(278951.276000) vcan0 00000002#465A62 R
(278951.511000) vcan0 00000001#475B63 R
(278951.755000) vcan0 00000002#485C64 R
(278951.991000) vcan0 00000001#495D65 R
(278952.233000) vcan0 00000002#4A5E66 R
(278952.468000) vcan0 00000001#4B5F67 R
(278952.712000) vcan0 00000002#4C6068 R
(278952.948000) vcan0 00000001#4D6169 R
(278953.184000) vcan0 00000002#4E626A R
(278953.425000) vcan0 00000001#4F636B R
(278953.669000) vcan0 00000002#50646C R
(278953.905000) vcan0 00000001#51656D R
(278954.140000) vcan0 00000002#52666E R
(278954.382000) vcan0 00000001#53676F R
(278954.618000) vcan0 00000002#546870 R
(278954.861000) vcan0 00000001#006971 R
(278955.097000) vcan0 00000002#016A72 R
(278955.335000) vcan0 00000001#026B73 R
(278955.571000) vcan0 00000002#036C74 R
(278955.815000) vcan0 00000001#046D75 R
(278956.050000) vcan0 00000002#056E76 R
(278956.292000) vcan0 00000001#066F77 R
(278956.528000) vcan0 00000002#077078 R
(278956.771000) vcan0 00000001#087179 R
(278957.007000) vcan0 00000002#09727A R
(278957.249000) vcan0 00000001#0A737B R
(278957.485000) vcan0 00000002#0B747C R
(278957.729000) vcan0 00000001#0C757D R
(278957.964000) vcan0 00000002#0D767E R
(278958.201000) vcan0 00000001#0E777F R
(278958.441000) vcan0 00000002#0F7880 R
(278958.685000) vcan0 00000001#107981 R
(278958.921000) vcan0 00000002#117A82 R
(278959.157000) vcan0 00000001#127B83 R
(278959.398000) vcan0 00000002#137C84 R
(278959.642000) vcan0 00000001#147D85 R
(278959.878000) vcan0 00000002#157E86 R
(278960.114000) vcan0 00000001#167F87 R
(278960.352000) vcan0 00000002#178088 R
(278960.587000) vcan0 00000001#188189 R
(278960.831000) vcan0 00000002#19828A R
(278961.067000) vcan0 00000001#1A838B R
(278961.308000) vcan0 00000002#1B848C R
(278961.544000) vcan0 00000001#1C858D R
(278961.788000) vcan0 00000002#1D868E R
(278962.023000) vcan0 00000001#1E878F R
(278962.265000) vcan0 00000002#1F8890 R
(278962.501000) vcan0 00000001#208991 R
(278962.745000) vcan0 00000002#218A92 R
(278962.981000) vcan0 00000001#228B93 R
(278963.219000) vcan0 00000002#238C94 R
(278963.455000) vcan0 00000001#248D95 R
(278963.699000) vcan0 00000002#258E96 R
(278963.935000) vcan0 00000001#268F97 R
(278964.170000) vcan0 00000002#279098 R
(278964.412000) vcan0 00000001#289199 R
(278964.656000) vcan0 00000002#29929A R
(278964.892000) vcan0 00000001#2A939B R
(278965.128000) vcan0 00000002#2B949C R
(278965.365000) vcan0 00000001#2C959D R
(278965.601000) vcan0 00000002#2D969E R
(278965.845000) vcan0 00000001#2E979F R
(278966.081000) vcan0 00000002#2F98A0 R
(278966.319000) vcan0 00000001#3099A1 R
(278966.555000) vcan0 00000002#319AA2 R
(278966.798000) vcan0 00000001#329BA3 R
(278967.034000) vcan0 00000002#339CA4 R
(278967.276000) vcan0 00000001#349DA5 R
(278967.511000) vcan0 00000002#359EA6 R
(278967.755000) vcan0 00000001#369FA7 R
(278967.991000) vcan0 00000002#37A0A8 R
(278968.233000) vcan0 00000001#38A1A9 R
(278968.468000) vcan0 00000002#39A2AA R
(278968.712000) vcan0 00000001#3AA3AB R
(278968.948000) vcan0 00000002#3BA4AC R
(278969.184000) vcan0 00000001#3CA5AD R
(278969.425000) vcan0 00000002#3DA6AE R
(278969.669000) vcan0 00000001#3EA7AF R
(278969.905000) vcan0 00000002#3FA8B0 R
(278970.140000) vcan0 00000001#40A9B1 R
(278970.382000) vcan0 00000002#41AAB2 R
(278970.618000) vcan0 00000001#4255B3 R
(278970.861000) vcan0 00000002#4356B4 R
(278971.097000) vcan0 00000001#4457B5 R
(278971.335000) vcan0 00000002#4558B6 R
(278971.571000) vcan0 00000001#4659B7 R
(278971.815000) vcan0 00000002#475AB8 R
(278972.050000) vcan0 00000001#485BB9 R
(278972.292000) vcan0 00000002#495CBA R
(278972.528000) vcan0 00000001#4A5DBB R
(278972.771000) vcan0 00000002#4B5EBC R
(278973.007000) vcan0 00000001#4C5FBD R
(278973.249000) vcan0 00000002#4D60BE R
(278973.485000) vcan0 00000001#4E61BF R
(278973.729000) vcan0 00000002#4F62C0 R
(278973.965000) vcan0 00000001#5063C1 R
(278974.201000) vcan0 00000002#5164C2 R
(278974.441000) vcan0 00000001#5265C3 R
(278974.685000) vcan0 00000002#5366C4 R
(278974.921000) vcan0 00000001#5467C5 R
(278975.157000) vcan0 00000002#0068C6 R
(278975.398000) vcan0 00000001#0169C7 R
(278975.642000) vcan0 00000002#026AC8 R
(278975.878000) vcan0 00000001#036BC9 R
(278976.113000) vcan0 00000002#046CCA R
(278976.352000) vcan0 00000001#056DCB R
(278976.587000) vcan0 00000002#066ECC R
(278976.831000) vcan0 00000001#076FCD R
(278977.067000) vcan0 00000002#0870CE R
(278977.309000) vcan0 00000001#0971CF R
(278977.545000) vcan0 00000002#0A72D0 R
(278977.788000) vcan0 00000001#0B73D1 R
(278978.024000) vcan0 00000002#0C74D2 R
(278978.265000) vcan0 00000001#0D75D3 R
(278978.501000) vcan0 00000002#0E76D4 R
(278978.745000) vcan0 00000001#0F77D5 R
(278978.981000) vcan0 00000002#1078D6 R
(278979.219000) vcan0 00000001#1179D7 R
(278979.455000) vcan0 00000002#127AD8 R
(278979.698000) vcan0 00000001#137BD9 R
(278979.934000) vcan0 00000002#147CDA R
(278980.170000) vcan0 00000001#157DDB R
(278980.412000) vcan0 00000002#167EDC R
(278980.656000) vcan0 00000001#177FDD R
(278980.891000) vcan0 00000002#1880DE R
(278981.127000) vcan0 00000001#1981DF R
(278981.366000) vcan0 00000002#1A82E0 R
(278981.601000) vcan0 00000001#1B83E1 R
(278981.845000) vcan0 00000002#1C84E2 R
(278982.081000) vcan0 00000001#1D85E3 R
(278982.318000) vcan0 00000002#1E86E4 R
(278982.554000) vcan0 00000001#1F87E5 R
(278982.798000) vcan0 00000002#2088E6 R
(278983.034000) vcan0 00000001#2189E7 R
(278983.276000) vcan0 00000002#228AE8 R
(278983.511000) vcan0 00000001#238BE9 R
(278983.755000) vcan0 00000002#248CEA R
(278983.991000) vcan0 00000001#258DEB R
(278984.233000) vcan0 00000002#268EEC R
(278984.468000) vcan0 00000001#278FED R
(278984.712000) vcan0 00000002#2890EE R
(278984.948000) vcan0 00000001#2991EF R
(278985.184000) vcan0 00000002#2A92F0 R
(278985.425000) vcan0 00000001#2B93F1 R
(278985.669000) vcan0 00000002#2C94F2 R
(278985.905000) vcan0 00000001#2D95F3 R
(278986.140000) vcan0 00000002#2E96F4 R
(278986.382000) vcan0 00000001#2F97F5 R
(278986.618000) vcan0 00000002#3098F6 R
(278986.862000) vcan0 00000001#3199F7 R
(278987.097000) vcan0 00000002#329AF8 R
(278987.335000) vcan0 00000001#339BF9 R
(278987.571000) vcan0 00000002#349CFA R
(278987.815000) vcan0 00000001#359DFB R
(278988.051000) vcan0 00000002#369EFC R
(278988.293000) vcan0 00000001#379FFD R
(278988.529000) vcan0 00000002#38A0FE R
(278988.772000) vcan0 00000001#39A1FF R
(278989.008000) vcan0 00000002#3AA200 R
(278989.249000) vcan0 00000001#3BA301 R
(278989.485000) vcan0 00000002#3CA402 R
(278989.729000) vcan0 00000001#3DA503 R
(278989.964000) vcan0 00000002#3EA604 R
(278990.201000) vcan0 00000001#3FA705 R
(278990.441000) vcan0 00000002#40A806 R
(278990.685000) vcan0 00000001#41A907 R
(278990.921000) vcan0 00000002#42AA08 R
(278991.157000) vcan0 00000001#435509 R
(278991.398000) vcan0 00000002#44560A R
(278991.642000) vcan0 00000001#45570B R
(278991.878000) vcan0 00000002#46580C R
(278992.113000) vcan0 00000001#47590D R
(278992.352000) vcan0 00000002#485A0E R
(278992.587000) vcan0 00000001#495B0F R
(278992.831000) vcan0 00000002#4A5C10 R
(278993.067000) vcan0 00000001#4B5D11 R
(278993.308000) vcan0 00000002#4C5E12 R
(278993.544000) vcan0 00000001#4D5F13 R
(278993.788000) vcan0 00000002#4E6014 R
(278994.023000) vcan0 00000001#4F6115 R
(278994.265000) vcan0 00000002#506216 R
(278994.501000) vcan0 00000001#516317 R
(278994.745000) vcan0 00000002#526418 R
(278994.981000) vcan0 00000001#536519 R
(278995.219000) vcan0 00000002#54661A R
(278995.455000) vcan0 00000001#00671B R
(278995.698000) vcan0 00000002#01681C R
(278995.934000) vcan0 00000001#02691D R
(278996.170000) vcan0 00000002#036A1E R
(278996.412000) vcan0 00000001#046B1F R
(278996.656000) vcan0 00000002#056C20 R
(278996.892000) vcan0 00000001#066D21 R
(278997.127000) vcan0 00000002#076E22 R
(278997.365000) vcan0 00000001#086F23 R
(278997.601000) vcan0 00000002#097024 R
(278997.845000) vcan0 00000001#0A7125 R
(278998.081000) vcan0 00000002#0B7226 R
(278998.319000) vcan0 00000001#0C7327 R
(278998.555000) vcan0 00000002#0D7428 R
(278998.798000) vcan0 00000001#0E7529 R
(278999.034000) vcan0 00000002#0F762A R
(278999.276000) vcan0 00000001#10772B R
(278999.511000) vcan0 00000002#11782C R
(278999.755000) vcan0 00000001#12792D R
(278999.991000) vcan0 00000002#137A2E R
(279000.233000) vcan0 00000001#147B2F R
(279000.468000) vcan0 00000002#157C30 R
(279000.712000) vcan0 00000001#167D31 R
(279000.948000) vcan0 00000002#177E32 R
(279001.184000) vcan0 00000001#187F33 R
(279001.425000) vcan0 00000002#198034 R
(279001.669000) vcan0 00000001#1A8135 R
(279001.905000) vcan0 00000002#1B8236 R
(279002.140000) vcan0 00000001#1C8337 R
(279002.382000) vcan0 00000002#1D8438 R
(279002.618000) vcan0 00000001#1E8539 R
(279002.861000) vcan0 00000002#1F863A R
(279003.097000) vcan0 00000001#20873B R
(279003.335000) vcan0 00000002#21883C R
(279003.571000) vcan0 00000001#22893D R
(279003.815000) vcan0 00000002#238A3E R
(279004.050000) vcan0 00000001#248B3F R
(279004.292000) vcan0 00000002#258C40 R
(279004.528000) vcan0 00000001#268D41 R
(279004.771000) vcan0 00000002#278E42 R
(279005.007000) vcan0 00000001#288F43 R
(279005.249000) vcan0 00000002#299044 R
(279005.485000) vcan0 00000001#2A9145 R
(279005.729000) vcan0 00000002#2B9246 R
(279005.964000) vcan0 00000001#2C9347 R
(279006.201000) vcan0 00000002#2D9448 R
(279006.441000) vcan0 00000001#2E9549 R
(279006.685000) vcan0 00000002#2F964A R
(279006.921000) vcan0 00000001#30974B R
(279007.157000) vcan0 00000002#31984C R
(279007.398000) vcan0 00000001#32994D R
(279007.642000) vcan0 00000002#339A4E R
(279007.878000) vcan0 00000001#349B4F R
(279008.113000) vcan0 00000002#359C50 R
(279008.352000) vcan0 00000001#369D51 R
(279008.587000) vcan0 00000002#379E52 R
(279008.831000) vcan0 00000001#389F53 R
(279009.067000) vcan0 00000002#39A054 R
(279009.309000) vcan0 00000001#3AA155 R
(279009.544000) vcan0 00000002#3BA256 R
(279009.788000) vcan0 00000001#3CA357 R
(279010.024000) vcan0 00000002#3DA458 R
(279010.266000) vcan0 00000001#3EA559 R
(279010.501000) vcan0 00000002#3FA65A R
(279010.745000) vcan0 00000001#40A75B R
(279010.981000) vcan0 00000002#41A85C R
(279011.219000) vcan0 00000001#42A95D R
(279011.455000) vcan0 00000002#43AA5E R
(279011.699000) vcan0 00000001#44555F R
(279011.934000) vcan0 00000002#455660 R
(279012.170000) vcan0 00000001#465761 R
(279012.412000) vcan0 00000002#475862 R
(279012.656000) vcan0 00000001#485963 R
(279012.892000) vcan0 00000002#495A64 R
(279013.128000) vcan0 00000001#4A5B65 R
(279013.365000) vcan0 00000002#4B5C66 R
(279013.601000) vcan0 00000001#4C5D67 R
(279013.845000) vcan0 00000002#4D5E68 R
(279014.081000) vcan0 00000001#4E5F69 R
(279014.319000) vcan0 00000002#4F606A R
(279014.555000) vcan0 00000001#50616B R
(279014.798000) vcan0 00000002#51626C R
(279015.034000) vcan0 00000001#52636D R
(279015.276000) vcan0 00000002#53646E R
(279015.511000) vcan0 00000001#54656F R
(279015.755000) vcan0 00000002#006670 R
(279015.991000) vcan0 00000001#016771 R
(279016.233000) vcan0 00000002#026872 R
(279016.468000) vcan0 00000001#036973 R
(279016.712000) vcan0 00000002#046A74 R
(279016.948000) vcan0 00000001#056B75 R
(279017.184000) vcan0 00000002#066C76 R
(279017.425000) vcan0 00000001#076D77 R
(279017.669000) vcan0 00000002#086E78 R
(279017.905000) vcan0 00000001#096F79 R
(279018.140000) vcan0 00000002#0A707A R
(279018.382000) vcan0 00000001#0B717B R
(279018.618000) vcan0 00000002#0C727C R
(279018.861000) vcan0 00000001#0D737D R
(279019.097000) vcan0 00000002#0E747E R
(279019.335000) vcan0 00000001#0F757F R
(279019.571000) vcan0 00000002#107680 R
(279019.815000) vcan0 00000001#117781 R
(279020.050000) vcan0 00000002#127882 R
(279020.292000) vcan0 00000001#137983 R
(279020.528000) vcan0 00000002#147A84 R
(279020.771000) vcan0 00000001#157B85 R
(279021.007000) vcan0 00000002#167C86 R
(279021.249000) vcan0 00000001#177D87 R
(279021.485000) vcan0 00000002#187E88 R
(279021.729000) vcan0 00000001#197F89 R
(279021.964000) vcan0 00000002#1A808A R
(279022.201000) vcan0 00000001#1B818B R
(279022.441000) vcan0 00000002#1C828C R
(279022.685000) vcan0 00000001#1D838D R
(279022.921000) vcan0 00000002#1E848E R
(279023.157000) vcan0 00000001#1F858F R
(279023.398000) vcan0 00000002#208690 R
(279023.642000) vcan0 00000001#218791 R
(279023.878000) vcan0 00000002#228892 R
(279024.114000) vcan0 00000001#238993 R
(279024.352000) vcan0 00000002#248A94 R
(279024.587000) vcan0 00000001#258B95 R
(279024.831000) vcan0 00000002#268C96 R
(279025.067000) vcan0 00000001#278D97 R
(279025.308000) vcan0 00000002#288E98 R
(279025.544000) vcan0 00000001#298F99 R
(279025.788000) vcan0 00000002#2A909A R
(279026.023000) vcan0 00000001#2B919B R
(279026.265000) vcan0 00000002#2C929C R
(279026.501000) vcan0 00000001#2D939D R
(279026.745000) vcan0 00000002#2E949E R
(279026.981000) vcan0 00000001#2F959F R
(279027.219000) vcan0 00000002#3096A0 R
(279027.455000) vcan0 00000001#3197A1 R
(279027.699000) vcan0 00000002#3298A2 R
(279027.935000) vcan0 00000001#3399A3 R
(279028.170000) vcan0 00000002#349AA4 R
(279028.412000) vcan0 00000001#359BA5 R
(279028.656000) vcan0 00000002#369CA6 R
(279028.892000) vcan0 00000001#379DA7 R
(279029.128000) vcan0 00000002#389EA8 R
(279029.365000) vcan0 00000001#399FA9 R
(279029.601000) vcan0 00000002#3AA0AA R
(279029.845000) vcan0 00000001#3BA1AB R
(279030.081000) vcan0 00000002#3CA2AC R
(279030.319000) vcan0 00000001#3DA3AD R
(279030.555000) vcan0 00000002#3EA4AE R
(279030.798000) vcan0 00000001#3FA5AF R
(279031.034000) vcan0 00000002#40A6B0 R
(279031.276000) vcan0 00000001#41A7B1 R
(279031.511000) vcan0 00000002#42A8B2 R
(279031.755000) vcan0 00000001#43A9B3 R
(279031.991000) vcan0 00000002#44AAB4 R
(279032.233000) vcan0 00000001#4555B5 R
(279032.468000) vcan0 00000002#4656B6 R
(279032.712000) vcan0 00000001#4757B7 R
(279032.948000) vcan0 00000002#4858B8 R
(279033.184000) vcan0 00000001#4959B9 R
(279033.425000) vcan0 00000002#4A5ABA R
(279033.669000) vcan0 00000001#4B5BBB R
(279033.905000) vcan0 00000002#4C5CBC R
(279034.140000) vcan0 00000001#4D5DBD R
(279034.382000) vcan0 00000002#4E5EBE R
(279034.618000) vcan0 00000001#4F5FBF R
(279034.861000) vcan0 00000002#5060C0 R
(279035.097000) vcan0 00000001#5161C1 R
(279035.335000) vcan0 00000002#5262C2 R
(279035.571000) vcan0 00000001#5363C3 R
(279035.815000) vcan0 00000002#5464C4 R
(279036.050000) vcan0 00000001#0065C5 R
(279036.292000) vcan0 00000002#0166C6 R
(279036.528000) vcan0 00000001#0267C7 R
(279036.771000) vcan0 00000002#0368C8 R
(279037.007000) vcan0 00000001#0469C9 R
(279037.249000) vcan0 00000002#056ACA R
(279037.485000) vcan0 00000001#066BCB R
(279037.729000) vcan0 00000002#076CCC R
(279037.964000) vcan0 00000001#086DCD R
(279038.201000) vcan0 00000002#096ECE R
(279038.441000) vcan0 00000001#0A6FCF R
(279038.685000) vcan0 00000002#0B70D0 R
(279038.921000) vcan0 00000001#0C71D1 R
(279039.157000) vcan0 00000002#0D72D2 R
(279039.398000) vcan0 00000001#0E73D3 R
(279039.642000) vcan0 00000002#0F74D4 R
(279039.877000) vcan0 00000001#1075D5 R
(279040.113000) vcan0 00000002#1176D6 R
(279040.351000) vcan0 00000001#1277D7 R
(279040.587000) vcan0 00000002#1378D8 R
(279040.831000) vcan0 00000001#1479D9 R
(279041.067000) vcan0 00000002#157ADA R
(279041.308000) vcan0 00000001#167BDB R
(279041.544000) vcan0 00000002#177CDC R
(279041.788000) vcan0 00000001#187DDD R
(279042.024000) vcan0 00000002#197EDE R
(279042.265000) vcan0 00000001#1A7FDF R
(279042.501000) vcan0 00000002#1B80E0 R
(279042.745000) vcan0 00000001#1C81E1 R
(279042.981000) vcan0 00000002#1D82E2 R
(279043.219000) vcan0 00000001#1E83E3 R
(279043.455000) vcan0 00000002#1F84E4 R
(279043.698000) vcan0 00000001#2085E5 R
(279043.934000) vcan0 00000002#2186E6 R
(279044.170000) vcan0 00000001#2287E7 R
(279044.412000) vcan0 00000002#2388E8 R
(279044.656000) vcan0 00000001#2489E9 R
(279044.891000) vcan0 00000002#258AEA R
(279045.127000) vcan0 00000001#268BEB R
(279045.366000) vcan0 00000002#278CEC R
(279045.601000) vcan0 00000001#288DED R
(279045.845000) vcan0 00000002#298EEE R
(279046.081000) vcan0 00000001#2A8FEF R
(279046.318000) vcan0 00000002#2B90F0 R
(279046.554000) vcan0 00000001#2C91F1 R
(279046.798000) vcan0 00000002#2D92F2 R
(279047.034000) vcan0 00000001#2E93F3 R
(279047.276000) vcan0 00000002#2F94F4 R
(279047.511000) vcan0 00000001#3095F5 R
(279047.755000) vcan0 00000002#3196F6 R
(279047.991000) vcan0 00000001#3297F7 R
(279048.233000) vcan0 00000002#3398F8 R
(279048.468000) vcan0 00000001#3499F9 R
(279048.712000) vcan0 00000002#359AFA R
(279048.948000) vcan0 00000001#369BFB R
(279049.184000) vcan0 00000002#379CFC R
(279049.425000) vcan0 00000001#389DFD R
(279049.669000) vcan0 00000002#399EFE R
(279049.905000) vcan0 00000001#3A9FFF R
(279050.140000) vcan0 00000002#3BA000 R
(279050.382000) vcan0 00000001#3CA101 R
(279050.618000) vcan0 00000002#3DA202 R
(279050.862000) vcan0 00000001#3EA303 R
(279051.097000) vcan0 00000002#3FA404 R
(279051.335000) vcan0 00000001#40A505 R
(279051.571000) vcan0 00000002#41A606 R
(279051.815000) vcan0 00000001#42A707 R
(279052.051000) vcan0 00000002#43A808 R
(279052.293000) vcan0 00000001#44A909 R
(279052.529000) vcan0 00000002#45AA0A R
(279052.772000) vcan0 00000001#46550B R
(279053.008000) vcan0 00000002#47560C R
(279053.249000) vcan0 00000001#48570D R
(279053.485000) vcan0 00000002#49580E R
(279053.729000) vcan0 00000001#4A590F R
(279053.964000) vcan0 00000002#4B5A10 R
(279054.201000) vcan0 00000001#4C5B11 R
(279054.441000) vcan0 00000002#4D5C12 R
(279054.685000) vcan0 00000001#4E5D13 R
(279054.921000) vcan0 00000002#4F5E14 R
(279055.157000) vcan0 00000001#505F15 R
(279055.398000) vcan0 00000002#516016 R
(279055.642000) vcan0 00000001#526117 R
(279055.878000) vcan0 00000002#536218 R
(279056.113000) vcan0 00000001#546319 R
(279056.352000) vcan0 00000002#00641A R
(279056.587000) vcan0 00000001#01651B R
(279056.831000) vcan0 00000002#02661C R
(279057.067000) vcan0 00000001#03671D R
(279057.309000) vcan0 00000002#04681E R
(279057.544000) vcan0 00000001#05691F R
(279057.788000) vcan0 00000002#066A20 R
(279058.024000) vcan0 00000001#076B21 R
(279058.266000) vcan0 00000002#086C22 R
(279058.501000) vcan0 00000001#096D23 R
(279058.745000) vcan0 00000002#0A6E24 R
(279058.981000) vcan0 00000001#0B6F25 R
(279059.219000) vcan0 00000002#0C7026 R
(279059.455000) vcan0 00000001#0D7127 R
(279059.699000) vcan0 00000002#0E7228 R
(279059.934000) vcan0 00000001#0F7329 R
(279060.170000) vcan0 00000002#10742A R
(279060.412000) vcan0 00000001#11752B R
(279060.656000) vcan0 00000002#12762C R
(279060.892000) vcan0 00000001#13772D R
(279061.127000) vcan0 00000002#14782E R
(279061.366000) vcan0 00000001#15792F R
(279061.601000) vcan0 00000002#167A30 R
(279061.845000) vcan0 00000001#177B31 R
(279062.081000) vcan0 00000002#187C32 R
(279062.318000) vcan0 00000001#197D33 R
(279062.554000) vcan0 00000002#1A7E34 R
(279062.798000) vcan0 00000001#1B7F35 R
(279063.034000) vcan0 00000002#1C8036 R
(279063.276000) vcan0 00000001#1D8137 R
(279063.511000) vcan0 00000002#1E8238 R
(279063.755000) vcan0 00000001#1F8339 R
(279063.991000) vcan0 00000002#20843A R
(279064.233000) vcan0 00000001#21853B R
(279064.468000) vcan0 00000002#22863C R
(279064.712000) vcan0 00000001#23873D R
(279064.948000) vcan0 00000002#24883E R
(279065.184000) vcan0 00000001#25893F R
(279065.425000) vcan0 00000002#268A40 R
(279065.669000) vcan0 00000001#278B41 R
(279065.905000) vcan0 00000002#288C42 R
(279066.140000) vcan0 00000001#298D43 R
(279066.382000) vcan0 00000002#2A8E44 R
(279066.618000) vcan0 00000001#2B8F45 R
(279066.861000) vcan0 00000002#2C9046 R
(279067.097000) vcan0 00000001#2D9147 R
(279067.335000) vcan0 00000002#2E9248 R
(279067.571000) vcan0 00000001#2F9349 R
(279067.815000) vcan0 00000002#30944A R
(279068.050000) vcan0 00000001#31954B R
(279068.292000) vcan0 00000002#32964C R
(279068.528000) vcan0 00000001#33974D R
(279068.771000) vcan0 00000002#34984E R
(279069.007000) vcan0 00000001#35994F R
(279069.249000) vcan0 00000002#369A50 R
(279069.485000) vcan0 00000001#379B51 R
(279069.729000) vcan0 00000002#389C52 R
(279069.964000) vcan0 00000001#399D53 R
(279070.201000) vcan0 00000002#3A9E54 R
(279070.441000) vcan0 00000001#3B9F55 R
(279070.685000) vcan0 00000002#3CA056 R
(279070.921000) vcan0 00000001#3DA157 R
(279071.157000) vcan0 00000002#3EA258 R
(279071.398000) vcan0 00000001#3FA359 R
(279071.642000) vcan0 00000002#40A45A R
(279071.878000) vcan0 00000001#41A55B R
(279072.113000) vcan0 00000002#42A65C R
(279072.352000) vcan0 00000001#43A75D R
(279072.587000) vcan0 00000002#44A85E R
(279072.831000) vcan0 00000001#45A95F R
(279073.067000) vcan0 00000002#46AA60 R
(279073.309000) vcan0 00000001#475561 R
(279073.544000) vcan0 00000002#485662 R
(279073.788000) vcan0 00000001#495763 R
(279074.024000) vcan0 00000002#4A5864 R
(279074.266000) vcan0 00000001#4B5965 R
(279074.501000) vcan0 00000002#4C5A66 R
(279074.745000) vcan0 00000001#4D5B67 R
(279074.981000) vcan0 00000002#4E5C68 R
(279075.219000) vcan0 00000001#4F5D69 R
(279075.455000) vcan0 00000002#505E6A R
(279075.699000) vcan0 00000001#515F6B R
(279075.934000) vcan0 00000002#52606C R
(279076.170000) vcan0 00000001#53616D R
(279076.412000) vcan0 00000002#54626E R
(279076.656000) vcan0 00000001#00636F R
(279076.892000) vcan0 00000002#016470 R
(279077.128000) vcan0 00000001#026571 R
(279077.365000) vcan0 00000002#036672 R
(279077.601000) vcan0 00000001#046773 R
(279077.845000) vcan0 00000002#056874 R
(279078.081000) vcan0 00000001#066975 R
(279078.319000) vcan0 00000002#076A76 R
(279078.555000) vcan0 00000001#086B77 R
(279078.798000) vcan0 00000002#096C78 R
(279079.034000) vcan0 00000001#0A6D79 R
(279079.276000) vcan0 00000002#0B6E7A R
(279079.511000) vcan0 00000001#0C6F7B R
(279079.755000) vcan0 00000002#0D707C R
(279079.991000) vcan0 00000001#0E717D R
(279080.233000) vcan0 00000002#0F727E R
(279080.468000) vcan0 00000001#10737F R
(279080.712000) vcan0 00000002#117480 R
(279080.948000) vcan0 00000001#127581 R
(279081.184000) vcan0 00000002#137682 R
(279081.425000) vcan0 00000001#147783 R
(279081.669000) vcan0 00000002#157884 R
(279081.905000) vcan0 00000001#167985 R
(279082.140000) vcan0 00000002#177A86 R
(279082.382000) vcan0 00000001#187B87 R
(279082.618000) vcan0 00000002#197C88 R
(279082.861000) vcan0 00000001#1A7D89 R
(279083.097000) vcan0 00000002#1B7E8A R
(279083.335000) vcan0 00000001#1C7F8B R
(279083.571000) vcan0 00000002#1D808C R
(279083.815000) vcan0 00000001#1E818D R
(279084.050000) vcan0 00000002#1F828E R
(279084.292000) vcan0 00000001#20838F R
(279084.528000) vcan0 00000002#218490 R
(279084.771000) vcan0 00000001#228591 R
(279085.007000) vcan0 00000002#238692 R
(279085.249000) vcan0 00000001#248793 R
(279085.485000) vcan0 00000002#258894 R
(279085.729000) vcan0 00000001#268995 R
(279085.964000) vcan0 00000002#278A96 R
(279086.201000) vcan0 00000001#288B97 R
(279086.441000) vcan0 00000002#298C98 R
(279086.685000) vcan0 00000001#2A8D99 R
(279086.921000) vcan0 00000002#2B8E9A R
(279087.157000) vcan0 00000001#2C8F9B R
(279087.398000) vcan0 00000002#2D909C R
(279087.642000) vcan0 00000001#2E919D R
(279087.878000) vcan0 00000002#2F929E R
(279088.114000) vcan0 00000001#30939F R
(279088.352000) vcan0 00000002#3194A0 R
(279088.587000) vcan0 00000001#3295A1 R
(279088.831000) vcan0 00000002#3396A2 R
(279089.067000) vcan0 00000001#3497A3 R
(279089.308000) vcan0 00000002#3598A4 R
(279089.544000) vcan0 00000001#3699A5 R
(279089.788000) vcan0 00000002#379AA6 R
(279090.023000) vcan0 00000001#389BA7 R
(279090.265000) vcan0 00000002#399CA8 R
(279090.501000) vcan0 00000001#3A9DA9 R
(279090.745000) vcan0 00000002#3B9EAA R
(279090.981000) vcan0 00000001#3C9FAB R
(279091.219000) vcan0 00000002#3DA0AC R
(279091.455000) vcan0 00000001#3EA1AD R
(279091.699000) vcan0 00000002#3FA2AE R
(279091.935000) vcan0 00000001#40A3AF R
(279092.170000) vcan0 00000002#41A4B0 R
(279092.412000) vcan0 00000001#42A5B1 R
(279092.656000) vcan0 00000002#43A6B2 R
(279092.892000) vcan0 00000001#44A7B3 R
(279093.128000) vcan0 00000002#45A8B4 R
(279093.365000) vcan0 00000001#46A9B5 R
(279093.601000) vcan0 00000002#47AAB6 R
(279093.845000) vcan0 00000001#4855B7 R
(279094.081000) vcan0 00000002#4956B8 R
(279094.319000) vcan0 00000001#4A57B9 R
(279094.555000) vcan0 00000002#4B58BA R
(279094.798000) vcan0 00000001#4C59BB R
(279095.034000) vcan0 00000002#4D5ABC R
(279095.276000) vcan0 00000001#4E5BBD R
(279095.511000) vcan0 00000002#4F5CBE R
(279095.755000) vcan0 00000001#505DBF R
(279095.991000) vcan0 00000002#515EC0 R
(279096.233000) vcan0 00000001#525FC1 R
(279096.468000) vcan0 00000002#5360C2 R
(279096.712000) vcan0 00000001#5461C3 R
(279096.948000) vcan0 00000002#0062C4 R
(279097.184000) vcan0 00000001#0163C5 R
(279097.425000) vcan0 00000002#0264C6 R
(279097.669000) vcan0 00000001#0365C7 R
(279097.905000) vcan0 00000002#0466C8 R
(279098.140000) vcan0 00000001#0567C9 R
(279098.382000) vcan0 00000002#0668CA R
(279098.618000) vcan0 00000001#0769CB R
(279098.861000) vcan0 00000002#086ACC R
(279099.097000) vcan0 00000001#096BCD R
(279099.335000) vcan0 00000002#0A6CCE R
(279099.571000) vcan0 00000001#0B6DCF R
(279099.815000) vcan0 00000002#0C6ED0 R
(279100.050000) vcan0 00000001#0D6FD1 R
(279100.292000) vcan0 00000002#0E70D2 R
(279100.528000) vcan0 00000001#0F71D3 R
(279100.771000) vcan0 00000002#1072D4 R
(279101.007000) vcan0 00000001#1173D5 R
(279101.249000) vcan0 00000002#1274D6 R
(279101.485000) vcan0 00000001#1375D7 R
(279101.729000) vcan0 00000002#1476D8 R
(279101.964000) vcan0 00000001#1577D9 R
(279102.201000) vcan0 00000002#1678DA R
(279102.441000) vcan0 00000001#1779DB R
(279102.685000) vcan0 00000002#187ADC R
(279102.921000) vcan0 00000001#197BDD R
(279103.157000) vcan0 00000002#1A7CDE R
(279103.398000) vcan0 00000001#1B7DDF R
(279103.642000) vcan0 00000002#1C7EE0 R
(279103.878000) vcan0 00000001#1D7FE1 R
(279104.113000) vcan0 00000002#1E80E2 R
(279104.352000) vcan0 00000001#1F81E3 R
(279104.587000) vcan0 00000002#2082E4 R
(279104.831000) vcan0 00000001#2183E5 R
(279105.067000) vcan0 00000002#2284E6 R
(279105.309000) vcan0 00000001#2385E7 R
(279105.544000) vcan0 00000002#2486E8 R
(279105.788000) vcan0 00000001#2587E9 R
(279106.024000) vcan0 00000002#2688EA R
(279106.266000) vcan0 00000001#2789EB R
(279106.501000) vcan0 00000002#288AEC R
(279106.745000) vcan0 00000001#298BED R
(279106.981000) vcan0 00000002#2A8CEE R
(279107.219000) vcan0 00000001#2B8DEF R
(279107.455000) vcan0 00000002#2C8EF0 R
(279107.699000) vcan0 00000001#2D8FF1 R
(279107.934000) vcan0 00000002#2E90F2 R
(279108.170000) vcan0 00000001#2F91F3 R
(279108.412000) vcan0 00000002#3092F4 R
(279108.656000) vcan0 00000001#3193F5 R
(279108.892000) vcan0 00000002#3294F6 R
(279109.128000) vcan0 00000001#3395F7 R
(279109.365000) vcan0 00000002#3496F8 R
(279109.601000) vcan0 00000001#3597F9 R
(279109.845000) vcan0 00000002#3698FA R
(279110.081000) vcan0 00000001#3799FB R
(279110.319000) vcan0 00000002#389AFC R
(279110.555000) vcan0 00000001#399BFD R
(279110.798000) vcan0 00000002#3A9CFE R
(279111.034000) vcan0 00000001#3B9DFF R
(279111.276000) vcan0 00000002#3C9E00 R
(279111.511000) vcan0 00000001#3D9F01 R
(279111.755000) vcan0 00000002#3EA002 R
(279111.991000) vcan0 00000001#3FA103 R
(279112.233000) vcan0 00000002#40A204 R
(279112.468000) vcan0 00000001#41A305 R
(279112.712000) vcan0 00000002#42A406 R
(279112.948000) vcan0 00000001#43A507 R
(279113.184000) vcan0 00000002#44A608 R
(279113.425000) vcan0 00000001#45A709 R
(279113.669000) vcan0 00000002#46A80A R
(279113.905000) vcan0 00000001#47A90B R
(279114.140000) vcan0 00000002#48AA0C R
(279114.382000) vcan0 00000001#49550D R
(279114.618000) vcan0 00000002#4A560E R
(279114.861000) vcan0 00000001#4B570F R
(279115.097000) vcan0 00000002#4C5810 R
(279115.335000) vcan0 00000001#4D5911 R
(279115.571000) vcan0 00000002#4E5A12 R
(279115.815000) vcan0 00000001#4F5B13 R
(279116.050000) vcan0 00000002#505C14 R
(279116.292000) vcan0 00000001#515D15 R
(279116.528000) vcan0 00000002#525E16 R
(279116.772000) vcan0 00000001#535F17 R
(279117.007000) vcan0 00000002#546018 R
(279117.249000) vcan0 00000001#006119 R
(279117.485000) vcan0 00000002#01621A R
(279117.729000) vcan0 00000001#02631B R
(279117.965000) vcan0 00000002#03641C R
(279118.201000) vcan0 00000001#04651D R
(279118.441000) vcan0 00000002#05661E R
(279118.685000) vcan0 00000001#06671F R
(279118.921000) vcan0 00000002#076820 R
(279119.157000) vcan0 00000001#086921 R
(279119.398000) vcan0 00000002#096A22 R
(279119.642000) vcan0 00000001#0A6B23 R
(279119.878000) vcan0 00000002#0B6C24 R
(279120.113000) vcan0 00000001#0C6D25 R
(279120.352000) vcan0 00000002#0D6E26 R
(279120.587000) vcan0 00000001#0E6F27 R
(279120.831000) vcan0 00000002#0F7028 R
(279121.067000) vcan0 00000001#107129 R
(279121.309000) vcan0 00000002#11722A R
(279121.544000) vcan0 00000001#12732B R
(279121.788000) vcan0 00000002#13742C R
(279122.024000) vcan0 00000001#14752D R
(279122.266000) vcan0 00000002#15762E R
(279122.501000) vcan0 00000001#16772F R
(279122.745000) vcan0 00000002#177830 R
(279122.981000) vcan0 00000001#187931 R
(279123.219000) vcan0 00000002#197A32 R
(279123.455000) vcan0 00000001#1A7B33 R
(279123.699000) vcan0 00000002#1B7C34 R
(279123.934000) vcan0 00000001#1C7D35 R
(279124.170000) vcan0 00000002#1D7E36 R
(279124.412000) vcan0 00000001#1E7F37 R
(279124.656000) vcan0 00000002#1F8038 R
(279124.892000) vcan0 00000001#208139 R
(279125.128000) vcan0 00000002#21823A R
(279125.365000) vcan0 00000001#22833B R
(279125.601000) vcan0 00000002#23843C R
(279125.845000) vcan0 00000001#24853D R
(279126.081000) vcan0 00000002#25863E R
(279126.319000) vcan0 00000001#26873F R
(279126.555000) vcan0 00000002#278840 R
(279126.798000) vcan0 00000001#288941 R
(279127.034000) vcan0 00000002#298A42 R
(279127.276000) vcan0 00000001#2A8B43 R
(279127.511000) vcan0 00000002#2B8C44 R
(279127.755000) vcan0 00000001#2C8D45 R
(279127.991000) vcan0 00000002#2D8E46 R
(279128.233000) vcan0 00000001#2E8F47 R
(279128.468000) vcan0 00000002#2F9048 R
(279128.712000) vcan0 00000001#309149 R
(279128.948000) vcan0 00000002#31924A R
(279129.184000) vcan0 00000001#32934B R
(279129.425000) vcan0 00000002#33944C R
(279129.669000) vcan0 00000001#34954D R
(279129.905000) vcan0 00000002#35964E R
(279130.140000) vcan0 00000001#36974F R
(279130.382000) vcan0 00000002#379850 R
(279130.618000) vcan0 00000001#389951 R
(279130.861000) vcan0 00000002#399A52 R
(279131.097000) vcan0 00000001#3A9B53 R
(279131.335000) vcan0 00000002#3B9C54 R
(279131.571000) vcan0 00000001#3C9D55 R
(279131.815000) vcan0 00000002#3D9E56 R
(279132.050000) vcan0 00000001#3E9F57 R
(279132.292000) vcan0 00000002#3FA058 R
(279132.528000) vcan0 00000001#40A159 R
(279132.771000) vcan0 00000002#41A25A R
(279133.007000) vcan0 00000001#42A35B R
(279133.249000) vcan0 00000002#43A45C R
(279133.485000) vcan0 00000001#44A55D R
(279133.729000) vcan0 00000002#45A65E R
(279133.964000) vcan0 00000001#46A75F R
(279134.201000) vcan0 00000002#47A860 R
(279134.441000) vcan0 00000001#48A961 R
(279134.685000) vcan0 00000002#49AA62 R
(279134.921000) vcan0 00000001#4A5563 R
(279135.157000) vcan0 00000002#4B5664 R
(279135.398000) vcan0 00000001#4C5765 R
(279135.642000) vcan0 00000002#4D5866 R
(279135.878000) vcan0 00000001#4E5967 R
(279136.113000) vcan0 00000002#4F5A68 R
(279136.352000) vcan0 00000001#505B69 R
(279136.587000) vcan0 00000002#515C6A R
(279136.831000) vcan0 00000001#525D6B R
(279137.067000) vcan0 00000002#535E6C R
(279137.309000) vcan0 00000001#545F6D R
(279137.545000) vcan0 00000002#00606E R
(279137.788000) vcan0 00000001#01616F R
(279138.024000) vcan0 00000002#026270 R
(279138.265000) vcan0 00000001#036371 R
(279138.501000) vcan0 00000002#046472 R
(279138.745000) vcan0 00000001#056573 R
(279138.981000) vcan0 00000002#066674 R
(279139.219000) vcan0 00000001#076775 R
(279139.455000) vcan0 00000002#086876 R
(279139.699000) vcan0 00000001#096977 R
(279139.935000) vcan0 00000002#0A6A78 R
(279140.170000) vcan0 00000001#0B6B79 R
(279140.412000) vcan0 00000002#0C6C7A R
(279140.656000) vcan0 00000001#0D6D7B R
(279140.892000) vcan0 00000002#0E6E7C R
(279141.128000) vcan0 00000001#0F6F7D R
(279141.365000) vcan0 00000002#10707E R
(279141.601000) vcan0 00000001#11717F R
(279141.845000) vcan0 00000002#127280 R
(279142.081000) vcan0 00000001#137381 R
(279142.319000) vcan0 00000002#147482 R
(279142.555000) vcan0 00000001#157583 R
(279142.798000) vcan0 00000002#167684 R
(279143.034000) vcan0 00000001#177785 R
(279143.276000) vcan0 00000002#187886 R
(279143.511000) vcan0 00000001#197987 R
(279143.755000) vcan0 00000002#1A7A88 R
(279143.991000) vcan0 00000001#1B7B89 R
(279144.233000) vcan0 00000002#1C7C8A R
(279144.468000) vcan0 00000001#1D7D8B R
(279144.712000) vcan0 00000002#1E7E8C R
(279144.948000) vcan0 00000001#1F7F8D R
(279145.184000) vcan0 00000002#20808E R
(279145.425000) vcan0 00000001#21818F R
(279145.669000) vcan0 00000002#228290 R
(279145.905000) vcan0 00000001#238391 R
(279146.140000) vcan0 00000002#248492 R
(279146.382000) vcan0 00000001#258593 R
(279146.618000) vcan0 00000002#268694 R
(279146.861000) vcan0 00000001#278795 R
(279147.097000) vcan0 00000002#288896 R
(279147.335000) vcan0 00000001#298997 R
(279147.571000) vcan0 00000002#2A8A98 R
(279147.815000) vcan0 00000001#2B8B99 R
(279148.050000) vcan0 00000002#2C8C9A R
(279148.292000) vcan0 00000001#2D8D9B R
(279148.528000) vcan0 00000002#2E8E9C R
(279148.771000) vcan0 00000001#2F8F9D R
(279149.007000) vcan0 00000002#30909E R
(279149.249000) vcan0 00000001#31919F R
(279149.485000) vcan0 00000002#3292A0 R
(279149.729000) vcan0 00000001#3393A1 R
(279149.964000) vcan0 00000002#3494A2 R
(279150.201000) vcan0 00000001#3595A3 R
(279150.441000) vcan0 00000002#3696A4 R
(279150.685000) vcan0 00000001#3797A5 R
(279150.921000) vcan0 00000002#3898A6 R
(279151.157000) vcan0 00000001#3999A7 R
(279151.398000) vcan0 00000002#3A9AA8 R
(279151.642000) vcan0 00000001#3B9BA9 R
(279151.878000) vcan0 00000002#3C9CAA R
(279152.114000) vcan0 00000001#3D9DAB R
(279152.352000) vcan0 00000002#3E9EAC R
(279152.587000) vcan0 00000001#3F9FAD R
(279152.831000) vcan0 00000002#40A0AE R
(279153.067000) vcan0 00000001#41A1AF R
(279153.308000) vcan0 00000002#42A2B0 R
(279153.544000) vcan0 00000001#43A3B1 R
(279153.788000) vcan0 00000002#44A4B2 R
(279154.023000) vcan0 00000001#45A5B3 R
(279154.265000) vcan0 00000002#46A6B4 R
(279154.501000) vcan0 00000001#47A7B5 R
(279154.745000) vcan0 00000002#48A8B6 R
(279154.981000) vcan0 00000001#49A9B7 R
(279155.219000) vcan0 00000002#4AAAB8 R
(279155.455000) vcan0 00000001#4B55B9 R
(279155.699000) vcan0 00000002#4C56BA R
(279155.935000) vcan0 00000001#4D57BB R
(279156.170000) vcan0 00000002#4E58BC R
(279156.412000) vcan0 00000001#4F59BD R
(279156.656000) vcan0 00000002#505ABE R
(279156.892000) vcan0 00000001#515BBF R
(279157.128000) vcan0 00000002#525CC0 R
(279157.365000) vcan0 00000001#535DC1 R
(279157.601000) vcan0 00000002#545EC2 R
(279157.845000) vcan0 00000001#005FC3 R
(279158.081000) vcan0 00000002#0160C4 R
(279158.319000) vcan0 00000001#0261C5 R
(279158.555000) vcan0 00000002#0362C6 R
(279158.798000) vcan0 00000001#0463C7 R
(279159.034000) vcan0 00000002#0564C8 R
(279159.276000) vcan0 00000001#0665C9 R
(279159.511000) vcan0 00000002#0766CA R
(279159.755000) vcan0 00000001#0867CB R
(279159.991000) vcan0 00000002#0968CC R
(279160.233000) vcan0 00000001#0A69CD R
(279160.468000) vcan0 00000002#0B6ACE R
(279160.712000) vcan0 00000001#0C6BCF R
(279160.948000) vcan0 00000002#0D6CD0 R
(279161.184000) vcan0 00000001#0E6DD1 R
(279161.425000) vcan0 00000002#0F6ED2 R
(279161.669000) vcan0 00000001#106FD3 R
(279161.905000) vcan0 00000002#1170D4 R
(279162.140000) vcan0 00000001#1271D5 R
(279162.382000) vcan0 00000002#1372D6 R
(279162.618000) vcan0 00000001#1473D7 R
(279162.861000) vcan0 00000002#1574D8 R
(279163.097000) vcan0 00000001#1675D9 R
(279163.335000) vcan0 00000002#1776DA R
(279163.571000) vcan0 00000001#1877DB R
(279163.815000) vcan0 00000002#1978DC R
(279164.050000) vcan0 00000001#1A79DD R
(279164.292000) vcan0 00000002#1B7ADE R
(279164.528000) vcan0 00000001#1C7BDF R
(279164.771000) vcan0 00000002#1D7CE0 R
(279165.007000) vcan0 00000001#1E7DE1 R
(279165.249000) vcan0 00000002#1F7EE2 R
(279165.485000) vcan0 00000001#207FE3 R
(279165.729000) vcan0 00000002#2180E4 R
(279165.964000) vcan0 00000001#2281E5 R
(279166.201000) vcan0 00000002#2382E6 R
(279166.441000) vcan0 00000001#2483E7 R
(279166.685000) vcan0 00000002#2584E8 R
(279166.921000) vcan0 00000001#2685E9 R
(279167.157000) vcan0 00000002#2786EA R
(279167.398000) vcan0 00000001#2887EB R
(279167.642000) vcan0 00000002#2988EC R
(279167.878000) vcan0 00000001#2A89ED R
(279168.113000) vcan0 00000002#2B8AEE R
(279168.352000) vcan0 00000001#2C8BEF R
(279168.587000) vcan0 00000002#2D8CF0 R
(279168.831000) vcan0 00000001#2E8DF1 R
(279169.067000) vcan0 00000002#2F8EF2 R
(279169.309000) vcan0 00000001#308FF3 R
(279169.544000) vcan0 00000002#3190F4 R
(279169.788000) vcan0 00000001#3291F5 R
(279170.024000) vcan0 00000002#3392F6 R
(279170.266000) vcan0 00000001#3493F7 R
(279170.501000) vcan0 00000002#3594F8 R
(279170.745000) vcan0 00000001#3695F9 R
(279170.981000) vcan0 00000002#3796FA R
(279171.219000) vcan0 00000001#3897FB R
(279171.455000) vcan0 00000002#3998FC R
(279171.699000) vcan0 00000001#3A99FD R
(279171.934000) vcan0 00000002#3B9AFE R
(279172.170000) vcan0 00000001#3C9BFF R
(279172.412000) vcan0 00000002#3D9C00 R
(279172.656000) vcan0 00000001#3E9D01 R
(279172.892000) vcan0 00000002#3F9E02 R
(279173.128000) vcan0 00000001#409F03 R
(279173.365000) vcan0 00000002#41A004 R
(279173.601000) vcan0 00000001#42A105 R
(279173.845000) vcan0 00000002#43A206 R
(279174.081000) vcan0 00000001#44A307 R
(279174.319000) vcan0 00000002#45A408 R
(279174.555000) vcan0 00000001#46A509 R
(279174.798000) vcan0 00000002#47A60A R
(279175.034000) vcan0 00000001#48A70B R
(279175.276000) vcan0 00000002#49A80C R
(279175.511000) vcan0 00000001#4AA90D R
(279175.755000) vcan0 00000002#4BAA0E R
(279175.991000) vcan0 00000001#4C550F R
(279176.233000) vcan0 00000002#4D5610 R
(279176.468000) vcan0 00000001#4E5711 R
(279176.712000) vcan0 00000002#4F5812 R
(279176.948000) vcan0 00000001#505913 R
(279177.184000) vcan0 00000002#515A14 R
(279177.425000) vcan0 00000001#525B15 R
(279177.669000) vcan0 00000002#535C16 R
(279177.905000) vcan0 00000001#545D17 R
(279178.140000) vcan0 00000002#005E18 R
(279178.382000) vcan0 00000001#015F19 R
(279178.618000) vcan0 00000002#02601A R
(279178.861000) vcan0 00000001#03611B R
(279179.097000) vcan0 00000002#04621C R
(279179.335000) vcan0 00000001#05631D R
(279179.571000) vcan0 00000002#06641E R
(279179.815000) vcan0 00000001#07651F R
(279180.050000) vcan0 00000002#086620 R
(279180.292000) vcan0 00000001#096721 R
(279180.528000) vcan0 00000002#0A6822 R
(279180.772000) vcan0 00000001#0B6923 R
(279181.007000) vcan0 00000002#0C6A24 R
(279181.249000) vcan0 00000001#0D6B25 R
(279181.485000) vcan0 00000002#0E6C26 R
(279181.729000) vcan0 00000001#0F6D27 R
(279181.965000) vcan0 00000002#106E28 R
(279182.201000) vcan0 00000001#116F29 R
(279182.441000) vcan0 00000002#12702A R
(279182.685000) vcan0 00000001#13712B R
(279182.921000) vcan0 00000002#14722C R
(279183.157000) vcan0 00000001#15732D R
(279183.398000) vcan0 00000002#16742E R
(279183.642000) vcan0 00000001#17752F R
(279183.878000) vcan0 00000002#187630 R
(279184.114000) vcan0 00000001#197731 R
(279184.352000) vcan0 00000002#1A7832 R
(279184.587000) vcan0 00000001#1B7933 R
(279184.831000) vcan0 00000002#1C7A34 R
(279185.067000) vcan0 00000001#1D7B35 R
(279185.309000) vcan0 00000002#1E7C36 R
(279185.544000) vcan0 00000001#1F7D37 R
(279185.788000) vcan0 00000002#207E38 R
(279186.024000) vcan0 00000001#217F39 R
(279186.266000) vcan0 00000002#22803A R
(279186.501000) vcan0 00000001#23813B R
(279186.745000) vcan0 00000002#24823C R
(279186.981000) vcan0 00000001#25833D R
(279187.219000) vcan0 00000002#26843E R
(279187.455000) vcan0 00000001#27853F R
(279187.699000) vcan0 00000002#288640 R
(279187.934000) vcan0 00000001#298741 R
(279188.170000) vcan0 00000002#2A8842 R
(279188.412000) vcan0 00000001#2B8943 R
(279188.656000) vcan0 00000002#2C8A44 R
(279188.892000) vcan0 00000001#2D8B45 R
(279189.128000) vcan0 00000002#2E8C46 R
(279189.365000) vcan0 00000001#2F8D47 R
(279189.601000) vcan0 00000002#308E48 R
(279189.845000) vcan0 00000001#318F49 R
(279190.081000) vcan0 00000002#32904A R
(279190.319000) vcan0 00000001#33914B R
(279190.555000) vcan0 00000002#34924C R
(279190.798000) vcan0 00000001#35934D R
(279191.034000) vcan0 00000002#36944E R
(279191.276000) vcan0 00000001#37954F R
(279191.511000) vcan0 00000002#389650 R
(279191.755000) vcan0 00000001#399751 R
(279191.991000) vcan0 00000002#3A9852 R
(279192.233000) vcan0 00000001#3B9953 R
(279192.468000) vcan0 00000002#3C9A54 R
(279192.712000) vcan0 00000001#3D9B55 R
(279192.948000) vcan0 00000002#3E9C56 R
(279193.184000) vcan0 00000001#3F9D57 R
(279193.425000) vcan0 00000002#409E58 R
(279193.669000) vcan0 00000001#419F59 R
(279193.905000) vcan0 00000002#42A05A R
(279194.140000) vcan0 00000001#43A15B R
(279194.382000) vcan0 00000002#44A25C R
(279194.618000) vcan0 00000001#45A35D R
(279194.861000) vcan0 00000002#46A45E R
(279195.097000) vcan0 00000001#47A55F R
(279195.335000) vcan0 00000002#48A660 R
(279195.571000) vcan0 00000001#49A761 R
(279195.815000) vcan0 00000002#4AA862 R
(279196.050000) vcan0 00000001#4BA963 R
(279196.292000) vcan0 00000002#4CAA64 R
(279196.528000) vcan0 00000001#4D5565 R
(279196.771000) vcan0 00000002#4E5666 R
(279197.007000) vcan0 00000001#4F5767 R
(279197.249000) vcan0 00000002#505868 R
(279197.485000) vcan0 00000001#515969 R
(279197.729000) vcan0 00000002#525A6A R
(279197.964000) vcan0 00000001#535B6B R
(279198.201000) vcan0 00000002#545C6C R
(279198.441000) vcan0 00000001#005D6D R
(279198.685000) vcan0 00000002#015E6E R
(279198.921000) vcan0 00000001#025F6F R
(279199.157000) vcan0 00000002#036070 R
(279199.398000) vcan0 00000001#046171 R
(279199.642000) vcan0 00000002#056272 R
(279199.878000) vcan0 00000001#066373 R
(279200.114000) vcan0 00000002#076474 R
(279200.352000) vcan0 00000001#086575 R
(279200.587000) vcan0 00000002#096676 R
(279200.831000) vcan0 00000001#0A6777 R
(279201.067000) vcan0 00000002#0B6878 R
(279201.309000) vcan0 00000001#0C6979 R
(279201.544000) vcan0 00000002#0D6A7A R
(279201.788000) vcan0 00000001#0E6B7B R
(279202.024000) vcan0 00000002#0F6C7C R
(279202.266000) vcan0 00000001#106D7D R
(279202.501000) vcan0 00000002#116E7E R
(279202.745000) vcan0 00000001#126F7F R
(279202.981000) vcan0 00000002#137080 R
(279203.219000) vcan0 00000001#147181 R
(279203.455000) vcan0 00000002#157282 R
(279203.699000) vcan0 00000001#167383 R
(279203.934000) vcan0 00000002#177484 R
(279204.170000) vcan0 00000001#187585 R
(279204.412000) vcan0 00000002#197686 R
(279204.656000) vcan0 00000001#1A7787 R
(279204.892000) vcan0 00000002#1B7888 R
(279205.128000) vcan0 00000001#1C7989 R
(279205.365000) vcan0 00000002#1D7A8A R
(279205.601000) vcan0 00000001#1E7B8B R
(279205.845000) vcan0 00000002#1F7C8C R
(279206.081000) vcan0 00000001#207D8D R
(279206.319000) vcan0 00000002#217E8E R
(279206.555000) vcan0 00000001#227F8F R
(279206.798000) vcan0 00000002#238090 R
(279207.034000) vcan0 00000001#248191 R
(279207.276000) vcan0 00000002#258292 R
(279207.511000) vcan0 00000001#268393 R
(279207.755000) vcan0 00000002#278494 R
(279207.991000) vcan0 00000001#288595 R
(279208.233000) vcan0 00000002#298696 R
(279208.468000) vcan0 00000001#2A8797 R
(279208.712000) vcan0 00000002#2B8898 R
(279208.948000) vcan0 00000001#2C8999 R
(279209.184000) vcan0 00000002#2D8A9A R
(279209.425000) vcan0 00000001#2E8B9B R
(279209.669000) vcan0 00000002#2F8C9C R
(279209.905000) vcan0 00000001#308D9D R
(279210.140000) vcan0 00000002#318E9E R
(279210.382000) vcan0 00000001#328F9F R
(279210.618000) vcan0 00000002#3390A0 R
(279210.861000) vcan0 00000001#3491A1 R
(279211.097000) vcan0 00000002#3592A2 R
(279211.335000) vcan0 00000001#3693A3 R
(279211.571000) vcan0 00000002#3794A4 R
(279211.815000) vcan0 00000001#3895A5 R
(279212.050000) vcan0 00000002#3996A6 R
(279212.292000) vcan0 00000001#3A97A7 R
(279212.528000) vcan0 00000002#3B98A8 R
(279212.771000) vcan0 00000001#3C99A9 R
(279213.007000) vcan0 00000002#3D9AAA R
(279213.249000) vcan0 00000001#3E9BAB R
(279213.485000) vcan0 00000002#3F9CAC R
(279213.729000) vcan0 00000001#409DAD R
(279213.964000) vcan0 00000002#419EAE R
(279214.201000) vcan0 00000001#429FAF R
(279214.441000) vcan0 00000002#43A0B0 R
(279214.685000) vcan0 00000001#44A1B1 R
(279214.921000) vcan0 00000002#45A2B2 R
(279215.157000) vcan0 00000001#46A3B3 R
(279215.398000) vcan0 00000002#47A4B4 R
(279215.642000) vcan0 00000001#48A5B5 R
(279215.878000) vcan0 00000002#49A6B6 R
(279216.114000) vcan0 00000001#4AA7B7 R
(279216.352000) vcan0 00000002#4BA8B8 R
(279216.587000) vcan0 00000001#4CA9B9 R
(279216.831000) vcan0 00000002#4DAABA R
(279217.067000) vcan0 00000001#4E55BB R
(279217.308000) vcan0 00000002#4F56BC R
(279217.544000) vcan0 00000001#5057BD R
(279217.788000) vcan0 00000002#5158BE R
(279218.023000) vcan0 00000001#5259BF R
(279218.265000) vcan0 00000002#535AC0 R
(279218.501000) vcan0 00000001#545BC1 R
(279218.745000) vcan0 00000002#005CC2 R
(279218.981000) vcan0 00000001#015DC3 R
(279219.219000) vcan0 00000002#025EC4 R
(279219.455000) vcan0 00000001#035FC5 R
(279219.698000) vcan0 00000002#0460C6 R
(279219.934000) vcan0 00000001#0561C7 R
(279220.170000) vcan0 00000002#0662C8 R
